t,iq,id,vq,vd,ia,ib,va,vb,theta_e,omega,r
0,0,0,0,0,0,0,0,0,0,0,0
0.01,0.00103519376205953,0.000567350717831805,-0.0494335265333661,-0.0284041623638065,-0.000179903311420739,0.00116668237347235,0.00755030097289421,-0.0565107329658111,0.654350068057501,-0.00619906552990462,0
0.02,0.00113848333793291,0.000628311106553326,-0.0550322005833428,-0.0314561070051085,-0.000194346235372119,0.00128574830280495,0.00853366609172321,-0.0628108773382213,0.654307299300233,-0.00571001696797862,0
0.03,0.00117339163285878,0.000651761937772974,-0.0570166355634275,-0.0326301648313893,-0.000196934548906174,0.00132772675315356,0.00880739683196576,-0.0651003390846824,0.654269873485646,-0.00489297840020766,0
0.04,0.00113938637687026,0.000638303137580916,-0.0557129935613886,-0.0319563598200706,-0.000186881930343852,0.00129255845336067,0.00854685571831424,-0.0636560903751673,0.654241128326613,-0.00383891882421149,0
0.05,0.0011591412642788,0.000652091974681243,-0.0568678937661994,-0.0326466960258834,-0.000187930093238017,0.0013166300520849,0.0087002986152883,-0.0649928373500879,0.654216643631584,-0.00328277510460727,0
0.06,0.00115462608620195,0.000652559965505615,-0.0568505501533347,-0.0326701037485187,-0.000184784867656538,0.00131333562359508,0.00866987286520141,-0.0649934922602028,0.654196689366821,-0.00268495434303577,0
0.07,0.00118249482822994,0.000670424677776882,-0.0582968080430104,-0.0335644934921304,-0.000187546299898814,0.00134632449756998,0.00883918108027051,-0.0666855451294885,0.6541810917368,-0.00243786530451435,0
0.08,0.00114786154735141,0.000653181594579592,-0.0568148439062081,-0.0327012303855084,-0.000180137396377272,0.00130835119360664,0.00862156646097017,-0.0649843484892475,0.654167786516743,-0.0018174672604529,0
0.09,0.00114363816972955,0.000652588039908935,-0.0567172900957065,-0.0326715317870284,-0.000178025133040176,0.00130464035852819,0.00858510802695596,-0.0648889505638428,0.654157546047996,-0.00149730157436139,0
0.1,0.00114126279627421,0.000652565746067171,-0.0566857720848828,-0.0326704103838676,-0.000176586775266744,0.00130274323406446,0.00856628893945482,-0.0648633268135036,0.654149366295086,-0.00124856154073486,0
0.11,0.00113940422906014,0.000652563422744285,-0.0566625213552995,-0.0326702930412156,-0.000175449190394178,0.00130126807364735,0.00855180981389309,-0.0648448604181216,0.654142819316219,-0.00104977281892141,0
0.12,0.0011379184237398,0.000652562094048809,-0.0566439928783534,-0.0326702098684974,-0.00017453934975596,0.00130008908966371,0.00854026186889294,-0.0648301509273683,0.654137578621796,-0.000890660203616068,0
0.13,0.00119378558722908,0.00068376313836037,-0.0592956578550261,-0.0342322914907747,-0.000183765185905634,0.00136340984817676,0.00891372801358592,-0.0678849782652208,0.654131979060076,-0.00112360441840248,0
0.14,0.00125091900912149,0.00071818061136968,-0.0624039196680871,-0.0359553861441265,-0.000191210070168458,0.00142969243790229,0.00943729562295617,-0.0714001150842157,0.654127620787679,-0.0014006463305098,0
0.15,0.00113898632151582,0.000654808303490526,-0.0568258538370371,-0.0327826723153279,-0.000173388759427932,0.00130230568340322,0.00856078114139964,-0.0650430188005717,0.654123873396855,-0.000509297292624917,0
0.16,0.00113381196335137,0.000652635417162611,-0.0565999575045013,-0.0326738794920791,-0.000171962730158738,0.00129687754834836,0.0085095683546603,-0.0647975681410315,0.654122346975242,-0.000429699442073178,0
0.17,0.00113328052308346,0.000652560649585702,-0.056586398685603,-0.0326701531339947,-0.000171697200286543,0.00129641051245421,0.00850420041048377,-0.0647845506072474,0.654121188113034,-0.000393093203102366,0
0.18,0.00113300981964675,0.000652557865343519,-0.0565827065008683,-0.0326699960274701,-0.00017153349812466,0.001296194151375,0.00850201861344205,-0.0647815328229813,0.654120263161998,-0.000364950055273076,0
0.19,0.00113279945715717,0.000652557592938258,-0.0565800362535653,-0.0326699938127101,-0.00017140475742452,0.00129602717231129,0.00850034767327492,-0.0647794187038656,0.6541195228724,-0.000342471610090336,0
0.2,0.00113263135342933,0.000652557441937434,-0.0565779050637898,-0.0326699914741354,-0.000171301824813429,0.00129589377751985,0.0084990143976993,-0.0647777310392622,0.65411893029051,-0.000324480182655389,0
0.21,0.00113249677731753,0.000652557323354392,-0.0565761914017695,-0.0326699919478863,-0.000171219420045149,0.00129578698909097,0.00849794059983894,-0.0647763754231913,0.654118455941133,-0.000310078493751145,0
0.22,0.00113238940472869,0.000652557228503914,-0.0565748303201339,-0.0326699653444094,-0.000171153671414931,0.00129570178713147,0.00849710895270563,-0.064775282329008,0.654118076233824,-0.000298550232283981,0
0.23,0.00113230314097537,0.000652557152577067,-0.0565737180538342,-0.0326699656789047,-0.000171100849855865,0.00129563333533094,0.00849641223012014,-0.0647744024373162,0.654117772286148,-0.00028932208858193,0
0.24,0.00113223410668965,0.000652557091796817,-0.0565728216079215,-0.032669965962632,-0.000171058578313742,0.00129557855539173,0.00849585079436365,-0.0647736932709658,0.654117528982267,-0.000281935143215333,0
0.25,0.0011321789258272,0.000652557043141817,-0.0565721009702478,-0.0326699662055286,-0.00017102478930613,0.001295534768381,0.00849539950780973,-0.0647731231859403,0.654117334222504,-0.00027602204046569,0
0.26,0.00114443528714627,0.000659147398639342,-0.0571423524236266,-0.0329999101834648,-0.00017325222050272,0.00130927120478893,0.00858053280171818,-0.0654264240919625,0.654117293733643,-0.000360831411291751,0
0.27,0.00110465462791342,0.000636941462379524,-0.0552992919438236,-0.0318881874637149,-0.000166668749842022,0.00126419057158911,0.00834130906046765,-0.0632873664515045,0.654116600313267,-6.21619770331199e-05,0
0.28,0.00110068492559945,0.000634016562452658,-0.0547328707958649,-0.0317417545481403,-0.000166574361184697,0.00125926061206649,0.0081128650033459,-0.0627487653168468,0.654116482203363,-3.0969470922819e-05,0
0.29,0.00113072241621131,0.000651921336633887,-0.0565083154016009,-0.0326381447577821,-0.000170642503370994,0.00129399217452214,0.00848181429171884,-0.0647031454341869,0.65411691159382,-0.000253816305490312,0
0.3,0.00112466541718938,0.000648837292873939,-0.056208196074681,-0.0324837475493041,-0.000169406990855122,0.00128730858953677,0.00842185491403921,-0.0643710145999236,0.654118829148647,-0.000265741853395527,0
0.31,0.00113216417127579,0.00065242979538342,-0.0565602032907079,-0.0326636087190389,-0.000171118278603492,0.0012954454381997,0.00849327969535761,-0.064759803357122,0.654118480458408,-0.000308441201277549,0
0.32,0.0011323817210601,0.000652552862376367,-0.0565739543675181,-0.032669747901379,-0.000171152492387507,0.00129569302874414,0.00849675009426742,-0.0647744546758461,0.654118100376735,-0.0002991804349693,0
0.33,0.00113230803040858,0.000652557007566818,-0.0565734712599027,-0.0326699577338479,-0.000171103965252703,0.0012956371239383,0.0084962696358461,-0.0647742015852102,0.654117791811279,-0.000289909555986622,0
0.34,0.00113223853047187,0.000652557090566427,-0.0565725907478685,-0.0326699667496719,-0.000171061291249185,0.00129558206261502,0.00849571071418749,-0.064773510409822,0.654117544626347,-0.000282408948937833,0
0.35,0.00113218241828684,0.000652557046095895,-0.0565718566092319,-0.0326699669953,-0.000171026928212879,0.00129553753960019,0.0084952510089739,-0.0647729296387311,0.654117346752073,-0.000276401464327953,0
0.36,0.0011321374819727,0.000652557006694978,-0.0565712610309731,-0.0326699672079889,-0.000170999412374921,0.00129550188191358,0.00849487819562644,-0.0647724584715374,0.654117188357634,-0.000271592447142983,0
0.37,0.00113210162605364,0.000652556975024292,-0.0565707829952117,-0.0326699673938975,-0.000170977456400434,0.00129547342958819,0.00849457897043198,-0.0647720802994991,0.654117061566131,-0.000267742918380925,0
0.38,0.00113207275505387,0.000652556949667896,-0.0565703848811078,-0.0326699675592242,-0.000170959778229041,0.00129545051990534,0.00849433002927232,-0.0647717653246477,0.654116960072348,-0.000264661446954854,0
0.39,0.00113204970482019,0.00065255692937008,-0.0565700621861175,-0.0326699677073938,-0.000170945663976279,0.00129543222911123,0.00849412830285197,-0.0647715100188196,0.654116878828964,-0.000262194790395534,0
0.4,0.00113203131119938,0.000652556913121956,-0.0565697997351547,-0.0326699678418405,-0.000170934400867146,0.00129541763342917,0.00849396429328397,-0.064771302375719,0.654116813795302,-0.000260220280908273,0
0.41,0.00113201652645353,0.000652556900115541,-0.0565695795758113,-0.0326699679656481,-0.000170925347847047,0.00129540590145162,0.00849382686533909,-0.0647711281779325,0.65411676173742,-0.000258639725363207,0
0.42,0.00113200465209072,0.000652556889704451,-0.0565693943615343,-0.0326699680808752,-0.000170918077071186,0.00129539647891527,0.00849371137962136,-0.0647709816185912,0.654116720066541,-0.000257374522105333,0
0.43,0.00113199522244967,0.000652556881370498,-0.0565692428656877,-0.032669968188886,-0.000170912302929746,0.00129538899631737,0.00849361695443521,-0.064770861742695,0.654116686710009,-0.000256361752079738,0
0.44,0.00113198765545377,0.000652556874699128,-0.0565691136226862,-0.0326699682914077,-0.000170907669432692,0.00129538299176186,0.0084935365046095,-0.0647707594664663,0.654116660008706,-0.000255551049829081,0
0.45,0.00113198160185704,0.000652556869359376,-0.0565690033059442,-0.0326699683894724,-0.000170903962621417,0.00129537818811775,0.00849346791926287,-0.0647706721618782,0.65411663863534,-0.000254902098813305,0
0.46,0.0011319767124101,0.000652556865084554,-0.0565689058191007,-0.0326699655737179,-0.000170900968826488,0.00129537430824528,0.00849340972897775,-0.0647705932297513,0.654116621526754,-0.000254382626438045,0
0.47,0.00113197287070449,0.000652556861662685,-0.0565688243604826,-0.032669965665251,-0.000170898616283686,0.00129537125978089,0.00849335920512097,-0.0647705287573646,0.654116607831739,-0.000253966799142182,0
0.48,0.00113196961107548,0.000652556858924066,-0.0565687429007612,-0.0326699657550705,-0.000170896620907667,0.00129536867319291,0.00849330885893541,-0.0647704642598509,0.654116596869155,-0.000253633937665981,0
0.49,0.00113196716635373,0.00065255685673157,-0.0565686789168168,-0.0326699658424821,-0.000170895123769624,0.00129536673326207,0.00849326928965695,-0.0647704136108164,0.654116588094472,-0.000253367488679785,0
0.5,0.00113196518729326,0.000652556854976509,-0.0565686195634223,-0.0326699659285182,-0.000170893911887595,0.00129536516284037,0.0084932326523517,-0.0647703666208149,0.654116581070339,-0.000253154201570767,0
0.51,4.57625892624437,0.000117796300506401,11.1884145820717,0.00924449746550273,-1.44012223326209,4.3437534146371,-3.51242802493652,10.6227847427447,0.320160230154674,98.1777636814996,4207.52306912344
0.52,4.66886508051726,0.0531026547805864,6.5596996883487,-2.62110751465947,-4.62814984836936,0.617535434656904,-6.82861348247216,-1.80828717623219,1.44952281208692,210.975026281623,4207.52306912344
0.53,4.51134767852002,0.0718149685701421,14.4374830711993,-3.55757807885008,1.27244281579571,-4.32877633364541,7.68835633804611,-12.7273899931411,-2.83977833312705,332.845649237043,4207.52306912344
0.54,4.51543074517245,0.0201876921669727,14.2353625893926,-0.933907418729742,-0.0185366092590905,4.51543782500444,-1.05595310233859,14.2268300813603,0.00857593348591379,444.22960355428,4207.52306912344
0.55,4.52275161913594,0.0504993401290617,13.871639312618,-2.44290214159766,2.35853638021245,-3.85942204675319,9.43520132740492,-10.4578737802733,-2.58187796275405,560.355880275092,4207.52306912344
0.56,4.43348309739285,0.0233222104211091,18.3376569550596,-1.07160836318238,-4.1299206867423,-1.61247369640097,-16.6515257000036,-7.75530134473235,1.94829204377595,674.944925787084,4207.52306912344
0.57,4.45370910882955,0.145205218617632,17.3291470144355,-7.14655878493258,-3.74259225835044,2.41859723172761,-18.5345018799528,2.80087107458399,1.02966348767453,788.038482931851,4207.52306912344
0.58,4.34424537268158,0.085193819625869,22.8053335871888,-4.11476280924116,-3.46183963690363,2.62590787601749,-20.8583020953878,10.0968186423654,0.941466794793046,901.342144353677,4207.52306912344
0.59,4.30941707500509,0.0174470292855236,24.5499758519567,-0.750018238918039,-4.28428249695833,-0.465084305726161,-24.3117005915413,-3.49357353402167,1.68297739304903,1014.84614620448,4207.52306912344
0.6,4.24912343567745,0.0858487189170378,27.5680378740816,-4.16911552011215,0.3583045411188,-4.23485983593043,7.02491803582974,-26.9820081357321,-3.03698420638436,1126.71406306573,4207.52306912344
0.61,4.3262439900013,0.0517384252980976,23.7154563923426,-2.38534053298422,2.66307279755865,3.40985442512988,12.4753802811023,20.3095447560324,-0.651084814204278,1237.96954559106,4207.52306912344
0.62,4.28208869003277,0.102822461807159,25.9268685287867,-4.92794156838289,-2.45855949668402,-3.50746934544316,-10.2656116689766,-24.3126373902988,2.55423721594121,1349.51661911755,4207.52306912344
0.63,4.21157433392127,0.0933611032449206,29.4563225013776,-4.43969333294701,-1.12439317287384,4.059780124408,-12.7407448478386,26.9269239408822,0.29235079929118,1461.147867641,4207.52306912344
0.64,4.1280578799464,0.0541419585830578,33.6360173949726,-2.54996301721723,3.79728908691972,1.61999654389358,29.7311646455365,15.935552277975,-1.15444012866886,1572.78844048569,4207.52306912344
0.65,4.14999294263447,0.133521756563524,32.5433347033784,-6.42433763792036,4.02150632260048,-1.03332297984516,33.1614758513067,-0.81072009060703,-1.79014180115419,1682.28910416195,4207.52306912344
0.66,4.13026340066216,0.133158799734262,33.5339993554955,-6.4596701097496,4.11949013560994,-0.326508877993208,33.7998046626424,4.88156281004201,-1.61766189360355,1793.10863050097,4207.52306912344
0.67,4.07070598582405,0.128055874069964,36.5161904836303,-6.22718124507474,2.53105473706789,3.19073775918263,16.7849181982515,33.022363252405,-0.639164369384578,1903.1080514466,4207.52306912344
0.68,4.02274119486082,0.151000232582018,38.9188242361261,-7.37030047638329,-3.59897026619659,1.80351346379863,-38.4765203841327,9.41029160887562,1.14377271427594,2012.69671968943,4207.52306912344
0.69,4.09038778871553,0.109904056745483,35.5409899642401,-5.27045633926882,2.17628137998037,-3.46513354993902,24.0905568921807,-26.6567954992148,-2.55393980840331,2121.80787300449,4207.52306912344
0.7,3.96794062078417,0.212593822936229,41.6678672646947,-10.3255065394088,-2.78724497892054,2.83213953242102,-37.7356289089014,20.4658143872476,0.830935799213335,2230.19295009438,4207.52306912344
0.71,3.92429843768054,0.124137834594132,43.8544105686094,-6.00716953909753,3.78550232003749,1.04187360795367,40.1167360942978,18.7067607386229,-1.27059621996636,2339.24441716442,4207.52306912344
0.72,3.9321270178454,0.160783636292423,43.4673965159136,-7.68184531901366,1.96603041615331,-3.40913459178854,29.7276699962974,-32.6296022649395,-2.5776185998017,2446.99957584538,4207.52306912344
0.73,3.8920619917358,0.166901707494485,45.4749117088704,-8.01005627898044,-2.34828425884475,-3.10830561031906,-19.2403261463569,-41.9754505193667,2.53744548456826,2555.15452796336,4207.52306912344
0.74,3.93009987677633,0.202200956788559,43.5771351442182,-9.76520792806247,-1.45527458294907,-3.65632960174352,-4.76669793508122,-44.4027542394776,2.81420251597218,2662.90265922485,4207.52306912344
0.75,3.8828636404519,0.220563697540365,45.9428893429009,-10.6390739843254,2.44837174509235,-3.0217137840718,38.7739568894886,-26.8424895184867,-2.40388385234637,2770.12048111748,4207.52306912344
0.76,3.73019424071157,0.103229395717671,48,-4.93489378710975,2.04993299306367,3.11813728137923,21.05172618006,43.418636569218,-0.553908386275101,2877.4577843755,4207.52306912344
0.77,3.85397103089604,0.191908878127909,47.3950730958475,-9.24034336457288,-3.46000459906022,-1.7083002953147,-36.9036354896039,-31.1415893445787,2.07916756560883,2983.75235813931,4207.52306912344
0.78,3.71215084716854,0.0814764351834969,48,-3.82754733658271,2.70170426243257,2.54705641868766,31.508984999712,36.4120032805352,-0.792908274040987,3089.94741250889,4207.52306912344
0.79,3.72137394424506,0.195334605572463,48,-9.39590618485927,0.737664988806517,-3.6527564941191,21.0546887453187,-44.1472890999258,-2.88988342594651,3195.26434395125,4207.52306912344
0.8,3.72336102393422,0.238184325584113,48,-11.4575480892091,-3.38404536126987,-1.57110982441532,-36.6791523159298,-33.0138636575813,2.0693365931452,3300.60484658229,4207.52306912344
0.81,3.64403784481857,0.135175426853842,48,-6.50210214414204,-3.63127493464309,0.333356505153164,-48.2827926597975,-3.87933825076609,1.51632936780698,3405.63883346862,4207.52306912344
0.82,3.79908821775088,0.195533800429384,48,-9.45704489493961,-3.25091655950965,1.97556226843647,-46.7361848118585,14.4625283881037,1.07616195879958,3510.18055668733,4207.52306912344
0.83,3.20452398244927,0.225171702004352,48,-10.830564704211,-2.94890588952147,-1.27421752625744,-37.6372881493986,-31.6975657199609,2.04881550279852,3610.1570342486,4207.52306912344
0.84,2.69839446316193,0.0562308167021012,48,-2.59145340325691,1.38171750005689,-2.31848039319001,27.6248553211372,-39.3393314537434,-2.58331472949397,3695.10708061544,4207.52306912344
0.85,2.03972710858221,0.0586162935406784,48,-2.83422792085974,0.776182407179287,1.88718399159673,14.3242363256688,45.9004259413109,-0.361472808245746,3766.33778507734,4207.52306912344
0.86,1.68575738134991,0.223532821228224,48,-10.8986945412724,-1.36685998319107,-1.01165145049709,-26.9145971942452,-41.2114789903916,2.33978116020175,3826.17542579559,4207.52306912344
0.87,1.40538029163132,0.241850838641391,48,-11.8721720460081,1.20668048939406,0.759939332297639,27.7511234777707,40.9246089145827,-0.83834938891812,3876.69166050894,4207.52306912344
0.88,1.13742823376239,0.183308433530201,48,-8.99005248579241,-0.738652534167154,-0.884159150001609,-16.7929754797553,-45.856482837584,2.60540516851448,3919.02353613728,4207.52306912344
0.89,0.882701151909569,0.145356175063372,48,-7.11702564725636,0.620466841315016,0.644445994665263,21.3699930262478,43.5657600888797,-0.603235967884606,3954.63719077886,4207.52306912344
0.9,0.670768103594133,0.249304199399534,48,-12.327437716595,-0.0936425400250577,-0.709445915722381,22.7087525402022,-44.0485899743044,-2.91698013906339,3984.83207995061,4207.52306912344
0.91,0.412580510079893,0.180370487103524,48,-8.88834278504298,-0.33637688906643,0.299343913279922,-48.3915216769841,6.42364906033948,1.25572477377447,4010.27746909625,4207.52306912344
0.92,0.243890957797088,0.144287250216743,48,-7.17563977383224,0.265895115378842,0.0979867209777042,24.7486602403072,41.7491751112958,-0.683497691319958,4031.74514579921,4207.52306912344
0.93,0.181486040252331,-0.088249246805887,48,4.27827015737162,0.18137242299838,-0.0884825211212584,26.2247631076244,-40.4297587859294,-2.47727132958692,4049.91163421225,4207.52306912344
0.94,0.202587161282292,-0.143288170064892,48,7.08843285475389,-0.0946803480390725,-0.229365841598445,-44.360933460947,-19.6558760377092,2.13450487619268,4065.11760513175,4207.52306912344
0.95,0.064679499822525,-0.0195231376110809,48,0.978148708680426,-0.0511586190598196,0.0441292000308806,-24.910248875225,41.0418844093524,0.565887219402963,4078.12157844479,4207.52306912344
0.96,-0.0108205701904358,0.0699918550219795,48,-3.4236784687032,-0.0107449876929885,-0.0700034981136048,47.9962751791818,3.47550617627472,-1.56971654109615,4089.041573482,4207.52306912344
0.97,-0.22885178051782,-0.00860885852814564,48,0.252696751678652,-0.0289804393951485,0.227172586426704,7.61042531457909,-47.3935151912107,-2.9771079745203,4098.37450629521,4207.52306912344
0.98,-0.051903663236249,0.0666420527506936,48,-3.47438656639216,0.0225711050182836,0.0813983947656327,-43.0486985602605,-21.5146674220299,1.96200695874483,4106.14937258018,4207.52306912344
0.99,-0.131544346962719,0.133059062051972,48,-6.68032133213633,0.186017744188293,-0.0201501379423942,-35.1027287901734,33.41294845691,0.671770745113371,4113.05188473618,4207.52306912344
