t,iq,id,vq,vd,ia,ib,va,vb,theta_e,omega,r
0,0,0,0,0,0,0,0,0,0,0,0
0.01,0.000662622472137644,0.000378627508746911,-0.0328170116816063,-0.018954460037441,-0.000518860275031467,-0.000559652879878202,0.0258943582505615,0.027671465841426,2.91312976708729,-0.00111063082565051,0
0.02,0.000735339222067676,0.0004200972361959,-0.0364565404434268,-0.0210304800506044,-0.00057572655524685,-0.000621083241565995,0.0287409734964405,0.0307460058339126,2.91312142487267,-0.00119705694394364,0
0.03,0.00076382648647478,0.00043637728968414,-0.0378678902904163,-0.0218454665911266,-0.000598041146038378,-0.000645137836464105,0.0298547111908333,0.0319358379464665,2.91311282277038,-0.0012062069176253,0
0.04,0.000747260742053382,0.000427098260033004,-0.0370554209498642,-0.0213809510149206,-0.000585256290753799,-0.00063109952818117,0.0292184992171466,0.0312494574604371,2.91310470544667,-0.00114011436177552,0
0.05,0.000763890807199818,0.000436657701552456,-0.0378812478114576,-0.02185950816128,-0.00059833929111342,-0.000645127279193302,0.0298719308517018,0.0319451839875321,2.91309662122461,-0.00113126969135783,0
0.06,0.000764377516591969,0.000437044294819146,-0.0379102089739863,-0.0218788605242306,-0.000598831164939783,-0.000645509054469519,0.0298975920169173,0.0319687734184471,2.91308874704829,-0.00109563245253683,0
0.07,0.000784666816711231,0.000448792622383799,-0.0389162558140673,-0.0224669875479575,-0.00061487504645553,-0.000662605092343979,0.0306985690049076,0.0328152153294311,2.91308121375793,-0.00109563340001748,0
0.08,0.000764847230415218,0.000437533748229877,-0.0379427492372985,-0.0219033687620891,-0.000599423961718862,-0.00064584671620376,0.0299293130874761,0.0319944682863212,2.9130737804593,-0.00102711297207894,0
0.09,0.00076382262049416,0.000437074161268131,-0.037896638190981,-0.021880348703488,-0.000598748797916189,-0.000644948598743128,0.029896672898253,0.0319545582848397,2.91306667071432,-0.000992417174601237,0
0.1,0.000763594441613811,0.000437053687671988,-0.0378896803330752,-0.0218793282349629,-0.000598681591767414,-0.000644726879267513,0.0298943220955436,0.0319478072205866,2.91305980382964,-0.000960216288023036,0
0.11,0.000763405960798024,0.000437051126622623,-0.0378845352239836,-0.0218791997380691,-0.000598640673841362,-0.000644539907132847,0.0298932432662276,0.0319426266506328,2.9130531686808,-0.000929157159421938,0
0.12,0.00076322527982434,0.000437049351945038,-0.0378796336435279,-0.0218791076513785,-0.000598602142324084,-0.000644360488394141,0.0298922478596297,0.0319376817331341,2.91304675732817,-0.000899147936333578,0
0.13,0.000799463059950439,0.000457856228697192,-0.0396721059870163,-0.0229207172616098,-0.000627082395163389,-0.000674937908298446,0.0313130923684668,0.0334473544477823,2.91304033414017,-0.000931721630654469,0
0.14,0.0008365277523092,0.000479400327127451,-0.0415537094295897,-0.0239992481833193,-0.000656468289766529,-0.000706153480883864,0.0327901043890447,0.0350354639598062,2.91303413374697,-0.000966749729820981,0
0.15,0.000765795458959971,0.000438766216566565,-0.0380181675710462,-0.0219650570311673,-0.000600868733992831,-0.000646463643427612,0.0300079470524955,0.0320525803881249,2.91302809079786,-0.000817102183941428,0
0.16,0.000762672107792233,0.000437112761313645,-0.037867507130882,-0.0218822869054617,-0.000598554183382652,-0.000643792823556316,0.0298933710129003,0.0319244255391609,2.91302251377498,-0.000785896702876591,0
0.17,0.000762395871246834,0.000437044137224653,-0.0378572362883529,-0.0218788535616681,-0.000598428213914087,-0.000643536102459106,0.0298878713823419,0.0319150390380098,2.91301713587235,-0.000760510325067044,0
0.18,0.000762244201715997,0.00043703999259421,-0.0378529982929356,-0.0218786444952822,-0.000598393153313902,-0.000643386207688235,0.0298868732756226,0.0319108033512602,2.91301193981933,-0.000736180547668542,0
0.19,0.000762102485803928,0.000437038514997712,-0.0378491408033395,-0.0218785663939287,-0.000598362831581811,-0.00064324550852791,0.0298860833144173,0.0319069138452511,2.9130069190389,-0.000712679789724618,0
0.2,0.000761965625298111,0.000437037189881978,-0.0378454157946324,-0.0218785122944037,-0.000598333648320745,-0.000643109605559631,0.0298853413106745,0.0319031530045148,2.91300206760068,-0.000689972021565585,0
0.21,0.000761833571858134,0.000437035913537819,-0.0378418247186226,-0.0218784400397676,-0.000598305495375175,-0.000642978471751446,0.0298846067190554,0.0318995316243994,2.91299737979254,-0.000668030158021102,0
0.22,0.000761705849951473,0.000437034680318912,-0.0378383474162727,-0.0218783859590014,-0.000598278263161546,-0.000642851641889599,0.0298839105348262,0.0318960216721786,2.91299285009513,-0.000646828352352539,0
0.23,0.00076158264407114,0.000437033488614128,-0.0378349965467188,-0.0218783137275767,-0.000598251995464804,-0.000642729292815415,0.0298832204204614,0.0318926435491731,2.912988473176,-0.000626341643237845,0
0.24,0.000761463420479364,0.000437032337022258,-0.03783174881139,-0.0218782596629604,-0.000598226573388498,-0.000642610901886301,0.0298825666361202,0.0318893661781771,2.91298424388196,-0.000606545911823582,0
0.25,0.000761348271422305,0.000437031224195733,-0.0378286120054639,-0.0218782056040058,-0.000598202019826061,-0.000642496556252073,0.0298819334212048,0.0318862011177525,2.91298015723399,-0.00058741785276178,0
0.26,0.000769008873506919,0.000441463951495237,-0.0382091313163514,-0.022100112069493,-0.000604258053614053,-0.000648950901567079,0.0301844282264064,0.0322064118162712,2.91297623711307,-0.000582435092596996,0
0.27,0.000743739135684232,0.000427013985145465,-0.0369644157751789,-0.0213767312802398,-0.000584459634429303,-0.000627611170376138,0.0291979010390491,0.0311579082857269,2.91297232301732,-0.000520841732894526,0
0.28,0.000741074034516925,0.000425475443259978,-0.0367897549184207,-0.0212997070254584,-0.000582359434246754,-0.000625361948631565,0.0290834114652214,0.0310051409265053,2.9129686270811,-0.000499137711992798,0
0.29,0.000760086383843084,0.00043655745403521,-0.037775677022343,-0.0218544942496426,-0.000597464230160489,-0.000641365898108167,0.0298473206381475,0.0318395688433065,2.91296514126229,-0.000515691413476027,0
0.3,0.000755864131010778,0.000434246974520974,-0.0375692274261509,-0.0217388178277655,-0.00059425890979963,-0.000637775326861312,0.0296879622848164,0.0316646166141633,2.91296204899812,-0.00049410529613036,0
0.31,0.000760535182095126,0.000436912392928682,-0.0378018218897128,-0.0218722593690487,-0.000597915763648688,-0.000641718740477119,0.0298707532654299,0.0318608155489517,2.91295872941749,-0.000486762727164377,0
0.32,0.000760644779717453,0.000437019915479177,-0.0378092328403092,-0.0218776322220738,-0.000598047398135183,-0.000641799187457088,0.0298777687519565,0.031866719536558,2.91295550410101,-0.000472010720078974,0
0.33,0.000760565219992374,0.000437023473352654,-0.0378072396927044,-0.0218778174717481,-0.000598034831598262,-0.000641719027549055,0.0298775967641761,0.0318646431347665,2.91295238682443,-0.000457434401006355,0
0.34,0.000760480654131277,0.000437022831869402,-0.037804933079898,-0.0218777903009486,-0.000598016972385755,-0.000641635006543176,0.0298771434736595,0.0318623127139606,2.91294937465625,-0.000443336183597624,0
0.35,0.00076039859118737,0.000437022046136237,-0.0378026857634448,-0.0218777543992028,-0.000597999474308459,-0.000641553516875752,0.0298766918689507,0.0318600450635175,2.91294646408163,-0.000429712903576127,0
0.36,0.0007603193222105,0.000437021280126012,-0.0378005143565745,-0.021877718495705,-0.00059798256528508,-0.000641474802797965,0.0298762543279718,0.0318578542831945,2.91294365167539,-0.000416549087038952,0
0.37,0.000760242939440109,0.0004370205396441,-0.0377984255324262,-0.0218776644648652,-0.000597966274047442,-0.000641398950841968,0.029875814816215,0.0318557508816669,2.91294093412595,-0.000403829260061368,0
0.38,0.00076016870049658,0.000437019824094672,-0.0377963843010191,-0.0218776466834042,-0.000597950433838009,-0.000641325236162849,0.0298754184671982,0.0318536883585557,2.9129383082347,-0.000391538448684361,0
0.39,0.000760097173134457,0.000437019132650076,-0.037794421042262,-0.0218776093191995,-0.000597935174562781,-0.00064125421006789,0.029875017887567,0.03185170886563,2.91293577090963,-0.000379662183070071,0
0.4,0.000760028090495468,0.000437018464499145,-0.0377925243820632,-0.0218775734082291,-0.000597920436896634,-0.000641185611033745,0.0298746310838459,0.0318497964672524,2.91293331916365,-0.000368186481381006,0
0.41,0.000759961452577549,0.000437017818858261,-0.0377906961750193,-0.0218775374948138,-0.000597906221961271,-0.000641119437502412,0.0298742571515161,0.0318479532132709,2.9129309501107,-0.000357097833358007,0
0.42,0.000759897026550056,0.000437017194969589,-0.0377889265883503,-0.0218775015794979,-0.000597892478062765,-0.000641055461200254,0.0298738939520081,0.0318461694431974,2.91292866096146,-0.000346383184417059,0
0.43,0.000759834487344804,0.000437016592101652,-0.0377872011544742,-0.0218774837782025,-0.000597879132560339,-0.000640993364068287,0.0298735559368318,0.031844426878862,2.91292644902077,-0.000336029920280822,0
0.44,0.000759774368683186,0.000437016009546384,-0.0377855482307774,-0.0218774478571549,-0.000597866307444147,-0.00064093366453236,0.0298732143270599,0.0318427612749347,2.91292431168479,-0.000326025852126663,0
0.45,0.000759716229081351,0.000437015446620225,-0.0377839473461525,-0.0218774119342191,-0.000597853903612727,-0.00064087593124511,0.0298728822094503,0.0318411485109542,2.91292224643724,-0.000316359202238321,0
0.46,0.000759659859885034,0.000437014902662696,-0.0377823897158239,-0.0218773926656923,-0.000597841874706762,-0.000640819959674276,0.0298725738934205,0.0318395761823146,2.9129202508464,-0.000307018590138801,0
0.47,0.00075960567840308,0.000437014377034701,-0.037780897693858,-0.0218773567368594,-0.000597830316229204,-0.000640766155000809,0.0298722620742219,0.031838073542766,2.91291832256335,-0.000297993019191959,0
0.48,0.000759553034498785,0.000437013869119432,-0.0377794402386786,-0.0218773389154438,-0.000597819081678874,-0.000640713882789874,0.0298719736507016,0.0318366024095045,2.91291645931743,-0.000289271863658557,0
0.49,0.000759502253239466,0.000437013378320539,-0.0377780350461247,-0.0218773210891569,-0.000597808245588079,-0.00064066345846619,0.0298716950638314,0.0318351840578591,2.91291465891557,-0.000280844856184619,0
0.5,0.000759453310445615,0.000437012904061583,-0.0377766823037225,-0.0218772851519629,-0.000597797803291524,-0.000640614857338612,0.0298714087894812,0.0318338227115184,2.91291291923767,-0.000272702075715154,0
0.51,4.63353056585444,-0.0152933183943415,8.3246428260575,0.771247224604569,-0.356800427221837,4.6197979225751,0.155519576115446,8.35884645895208,0.0737793286352051,22.8064204546539,3275.37293906875
0.52,4.62630416713628,-0.0329803135392065,8.68727833536703,1.66341279056947,-1.55496590041527,4.3572765572648,-1.29085355736407,8.75039679565493,0.335650049017208,48.6673227923065,3275.37293906875
0.53,4.64559381469796,-0.0159751922020519,7.72413047749498,0.819434105720205,-3.30735973578895,3.26238695988196,-4.90290899982946,6.0245453958266,0.788804721642323,75.1493561736732,3275.37293906875
0.54,4.64104124418437,0.000572250871348157,7.95317040059012,-0.00330897353070418,-4.60269946941017,0.595333311669031,-7.88801533415394,1.01594510593879,1.44228940259116,103.601631184401,3275.37293906875
0.55,4.59513592173237,0.0299273102834379,10.2499151162444,-1.46869530258189,-3.42376668761,-3.06496190056387,-6.60550242908257,-7.97403056436491,2.30746685481812,131.841769373209,3275.37293906875
0.56,4.64128508647176,0.0308883517161636,7.94393951467614,-1.50640911705149,1.01690331570408,-4.52861888335583,3.25959832672193,-7.39935552526032,-2.9140511290989,157.750091513497,3275.37293906875
0.57,4.60314308347098,-0.00798105857454973,9.85258633185205,0.440218447720517,4.58671101572672,-0.388679819921027,9.77801157779377,-1.28753224924358,-1.65706860443782,185.845618955166,3275.37293906875
0.58,4.62487372394321,0.0393177377285876,8.76765148895508,-1.91589951812653,0.936958125836412,4.52914035081157,-0.176274235643899,8.97280953710608,-0.195494504496882,212.389577576229,3275.37293906875
0.59,4.63325905628582,0.0586581331734617,8.34998713233601,-2.88403216909249,-4.59897984194756,0.565610000443735,-8.61556265143252,-1.95243613513436,1.46108442084889,240.235267221417,3275.37293906875
0.6,4.60124958866878,0.078207410878109,9.95207875665283,-3.84704872835031,0.733889087220852,-4.54301892842183,5.54068195266959,-9.11836054322726,-2.96443873147524,266.505487167072,3275.37293906875
0.61,4.57718522353985,0.0072078444526853,11.1570313661533,-0.291558089792018,3.61161829816759,2.8119192363854,8.61314091042011,7.09775729947842,-0.907681280607125,294.025144703073,3275.37293906875
0.62,4.62087980076501,-0.0176281200487429,8.97404315312211,0.953693028330774,-4.5089491276499,1.01104829162595,-8.53683371754999,2.92667917361747,1.34639863711351,321.443734202661,3275.37293906875
0.63,4.57522544230932,0.00601899510070525,11.2585509050759,-0.226832468740962,2.7911353083506,-3.62522933988115,7.05960060982912,-8.77316708382787,-2.48414881772668,348.42118549887,3275.37293906875
0.64,4.60066548509959,0.0216911228345396,9.9883945405567,-1.00299274316345,-0.742876066302443,4.54034454207073,-2.6483357428539,9.68299218907998,0.166894400313802,375.248179838042,3275.37293906875
0.65,4.62068801281992,0.0673816290367832,8.98909331535497,-3.28025766567695,-0.644693091079282,-4.57598828823501,2.13037538452895,-9.32873998492749,3.01620932600085,402.225326171678,3275.37293906875
0.66,4.553152792429,0.0690158506605867,12.3677522718589,-3.36416017526012,1.05954688383435,4.42869325420076,-0.588223901286612,12.8036269308674,-0.219675212904385,429.312614746968,3275.37293906875
0.67,4.59409937655175,0.0359637543477151,10.3223031111139,-1.70308358239476,-0.567513978289571,-4.5590536690969,0.496772311696583,-10.4500551422787,3.02557713783003,456.437010105628,3275.37293906875
0.68,4.55071679109914,0.0272893713385824,12.4933531748079,-1.26019768299519,-0.813025843621361,4.47758383508154,-3.54423119162578,12.0461776929869,0.185616587629589,483.342319174225,3275.37293906875
0.69,4.57458725504972,0.0620565961221015,11.3018272964951,-2.98454245750947,2.84448269667619,-3.58324123713369,9.45843277248031,-6.86854012210374,-2.45706086103591,509.984760719248,3275.37293906875
0.7,4.55623683044937,0.0988707240802244,12.2213556329165,-4.81547960006418,-4.45524267209634,0.959104899349059,-12.9116983497402,-2.41628289117191,1.38045346776496,536.893023256053,3275.37293906875
0.71,4.54536967740835,0.0931062951972917,12.7667761505523,-4.54018687617924,3.52679237865609,2.8689353085007,6.80011690865059,11.7201655354191,-0.867415629407427,564.094503427884,3275.37293906875
0.72,4.5266444393102,0.0446420489248485,13.7051023874588,-2.09001024032131,0.958508296405303,-4.42422474996381,5.07199556484632,-12.9024352447728,-2.91837818743182,590.615964675225,3275.37293906875
0.73,4.53961903956432,0.109786551755266,13.0584821188599,-5.36546365107228,-4.5249473737287,0.380848232642472,-13.3557536972521,-4.57558724295567,1.51100727213893,617.845862797971,3275.37293906875
0.74,4.50227967136113,0.0932950986324389,14.9275849659015,-4.51220554325031,0.747835720622909,4.44071705353324,-2.29065496969648,15.4254883743936,-0.146120060673214,644.36970265466,3275.37293906875
0.75,4.51444720361505,0.0664267871761926,14.3214456924592,-3.17263636375315,4.50921827232842,-0.227148948449749,14.4253429280178,2.66062203774844,-1.60641492750586,671.286251078686,3275.37293906875
0.76,4.51401040441009,0.0841925070351104,14.345501242562,-4.06992734912832,1.12740136390978,-4.3717667451521,7.76202591136375,-12.7321902388728,-2.87055998844035,698.272516718495,3275.37293906875
0.77,4.52130755029108,0.0825146535788124,13.9829399940985,-3.98192441808996,-3.2912687545946,-3.10106120826463,-7.21738361527376,-12.6209233695446,2.34469582696523,724.918439583229,3275.37293906875
0.78,4.52367023995727,0.0858809299475913,13.8670285010598,-4.11527066589864,-4.49377718307661,0.526245762798904,-14.2020249555565,-2.74452532590987,1.4732043483339,751.550540363878,3275.37293906875
0.79,4.53730052898888,0.10445586505451,13.1878374586264,-5.03891830647138,-3.17538186608954,3.24267746200833,-12.9594631254143,5.60018482154553,0.797930720574505,778.257165388723,3275.37293906875
0.8,4.45727102928835,0.0870142422892812,17.1916750945979,-4.16303506376558,-1.31349685009369,4.2602303378677,-9.33842231867522,15.0225970490601,0.318587898361463,804.976259086877,3275.37293906875
0.81,4.48074223035545,0.141738387287532,16.0204767725908,-6.89508289537185,-0.0151936627245736,4.48295771315486,-7.45164269576192,15.769301357063,0.0350114394843363,831.718049880364,3275.37293906875
0.82,4.51220174769106,0.0902832966833432,14.4499433746291,-4.33227817971408,0.328628786611673,4.50112417137501,-3.56253828167006,14.6587113604181,-0.05287503404734,858.506477794265,3275.37293906875
0.83,4.5002315949071,0.0585763068559584,15.0508961948627,-2.75392577901309,-0.18778240938196,4.49669360288776,-3.5734452007256,14.8776366692515,0.054751410051948,885.293923734184,3275.37293906875
0.84,4.47655990028422,0.0875114454961538,16.2369470261214,-4.18375304080973,-1.4862859554351,4.22352943077254,-9.6068321591864,13.7423074518357,0.357918259057092,911.843481529998,3275.37293906875
0.85,4.47531715414298,0.104151718101703,16.3015948640137,-4.99090238046347,-3.31202655648653,3.01160942017353,-15.5837082041814,6.91369223271357,0.856137774933957,938.3260952808,3275.37293906875
0.86,4.48885975018687,0.0643002024416931,15.6269963141921,-3.02661274242029,4.40599720219594,0.860921034197274,14.669556498278,6.1779859695684,-1.36350668047421,965.180734143721,3275.37293906875
0.87,4.51383326185893,0.112593058485593,14.3808805476088,-5.40704878036935,2.16423875669734,3.96275642914024,1.76756026667373,15.2617702951382,-0.474939706247216,991.580094234849,3275.37293906875
0.88,4.4470055182686,0.120067026597049,17.7248781428807,-5.81124085389966,-2.44329651564974,3.71760357044711,-14.8995712290833,11.2225042941171,0.608429483993076,1018.34190367537,3275.37293906875
0.89,4.43377570252143,0.0942681755699937,18.3890334983368,-4.47545422581769,-4.2439719132485,-1.28683948834055,-16.0910584041182,-9.96313620129715,1.88645898519056,1044.6628744744,3275.37293906875
0.9,4.44326090568768,0.0917252412652447,17.9174316855044,-4.36665514363461,0.869090094725624,-4.35840147337845,8.12958215544498,-16.5533056917952,-2.92412785687865,1071.34646509412,3275.37293906875
0.91,4.40556809257408,0.158332718243472,19.8047760580873,-7.7153357554882,4.23945114411068,1.20878181020061,16.4577348043813,13.4498522534473,-1.25711598559128,1097.92904667984,3275.37293906875
0.92,4.47412203404484,0.158423688220101,16.3797612029642,-7.67336311690631,-2.41172177711498,3.77179852461716,-15.6210542901042,9.11919631632342,0.604287884482658,1124.33152780106,3275.37293906875
0.93,4.43171097323546,0.180115129561812,18.5030629745249,-8.7487666122252,-2.21198864055737,-3.84442581723693,-0.814822978281965,-20.4509246780796,2.66009616978478,1150.7518448795,3275.37293906875
0.94,4.40606035378353,0.154255611794746,19.7883667945927,-7.45253086255681,4.35059477297227,0.713784110456098,17.9400987405701,11.1925213349493,-1.37318363849237,1177.22619453076,3275.37293906875
0.95,4.42349649077437,0.170957953837151,18.9193823055219,-8.28220196674501,-3.79970542335301,2.27129622057869,-20.5737679003905,1.8049849365881,1.07065702867094,1203.673900007,3275.37293906875
0.96,4.44343590521274,0.157232178129702,17.9252469205007,-7.58563697238566,2.25291284248784,-3.83317470587065,16.0233117164555,-11.0503324418338,-2.57486559167818,1230.1167685007,3275.37293906875
0.97,4.40371905490747,0.197300459934384,19.9139404682037,-9.58944318060647,-0.92617303211487,4.30974158165297,-14.3270705900889,16.8302553097643,0.256455900178347,1256.60232217893,3275.37293906875
0.98,4.39753280345636,0.15986896107199,20.2262033016182,-7.76129031171539,0.454479330924601,-4.37690545704969,10.5040529173043,-18.9473428113704,-3.00178943633551,1283.08647017206,3275.37293906875
