t,iq,id,vq,vd,ia,ib,va,vb,theta_e,omega,r
0,0,0,0,0,0,0,0,0,0,0,0
0.01,0.00132052176499038,0.000748673389998745,-0.0640800147727583,-0.0374916514246633,0.00103469823062143,-0.00111071560187764,-0.0498612703404555,0.0550065990573985,-1.87584667501003,-0.00339065376588657,0
0.02,0.00145971555636217,0.000828730942760504,-0.0712051546601051,-0.0415007462039614,0.0011433907161653,-0.00122891096144571,-0.0554518508507393,0.0609719461956272,-1.8758714143456,-0.00352360310242661,0
0.03,0.00150657556640778,0.000855780850090164,-0.0735624127255537,-0.0428553132058263,0.00117993095438191,-0.00126881588245473,-0.0572918511984133,0.0629734088503476,-1.87589595949232,-0.00340711030715263,0
0.04,0.00147746351996495,0.000840431410468287,-0.0722788803683603,-0.0420866606866558,0.00115674674754992,-0.00124545588864544,-0.056297127920482,0.0618559370065827,-1.87591798527003,-0.00310884282600054,0
0.05,0.0015040362296915,0.000855982370469622,-0.0736514646305824,-0.0428654097046032,0.00117739339460058,-0.00126829633490377,-0.0573710268544656,0.0630122755424497,-1.87593929631976,-0.00296927874203211,0
0.06,0.0015032338577735,0.000856262269963413,-0.073709783932171,-0.0428794327981891,0.00117651873628293,-0.00126834568209724,-0.0574211833807169,0.0630443153946478,-1.87595921432901,-0.00276903998869747,0
0.07,0.00154461682764844,0.000880414742366274,-0.0757750360637489,-0.0440889445670014,0.00120870929199524,-0.00130383783894891,-0.0590264343474848,0.0648195277035912,-1.87597751750059,-0.00269970471472735,0
0.08,0.00150165711275126,0.00085670061064632,-0.0738075254055918,-0.0429013664379873,0.00117483787585957,-0.00126833196995266,-0.0575055672271224,0.0630966543220038,-1.87599490377346,-0.00240986933204795,0
0.09,0.00149974248224756,0.000856258936871604,-0.073793433577158,-0.0428792639366806,0.00117312423260179,-0.00126735410004979,-0.0574977623341187,0.0630722557185578,-1.87601084913517,-0.00224610481893576,0
0.1,0.00149871739723675,0.000856246057322924,-0.0738162705159597,-0.0428786143789656,0.00117213164197851,-0.00126705112814516,-0.05751880540388,0.0630793499400236,-1.87602564954183,-0.00209614619620366,0
0.11,0.00149778026281787,0.000856241410078652,-0.0738381651562104,-0.0428783935459839,0.00117122181328841,-0.00126678116977545,-0.0575388875150728,0.0630865095741386,-1.87603939074836,-0.00195696001521621,0
0.12,0.0014969107656966,0.000856237228841159,-0.0738585170080765,-0.0428781815435127,0.00117037760801437,-0.00126653080782527,-0.0575575573627928,0.0630931579296803,-1.8760521486266,-0.00182773487052165,0
0.13,0.00156839939453959,0.000897143736894056,-0.0773341792840321,-0.0449266703452488,0.00122625064206433,-0.00132704668654769,-0.0602560585523781,0.0660922718748407,-1.87606477525855,-0.00189680394460612,0
0.14,0.00166442969773025,0.000953251944267076,-0.0823634377676074,-0.0477364398366488,0.00130096150520454,-0.00140943770699925,-0.0642075076585492,0.070284418824188,-1.87607635877705,-0.00204305948869269,0
0.15,0.00149786875759549,0.000858011845977761,-0.0740746030121827,-0.042967059985239,0.00117071342366908,-0.00126855241218479,-0.0577347213756607,0.0632448970499789,-1.8760872679213,-0.00148113385251737,0
0.16,0.00149394657364781,0.000856255537536944,-0.0739325945393534,-0.0428790826723787,0.00116748866688129,-0.00126570933597744,-0.0576251328358082,0.0631188429219086,-1.8760966154688,-0.00137750828838667,0
0.17,0.00149329092652791,0.00085622042073522,-0.0739432809230055,-0.0428773242190099,0.00116686293132874,-0.00126548887771702,-0.0576353067772232,0.0631208772003049,-1.87610527862981,-0.00128958152785695,0
0.18,0.00149274127597931,0.000856217188793748,-0.0739560185277604,-0.0428771901312921,0.00116632949442656,-0.00126532995769044,-0.0576469879180518,0.0631250417347141,-1.87611332154454,-0.00120811095406819,0
0.19,0.0014922325469199,0.000856214728460411,-0.0739679173175265,-0.0428770466056169,0.00116583558523956,-0.00126518339520748,-0.0576579081480061,0.0631289121235965,-1.87612078889886,-0.00113247369930475,0
0.2,0.00149175973051252,0.000856212453801901,-0.0739789358626537,-0.0428769415317329,0.00116537655008302,-0.00126504717546061,-0.0576680109694713,0.0631325239263504,-1.87612772188587,-0.00106224914196063,0
0.21,0.00149132114020275,0.00085621034180618,-0.0739891813944054,-0.0428768334989323,0.00116495073851418,-0.00126492081549272,-0.0576774086986964,0.0631358720547434,-1.87613415874542,-0.000997049884136823,0
0.22,0.00149091386561539,0.000856208380694853,-0.0739986863223605,-0.0428767283306795,0.00116455533302815,-0.00126480347175837,-0.0576861282633667,0.0631389738256839,-1.87614013498035,-0.000936516312150033,0
0.23,0.0014905355187621,0.000856206559702016,-0.0740074961352709,-0.0428766586538144,0.00116418801731578,-0.00126469445555301,-0.0576942011664441,0.0631418759088906,-1.87614568355312,-0.000880314547633622,0
0.24,0.00149018458918124,0.000856204868830831,-0.0740156885207091,-0.0428765504776286,0.00116384731480552,-0.00126459333979856,-0.0577017218197853,0.0631445328360847,-1.87615083506783,-0.000828134604695762,0
0.25,0.00148985851280399,0.000856203298796279,-0.0740232776726231,-0.0428764806904256,0.00116353074665815,-0.00126449937865753,-0.057708678857725,0.0631470238276569,-1.87615561793766,-0.000779688680154794,0
0.26,0.00150416097587068,0.000864393486673895,-0.0747276144917522,-0.0432866247886288,0.00117470370552548,-0.00127661566078487,-0.0582568489917199,0.0637501984214591,-1.87615999962376,-0.000775056865793465,0
0.27,0.0014490754634313,0.000833206137795058,-0.0721178434709788,-0.0417248432591427,0.00113153734331311,-0.00123031516590908,-0.0562370763082266,0.0614763136517417,-1.87616438813897,-0.000581452791410525,0
0.28,0.00143615474079736,0.000825524327307759,-0.0711627734646796,-0.041340150863101,0.00112151913632748,-0.00121910856011388,-0.0554416105814036,0.0608224976197891,-1.87616827293736,-0.00050764854898636,0
0.29,0.00148772499462167,0.000855633358849068,-0.0739985409407123,-0.0428479529897998,0.00116164713272719,-0.00126333291076583,-0.0576926568308299,0.063113298793285,-1.87617155908275,-0.000615369735006753,0
0.3,0.00148264693078059,0.000852982593900519,-0.0737667751051399,-0.0427152098591073,0.00115759816988061,-0.00125928062954189,-0.0575113835450398,0.062917144129841,-1.87617377858704,-0.000579475403524703,0
0.31,0.00148829017565564,0.00085613713201497,-0.0740513665379797,-0.0428731607073399,0.00116202796520191,-0.0012639894951528,-0.057735122924198,0.0631535301951313,-1.87617689147347,-0.000563885626022992,0
0.32,0.00148820723571783,0.000856194265824142,-0.0740615133732835,-0.0428760358666545,0.00116192799701009,-0.00126402243929337,-0.0577437515770744,0.063159491516199,-1.87617980917697,-0.000534647881834642,0
0.33,0.00148802475624809,0.000856194445334899,-0.0740658949091192,-0.0428760535675218,0.00116175048190825,-0.00126397089413304,-0.0577477539331139,0.0631609822112846,-1.87618251863421,-0.00050720990195604,0
0.34,0.00148785374506969,0.000856193638726247,-0.0740698839842522,-0.0428759833761059,0.0011615844462876,-0.00126392163042489,-0.0577514206518149,0.0631622599073673,-1.87618503421233,-0.000481729600287654,0
0.35,0.00148769443216619,0.00085619287188319,-0.0740735566986148,-0.0428759486217917,0.00116142978347182,-0.001263875712017,-0.0577547863575428,0.0631634659039228,-1.87618736977501,-0.000458072564869341,0
0.36,0.00148754664437919,0.000856192159552964,-0.0740769687543833,-0.0428759138285914,0.00116128630755161,-0.00126383311603111,-0.057757914029028,0.0631645838543252,-1.87618953820324,-0.000436108434547974,0
0.37,0.00148740945038141,0.000856191498161981,-0.0740801334930131,-0.0428758760890792,0.00116115311620795,-0.00126379357306855,-0.0577608165101192,0.0631656156847462,-1.87619155145796,-0.000415716066557821,0
0.38,0.00148728162635846,0.000856190884075435,-0.0740830453604397,-0.0428758766863383,0.00116102902927752,-0.00126375672471098,-0.0577634753906376,0.0631665997366825,-1.87619342064309,-0.000396782984975846,0
0.39,0.00148716352447775,0.000856190313911703,-0.0740857735347926,-0.042875841789332,0.00116091437058801,-0.00126372268569317,-0.0577659781960846,0.0631674869884966,-1.87619515606842,-0.000379204762654341,0
0.4,0.00148705380449985,0.000856189784530913,-0.0740882989170364,-0.0428758068635707,0.00116080785073641,-0.00126369106124926,-0.0577682954437833,0.0631683060730784,-1.87619676730589,-0.000362884445299798,0
0.41,0.00148695200076348,0.000856189293016992,-0.0740906427744749,-0.0428757719103939,0.00116070901523208,-0.001263661718978,-0.0577704468557436,0.0631690638978818,-1.87619826324229,-0.000347732016706042,0
0.42,0.0014868570058564,0.00085618883666212,-0.0740927910146549,-0.0428757694712211,0.00116061679827401,-0.00126363433296713,-0.0577724086864204,0.0631697877363842,-1.87619965212894,-0.000333663902264966,0
0.43,0.00148676940478889,0.000856188412952578,-0.0740948113275118,-0.0428757344662729,0.0011605317488605,-0.00126360908566588,-0.0577742645780156,0.0631704363143977,-1.87620094162579,-0.000320602507998383,0
0.44,0.00148668744840261,0.000856188019553353,-0.0740966517407242,-0.0428757348857544,0.00116045219047361,-0.00126358545721671,-0.0577759440710509,0.0631710592587972,-1.87620213884573,-0.000308475792589909,0
0.45,0.0014866119545282,0.000856187654297274,-0.0740983863143229,-0.0428756998365276,0.00116037889539398,-0.0012635636991626,-0.0577775386977584,0.0631716116059079,-1.8762032503919,-0.00029721687002942,0
0.46,0.00148654140684342,0.00085618731517168,-0.0740999699019245,-0.0428757002104854,0.00116031041031438,-0.00126354336080602,-0.05777898369805,0.0631721477458698,-1.8762042823953,-0.000286763640697969,0
0.47,0.00148647639034761,0.000856187000307585,-0.0741014602415431,-0.0428756651227801,0.00116024728652321,-0.00126352462289901,-0.0577803550925263,0.0631726177630098,-1.87620524054794,-0.000277058448847522,0
0.48,0.00148641562154983,0.000856186707969315,-0.0741028196481302,-0.04287566545747,0.00116018829376027,-0.00126350710402132,-0.057781595292788,0.0631730782346772,-1.87620613013449,-0.000268047764604375,0
0.49,0.00148635945261811,0.000856186436546534,-0.0741040902201014,-0.0428756303368805,0.00116013376217365,-0.00126349091424445,-0.0577827654510427,0.0631734745044433,-1.87620695606197,-0.000259681888711787,0
0.5,0.00148630706572348,0.000856186184542478,-0.074105253943203,-0.0428756306376524,0.00116008290646941,-0.00126347581153674,-0.0577838267875758,0.0631738690151746,-1.87620772288518,-0.000251914678412853,0
0.51,4.56740478596443,-0.00374879023877597,11.6310618458317,0.194553149765224,-0.6761632622316,4.51707911986135,-1.51999887159279,11.5329551295408,0.147766350893233,45.3030148394531,3560.07208869048
0.52,4.61908647211885,0.0310691642349823,9.0484383392943,-1.5401767057189,-2.83101270489343,3.64997153339716,-6.80421119509531,6.16028332768793,0.666427183141792,96.3212219580268,3560.07208869048
0.53,4.57182422997291,-0.0190051584908053,11.4131254643492,0.977647628295109,-4.5718453557603,0.0129625934763916,-11.4060105132602,1.05742702891739,1.56380403088579,149.03640247442,3560.07208869048
0.54,4.5640832267733,0.0331592133720879,11.8019552581351,-1.63654222176624,-1.28510889550922,-4.37954910476271,-1.66698941726599,-11.7976931915256,2.86343560907893,205.979065325186,3560.07208869048
0.55,4.56308364702484,-0.0139441958154496,11.8537604848011,0.734992952304208,4.51880330914742,-0.634305497044409,11.62919296766,-2.41116635508528,-1.71331123253389,258.606027418338,3560.07208869048
0.56,4.47338849160676,0.0117818244797676,16.3404951164173,-0.536918549907451,-1.60406837957136,4.17592002340648,-6.40021591752168,15.0445105732288,0.36937888547001,310.555144014484,3560.07208869048
0.57,4.57913862936258,0.0148901183090975,11.0550529733579,-0.695431513576877,-1.32856325548367,-4.38219716337849,-2.50683872505847,-10.789512539516,2.85047924221076,364.984017454033,3560.07208869048
0.58,4.4034516965463,0.0490963994903371,19.8415325410714,-2.40830874192329,2.41327085093416,3.68360164788362,8.65850363410031,18.0143464880936,-0.568830283907429,417.769977180738,3560.07208869048
0.59,4.57469059872254,0.0917847692668685,11.2817787219034,-4.51820727031539,-2.08426244027986,-4.07333629816498,-0.873817984724554,-12.1214343291995,2.68870222665995,469.841117660983,3560.07208869048
0.6,4.56375022802058,0.0135319374515359,11.8311014336352,-0.60293126606491,-0.210551657787571,4.55891075329316,-1.18307787568054,11.7872309718881,0.0491169285491256,523.46604391492,3560.07208869048
0.61,4.56364980907675,0.0219912830644828,11.8384852590237,-1.0281025181168,3.66507999793496,-2.71929619665716,10.149903652294,-6.17949705599321,-2.20430499808856,576.666575213199,3560.07208869048
0.62,4.48142421145427,0.00763730313357902,15.952162744969,-0.307811126872293,-3.59465524640734,-2.67613059301743,-12.5950986726341,-9.79437253520687,2.21245619326973,629.457111938288,3560.07208869048
0.63,4.4008399555451,0.0696903697112763,19.9839087162302,-3.4105393563665,-2.89102475989049,3.31876858181658,-15.89908646599,12.5780537376384,0.732459036188768,681.976311985413,3560.07208869048
0.64,4.51558652414402,0.00882845601655791,14.2493456292876,-0.347852382833276,1.6122179341423,4.21797972156063,4.73629046110667,13.4436752717094,-0.363134848979327,734.098612863921,3560.07208869048
0.65,4.35416275809444,0.05563224047529,22.323367969207,-2.67441115288074,3.85793271487732,2.01945127141909,18.3732984044829,12.9578986816187,-1.07578575706609,785.88588486273,3560.07208869048
0.66,4.39838018067738,0.079920471380832,20.1153210724444,-3.86454274727119,4.35201052983857,0.641981186403087,19.2100224594138,7.10885853016,-1.40617041501559,837.79895386288,3560.07208869048
0.67,4.44362352984496,-0.0156377074403387,17.8560473226318,0.881653582468398,4.33585280337335,0.972838671294087,17.6265175050966,2.98690804513093,-1.35359998630978,890.749912394087,3560.07208869048
0.68,4.41733629830577,0.0550013407274916,19.1733606148677,-2.6186581619153,3.54347677354425,2.63811627400385,13.6456325271102,13.7212186328984,-0.918374314709999,942.373200808441,3560.07208869048
0.69,4.30909650360822,0.00928888686925045,24.588398325601,-0.358719558832006,0.450888012208938,4.28545201364735,2.1632843461402,24.4956774304785,-0.102672322102221,994.602814700508,3560.07208869048
0.7,4.44567898370665,0.125549488156579,17.7623639827979,-6.12813504605931,-3.893404766682,2.14970314762882,-18.5952129672071,2.6969738790629,1.09454516039559,1046.16538366572,3560.07208869048
0.71,4.35221318793748,0.150989991501574,22.4388331140144,-7.4368064025584,-2.10432992957968,-3.81265696834448,-3.52356855966335,-23.3750248255071,2.67194562362273,1098.50956617577,3560.07208869048
0.72,4.28847897206709,0.138356522533079,25.6287918279877,-6.7940870237574,4.26192592906916,-0.496167105234787,26.1068201596942,4.62909604546093,-1.65444194156443,1150.00693039817,3560.07208869048
0.73,4.26439964287564,0.0861739154399996,26.8360293039437,-4.1236932432632,-2.62076083839255,3.36513638442903,-20.1151612169159,18.2361619861237,0.68188341031015,1201.38620440014,3560.07208869048
0.74,4.31323161003833,0.184069521899752,24.3978093881807,-9.02227635043575,0.910376067397889,-4.22007866356012,14.8872911100769,-21.3312713378611,-2.88647405125449,1252.9845840538,3560.07208869048
0.75,4.3376988246284,0.096528821238075,23.1778223416719,-4.63158940742229,-0.794675525449759,4.26537685506959,-9.28430009592349,21.736256362812,0.206446359630408,1304.6060602235,3560.07208869048
0.76,4.20272318047509,0.124503331107358,29.9300134666414,-6.02579427047117,2.03893096451777,-3.67711078607786,20.4637895267551,-22.6572112341313,-2.60569094257872,1356.15329132837,3560.07208869048
0.77,4.29965594196717,0.0455073360034781,25.0868287300212,-2.05358861993375,-4.05597415225283,1.42765045202971,-24.4118340375731,6.13421232688651,1.24293594145047,1407.75353296399,3560.07208869048
0.78,4.20864113726265,0.0648632629936714,29.641149591734,-3.10206243892955,3.1050189731671,2.84178194825324,19.4254807661754,22.6024608726024,-0.814223897147915,1459.48330894349,3560.07208869048
0.79,4.22346675511488,0.127631327276457,28.9034473095591,-6.21026783456757,2.44346780808328,-3.44723458124388,22.3747495000374,-19.3221965046446,-2.49476154502142,1510.73731643083,3560.07208869048
0.8,4.25468495390098,0.0658254695828238,27.3462070756933,-3.05247528057005,-2.6538611107862,-3.32621380161495,-14.30721460317,-23.5039625821696,2.48362650886685,1561.6664179283,3560.07208869048
0.81,4.34565528754898,0.033581285304997,22.8014220382173,-1.50670932799306,-4.34453155014135,0.104370449608708,-22.8229415495343,-1.13505902511833,1.55450493975254,1613.29539885378,3560.07208869048
0.82,4.26586801808616,0.173416038331704,26.7944904442118,-8.42563982828255,-3.49760672437041,2.44835664716558,-27.1042980103197,7.36838883669138,1.00069385549628,1664.07436133027,3560.07208869048
0.83,4.22553892046759,0.156498775552888,28.8146728925206,-7.63733095285016,-1.95528828440751,-3.74920241651404,-5.47177244358526,-29.3031381307864,2.69789622926335,1715.59030877921,3560.07208869048
0.84,4.09614813679915,0.040991086571576,35.2880845516073,-1.88375896995721,-1.04456150201332,-3.96093437162157,-6.83029198255377,-34.6719565443218,2.89375400829913,1766.62131152732,3560.07208869048
0.85,4.09388949747491,0.0314421149349678,35.4048632762391,-1.29864058736614,1.26708085978402,-3.89299703556218,12.4476643510667,-33.1699632678048,-2.81924931259135,1817.3687871236,3560.07208869048
0.86,4.13714608135735,0.17075904996497,33.2460663554322,-8.27973193424271,3.89496721363331,-1.40512161621584,34.1980666363172,-2.08497658277744,-1.8757672849883,1868.21255505355,3560.07208869048
0.87,4.1106241067453,0.117122779321393,34.5761756135957,-5.60083840041839,2.28098429335009,3.42170409969678,13.6044888622553,32.276914252242,-0.559486901650999,1919.1250385497,3560.07208869048
0.88,4.11880853259628,0.169533050484454,34.1710813626288,-8.21730478357409,-3.65127010461157,1.913518175133,-34.4051274440479,7.17454562717192,1.12921677289126,1969.84609750333,3560.07208869048
0.89,4.12034605348073,0.193351084762144,34.0983089794163,-9.38866495181246,0.00478455586549112,-4.12487737398799,11.0156712008739,-33.6079855514634,-3.09354119270545,2020.54974165437,3560.07208869048
0.9,4.15171837452402,0.202299938307891,32.5339605429272,-9.81448134040057,2.71168232787937,3.15031263195678,12.2578962009696,31.6942678305726,-0.662022943339253,2071.11467615475,3560.07208869048
0.91,4.06193369554169,0.13015697391625,37.0273901674547,-6.32114358574555,-3.49045717067669,-2.08157510662184,-27.7680685305791,-25.2966173415656,2.14056848669916,2122.01099365756,3560.07208869048
0.92,4.13883943524307,0.244723799940916,33.1863490413558,-12.0008764009454,3.55052157964478,2.14095262008702,20.5655260379577,28.6777603007548,-0.969116479425326,2172.47243334423,3560.07208869048
0.93,4.10504521807408,0.235919496449801,34.8803800643604,-11.480735732627,-2.40491157029325,-3.33518434127825,-9.06166000077146,-35.5855943385391,2.57427073038785,2222.72022307412,3560.07208869048
0.94,4.11307586376844,0.121870274167988,34.4831871493931,-5.86845150681187,-0.714719917213567,4.05233523598166,-12.7391013156764,32.5767434949659,0.204198226671678,2273.39085447123,3560.07208869048
0.95,3.99384113536747,0.161496018741702,40.4492665935128,-7.74662483187614,3.85639281676826,-1.0512290052129,41.1569662628833,-1.50249534934239,-1.79650994801474,2323.49258665414,3560.07208869048
0.96,4.12558418548925,0.144752370749719,33.8664964885862,-6.95896848280482,4.12752545750702,-0.0702261918951486,33.7353041077745,7.56941764682517,-1.55273667255525,2373.87101519224,3560.07208869048
0.97,4.00764254130392,0.13455606231273,39.7679352991594,-6.51542902630501,1.15253428917737,-3.8406989969333,18.8760411288516,-35.6038560363459,-2.81649606700911,2424.2346699639,3560.07208869048
0.98,3.98866126693852,0.273056443634233,40.7213452087458,-13.3698835573325,-2.38409823491126,-3.20936974031955,-10.7417226622057,-41.4921334254426,2.57103119697245,2474.29558519567,3560.07208869048
