t,iq,id,vq,vd,ia,ib,va,vb,theta_e,omega,r
0,0,0,0,0,0,0,0,0,0,0,0
0.01,0.000827892634597707,0.000459692245917532,-0.0401559763682902,-0.0230053861541434,-0.000931768829022233,-0.000168908332063203,0.0456433058948772,0.00764453119416768,2.25699546069326,-0.00235582283325611,0
0.02,0.000942412619128696,0.000521950356569306,-0.045941296785957,-0.0261210984942861,-0.00105981852702848,-0.0001932832356492,0.0520934502560136,0.00889870649857709,2.25697800921454,-0.00241522281971009,0
0.03,0.000984097790717956,0.00054648060527688,-0.048078699430618,-0.0273487193500082,-0.00110761456676062,-0.000200697496594823,0.0545250582297751,0.00930224779635854,2.25696120623068,-0.00225945886757184,0
0.04,0.000957634545266674,0.000534259210005505,-0.0469288509005551,-0.0267371017861462,-0.00107940008050836,-0.000193370866374327,0.0532480674597708,0.00904615777935424,2.25694670221845,-0.0019310984812762,0
0.05,0.000978059714577193,0.000547517896950441,-0.0480165745466451,-0.027400625849965,-0.00110360564191387,-0.000196038873430086,0.0545101350107709,0.00922122059549751,2.25693355357559,-0.00177134392719181,0
0.06,0.00097685387351616,0.000548643935316782,-0.0480551925017095,-0.0274569775304481,-0.00110338836884392,-0.000194390754572729,0.0545758233882464,0.00920144787404801,2.25692182653702,-0.00156854906717006,0
0.07,0.000996125263043531,0.000561365840975984,-0.0490625705482088,-0.0280936474216152,-0.00112636064739859,-0.000196745620230897,0.0557586913671985,0.00934650690180524,2.25691171353288,-0.00145673780958082,0
0.08,0.000973347426155861,0.000549816563963206,-0.0480461307629253,-0.0275156623830593,-0.00110142202075465,-0.000191240681365891,0.0546061687667933,0.0091492453393223,2.25690247573295,-0.00122920747521285,0
0.09,0.000968980832295522,0.00054882689414654,-0.0479020037945063,-0.027466143559114,-0.00109741802291365,-0.000189231329538643,0.0544633556250877,0.00909581791781163,2.25689453618871,-0.00108088542242215,0
0.1,0.000966669895289038,0.000548739037133493,-0.0478482958534585,-0.0274617297501332,-0.00109557564132512,-0.000187827664275941,0.0544190672338767,0.00906482974711873,2.25688758975724,-0.000955802704758431,0
0.11,0.000964790922243738,0.000548728569695592,-0.0478082568231895,-0.0274612114875238,-0.00109411633223232,-0.000186638737636617,0.0543878146287646,0.00903953409981342,2.25688150004189,-0.000846603473579826,0
0.12,0.00096315755688331,0.000548725070893036,-0.0477738281512559,-0.0274610447385974,-0.00109285131969256,-0.000185600850898415,0.0543611185780435,0.00901756182706142,2.25687616019564,-0.00075089513939846,0
0.13,0.00100627349125337,0.000573551633514962,-0.0498837776948505,-0.0287034975305667,-0.00114194048615143,-0.00019370013318313,0.0567808143017093,0.00939261277980316,2.25687103334687,-0.000797760919233206,0
0.14,0.00103802256727353,0.000592895313425564,-0.0516010601060091,-0.0296715394182075,-0.00117876120046091,-0.000198840979526542,0.0587228459460757,0.00973123936113338,2.25686645525039,-0.000818642817123548,0
0.15,0.000966504081860976,0.000552488274468378,-0.0480479548365076,-0.0276493608538934,-0.00109782722151366,-0.000184794007972574,0.0546926450419971,0.00904476079893776,2.25686233982705,-0.000526704606081339,0
0.16,0.00095874142644562,0.000549037746405607,-0.0477006664043233,-0.0274766917014505,-0.00108963556415811,-0.000182542891077603,0.054314574297669,0.00895819072894129,2.25685929780981,-0.000450965710605467,0
0.17,0.000957278672161788,0.000548741939085423,-0.0476519835290472,-0.0274618924944163,-0.00108831684608058,-0.000181842278979043,0.0542675542283111,0.00893865939080211,2.25685668542138,-0.000402081884167145,0
0.18,0.000956515829415101,0.000548715570181396,-0.0476341783980193,-0.0274605644266468,-0.00108771030820636,-0.000181376939831884,0.0542529566304207,0.00892828354959914,2.25685440001139,-0.000360921185428739,0
0.19,0.00095589731456491,0.000548712337554555,-0.0476209760177821,-0.0274604139468138,-0.00108723004760397,-0.000180985438541495,0.0542426638429171,0.00891992770379012,2.25685239648579,-0.000324993697746427,0
0.2,0.000955359999567442,0.000548711200400747,-0.0476096387562469,-0.0274603591991974,-0.00108681389685669,-0.000180644025137612,0.054233872607438,0.00891269273841877,2.25685063967023,-0.000293505464264148,0
0.21,0.000954889157727718,0.000548710347924959,-0.0475997099179389,-0.0274603100238771,-0.00108644932003116,-0.000180344737848688,0.0542261727215883,0.00890635743993317,2.25684909914587,-0.000265895399525987,0
0.22,0.000954476639973562,0.000548709612584645,-0.0475910187270428,-0.027460266449143,-0.00108612991080296,-0.000180082514579216,0.0542194323101876,0.00890081214814967,2.2568477482802,-0.000241684636128537,0
0.23,0.000954114617390911,0.000548708968686738,-0.0475833805043724,-0.0274602425179401,-0.00108584959973927,-0.000179852389982279,0.0542135175869939,0.00889592773198369,2.2568465637232,-0.000220454539335882,0
0.24,0.000953797385570653,0.000548708404040722,-0.0475766912330122,-0.0274601956592291,-0.0010856039692101,-0.000179650737325505,0.0542083212871012,0.00889167012202626,2.25684552500034,-0.000201838137939295,0
0.25,0.000953519065608726,0.000548707908832847,-0.0475708158527357,-0.0274601742919956,-0.00108538846756368,-0.000179473820304876,0.054203769742975,0.00888791531756556,2.25684461415743,-0.000185513651620898,0
0.26,0.000962721314474045,0.000553990065003235,-0.0480180859483351,-0.0277245417561457,-0.00109585505244741,-0.000181215411845713,0.0547173265709967,0.00896665861137055,2.25684389013835,-0.000201800538052773,0
0.27,0.000936654069545676,0.000539141345175992,-0.0467756345491734,-0.0269814132974025,-0.00106627910954092,-0.000176190512319158,0.0532852208318286,0.0087545355048872,2.25684294944954,-0.000104886839858223,0
0.28,0.000935823809856618,0.000538674114685102,-0.0465913727498116,-0.0269580487941446,-0.00106534081529468,-0.000176025430530941,0.0531278513272715,0.0086558548305008,2.25684234040514,-9.19716839351788e-05,0
0.29,0.000951054385040615,0.000547850100316566,-0.0474743748374361,-0.0274172486612893,-0.00108293847347624,-0.000178573341758537,0.0541019787927589,0.00885989170747706,2.25684195875668,-0.000132788352976628,0
0.3,0.000942162766097379,0.000543287358851546,-0.0470457079666761,-0.0271889218955963,-0.00107316805599957,-0.000176471401904811,0.0536256513972697,0.00876502276945764,2.25684222986148,-0.000109779493177198,0
0.31,0.000951628815388754,0.000548243804220833,-0.0475031249401756,-0.0274369565363928,-0.00108363237402668,-0.000178632441359453,0.0541367102954943,0.0088628472537646,2.25684181041844,-0.000132054283360226,0
0.32,0.00095242571818057,0.00054866665663006,-0.0475449858773474,-0.0274581299973703,-0.00108451693240439,-0.000178809597274768,0.0541825174590819,0.00887295817785369,2.25684136522571,-0.00012697274362712,0
0.33,0.000952395017011087,0.000548702554921857,-0.0475467669739321,-0.0274599147174937,-0.00108451598919719,-0.000178761940526984,0.0541850297143872,0.00887268396914977,2.25684096731575,-0.000120123018954828,0
0.34,0.000952296937395086,0.000548705447389461,-0.0475449192429701,-0.0274600694999326,-0.00108444199414568,-0.000178697191640711,0.0541837011720635,0.00887137475581987,2.2568406176616,-0.000113883779301401,0
0.35,0.000952204183476326,0.00054870554365629,-0.0475429737353461,-0.0274600589585464,-0.0010843703408332,-0.000178638026719542,0.0541821918626206,0.00887013385292604,2.25684031098314,-0.000108390028352065,0
0.36,0.000952121994259489,0.000548705419780139,-0.0475412239718043,-0.02746005942973,-0.0010843067158127,-0.000178585765648428,0.054180840652489,0.00886901047531022,2.25684004205381,-0.000103570425891621,0
0.37,0.000952049874967944,0.000548705293370656,-0.0475396848597111,-0.0274600598530489,-0.0010842508749382,-0.000178539921572735,0.054179652111175,0.00886802237287024,2.25683980623247,-9.93439634393605e-05,0
0.38,0.00095198686514152,0.000548705181001424,-0.0475383443240853,-0.0274600375371168,-0.00108420208628098,-0.000178499868805987,0.0541786025573354,0.00886717923296037,2.25683959944368,-9.5637811257156e-05,0
0.39,0.000951931451448584,0.00054870508233352,-0.0475371582875611,-0.0274600378822351,-0.00108415917931777,-0.000178464645060782,0.0541776866777822,0.00886641781073352,2.25683941811325,-9.23879313558285e-05,0
0.4,0.000951882848051944,0.000548704995799269,-0.0475361151948221,-0.0274600381947696,-0.00108412154557158,-0.000178433750333406,0.0541768811834052,0.00886574817558011,2.25683925910701,-8.95381526642672e-05,0
0.41,0.00095184018183669,0.000548704919915607,-0.0475351957294731,-0.027460038478902,-0.001084088509017,-0.000178406629685659,0.0541761711550756,0.00886515793869778,2.25683911967641,-8.7039217829114e-05,0
0.42,0.000951802812518554,0.000548704853372592,-0.0475343891830949,-0.0274600387376934,-0.00108405957383157,-0.000178382875907388,0.0541755483304278,0.00886464018350647,2.25683899741152,-8.48479335426372e-05,0
0.43,0.000951769983397949,0.000548704795020843,-0.0475336764489938,-0.0274600389747583,-0.00108403415416342,-0.000178362008239967,0.0541749979465604,0.00886418268894825,2.25683889019906,-8.29264241255222e-05,0
0.44,0.00095174122881359,0.000548704743851727,-0.0475330506274809,-0.0274600391923407,-0.00108401188939633,-0.00017834373046561,0.0541745146826638,0.00886378098203003,2.25683879618585,-8.12414768717407e-05,0
0.45,0.000951716286797028,0.000548704698981513,-0.0475325130121882,-0.0274600167019976,-0.00108399257656122,-0.000178327875553116,0.054174085181459,0.00886345334956137,2.25683871374693,-7.97639679804199e-05,0
0.46,0.000951694167885983,0.000548704659635304,-0.0475320267291756,-0.0274600168883419,-0.00108397544981693,-0.000178313815751548,0.0541737096742943,0.00886314123865576,2.25683864145725,-7.84683591605123e-05,0
0.47,0.000951674842937053,0.000548704625132272,-0.0475316013782219,-0.0274600141508515,-0.00108396048640577,-0.0001783015317707,0.0541733793827587,0.00886287047151443,2.25683857806747,-7.73322562075299e-05,0
0.48,0.000951657729884823,0.000548704594876854,-0.0475312175587127,-0.0274600143131072,-0.001083947235768,-0.000178290654156124,0.0541730829942947,0.00886262419281045,2.25683852248177,-7.63360219273958e-05,0
0.49,0.000951642828723699,0.00054870456834611,-0.0475308837669411,-0.0274600144647389,-0.00108393569773979,-0.000178281182266896,0.054172825247852,0.00886240998463893,2.25683847373939,-7.54624367133209e-05,0
0.5,0.000951629790207714,0.000548704545081531,-0.0475305899893047,-0.0274600146074186,-0.00108392560194896,-0.000178272894303925,0.0541725984038465,0.00886222145664382,2.25683843099788,-7.469640091248e-05,0
0.51,4.68330703118932,0.0343030768036376,5.83561334012218,-1.70404990213021,-0.451380414206822,4.66163031257692,-2.29982220696005,5.62752049669615,0.103852358553598,31.9372420841503,2199.12649445307
0.52,4.65205600959203,-0.00743136129779631,7.39932376317949,0.400955049856641,-2.11663495111419,4.14264852784229,-2.99873738263693,6.77630660569119,0.470761929325154,68.4359939079793,2199.12649445307
0.53,4.63496277897949,-0.0401582490524226,8.25530339871476,2.0468192261928,-4.18127926740284,2.00034905341029,-6.51653161391512,5.46574046899309,1.11590869345586,108.201420172821,2199.12649445307
0.54,4.67556620399354,0.0161298177789888,6.22655941870973,-0.748717878008814,-4.16320846717383,-2.12811530650955,-5.19131818821021,-3.51864123268212,2.04679127961004,145.072664543637,2199.12649445307
0.55,4.60002118773122,0.00155995169144041,10.0053404215639,-0.0150484821191471,0.495437944017577,-4.57326345235577,1.09594275895053,-9.94514820791015,-3.03334081515796,183.673513830611,2199.12649445307
0.56,4.58771646055688,0.0728854558683443,10.622329907053,-3.57382250003252,4.58829260662685,0.00505649236637067,10.5600887818985,3.75374810481912,-1.55380853324592,220.873776134165,2199.12649445307
0.57,4.64052605359816,0.0712209148441807,7.9835632616086,-3.46827164444292,-0.860363758078412,4.56062810110842,-4.99809981338334,7.12637276650687,0.201805320014031,258.261316613936,2199.12649445307
0.58,4.56323652979671,0.0779679432190734,11.8499332536558,-3.80451892764466,-3.64849192087025,-2.74184487715579,-7.01285923400785,-10.2817842688366,2.23234174851983,295.926974007802,2199.12649445307
0.59,4.53143399750856,0.116529795935291,13.4420214566608,-5.71705359696266,4.44181837202547,-0.904280275718851,14.2325233693556,3.28754029825019,-1.74592482184854,333.267257433392,2199.12649445307
0.6,4.53669199473228,0.0825659737387427,13.1811476225135,-3.98256746892178,-3.29882539924019,3.11546824416735,-12.4274393907058,5.92977625896125,0.832173683389704,370.097015634767,2199.12649445307
0.61,4.51512590796026,0.0899858847111539,14.2616634177635,-4.36743684309316,2.25144832034474,-3.91477200932546,11.0968672412243,-9.96639781719678,-2.59974390856072,407.758333377607,2199.12649445307
0.62,4.52133317153172,0.0876914641088903,13.9535904327146,-4.21667452432103,-2.18479396480291,3.95939626360275,-10.6287198833404,9.97563750591846,0.523616559699769,444.591206001461,2199.12649445307
0.63,4.52783930429825,0.0756559276101378,13.6306308318164,-3.59062085643408,3.12219234005713,-3.28008651968499,12.1204420048588,-7.19593917531114,-2.3641441732186,481.488653250211,2199.12649445307
0.64,4.43160841811353,0.160131644798569,18.4446152455288,-7.80860338240784,-4.23064167197525,1.32908478228705,-19.8546592894796,-2.64019371221648,1.30252105267482,518.479650834745,2199.12649445307
0.65,4.42284481519157,0.0914510604014373,18.8853706587481,-4.35631570155188,3.8676891849026,2.14730061349197,14.125484488105,13.2704709557045,-1.04330351925918,555.441110425167,2199.12649445307
0.66,4.43456985788203,0.0769211946334338,18.3017198065966,-3.66261099070632,0.0233710806772628,-4.43517536149448,4.07550526342841,-18.2142231235971,-3.11897915141626,592.564992469203,2199.12649445307
0.67,4.40254732469773,0.140151661531923,19.9055362226325,-6.78000989352721,-4.27427796029488,1.06424308904062,-20.8870044878305,-2.43555948238005,1.35859401712827,629.079501341937,2199.12649445307
0.68,4.44286048027165,0.104055223249041,17.8926659797636,-4.99844208790226,0.889144086196013,4.35422318337355,-1.75105152888509,18.4950192677026,-0.178016831188443,666.023943547981,2199.12649445307
0.69,4.42133252258674,0.0792288433002244,18.9720029940234,-3.68787326091611,4.39679036943037,0.471903519989308,18.3651709343079,6.02144528725997,-1.44595877852489,702.349668082459,2199.12649445307
0.7,4.4019360907469,0.108684101231477,19.9448141747558,-5.15325416471971,2.73800520344532,-3.4485041810598,16.7392059206925,-12.0062744469879,-2.44585496948751,738.850992445665,2199.12649445307
0.71,4.36589425444959,0.129556984469913,21.7499561695576,-6.18653126879997,-0.289014908813999,-4.35824368705378,5.38758253948651,-21.9615053422514,3.10504115202652,775.34001911052,2199.12649445307
0.72,4.36806546489579,0.153788045232302,21.6445145111588,-7.38158437388648,-2.23504445520273,-3.75609144613642,-3.93448110006103,-22.5275976252647,2.64001712252939,811.818840357987,2199.12649445307
0.73,4.38309814494033,0.112082088242841,20.896040795827,-5.34935146478387,-2.90801412036894,-3.28139690047076,-9.36201440782659,-19.4322610177586,2.44201338795829,848.414252094502,2199.12649445307
0.74,4.31757243097692,0.152921241020751,24.1755371854972,-7.33260634005685,-0.935455966492323,4.21778837039522,-13.1647577922062,21.5618381920036,0.253658911728897,884.577682308507,2199.12649445307
0.75,4.27292184781749,0.132691618299923,26.4113542775929,-6.36720077929363,-2.26131422671843,3.62793690010781,-19.9559887695787,18.4352757714338,0.588424203608037,921.047945236604,2199.12649445307
0.76,4.27333058000358,0.273571907338227,26.3942722797773,-13.3313413173542,-3.86382722900249,1.84581553219637,-29.4607354858346,-2.53916032036157,1.18906477212579,957.124501790801,2199.12649445307
0.77,4.26894310534022,0.197925488912425,26.617102870101,-9.53342563522933,-3.87023006785928,-1.81228280288452,-19.1181837371809,-20.8291003197781,2.05506383198252,993.233951739908,2199.12649445307
0.78,4.29067182279017,0.190724904248934,25.5341581519902,-9.15766713305407,-0.00013066419845803,-4.29490869087029,10.2817701991308,-25.1026154299295,-3.09720126036127,1029.36368182951,2199.12649445307
0.79,4.18178418660046,0.22780586130067,30.9821709425636,-11.0223923639547,4.11609758992333,-0.772628710294887,32.157395329079,6.87677070931761,-1.70192424002633,1065.44392757803,2199.12649445307
0.8,4.2819835101238,0.234007370317235,25.9758974346876,-11.3820885177283,0.416969303380807,4.26805328345055,-10.2604634443468,26.4390256339003,-0.0427913980032494,1101.51943476671,2199.12649445307
0.81,4.20867879562348,0.21184198192091,29.6448507505409,-10.1948862077862,-4.07360189402727,-1.07871304757674,-25.1375609772724,-18.731148094163,1.87995262125313,1137.30206198467,2199.12649445307
0.82,4.25028097032494,0.170450110668817,27.5684873519824,-8.18144996819781,3.29042310748979,-2.69574801133759,26.9355790257018,-10.0713554702786,-2.21709610161663,1173.37450486347,2199.12649445307
0.83,4.12460918685181,0.235988712547686,33.855978535945,-11.4325481577586,-0.717848308240319,4.06851145052693,-18.9043544251707,30.3241788639589,0.231795066019411,1209.09368660426,2199.12649445307
0.84,4.20861092404194,0.217656107676165,29.6597684539221,-10.4349193244675,-2.49786515497556,3.39417880476748,-26.8639832713417,16.3375582277613,0.686103690309958,1244.83610630717,2199.12649445307
0.85,4.20947047917164,0.240953596626904,29.6207404890353,-11.5884351379106,1.87549009100394,-3.77627293363324,24.7375456498986,-19.9933471755862,-2.62344931626026,1280.59342583742,2199.12649445307
0.86,4.1646234019273,0.219949164633151,31.8671240200545,-10.618706929612,-2.21276142024169,3.53498976122892,-27.0003364834844,19.9813002566186,0.612053874258121,1316.35918338729,2199.12649445307
0.87,4.15016210911886,0.186566478981553,32.5942922781597,-8.94456666170227,3.31166415261853,-2.50829287032173,31.9151229651996,-11.127357637639,-2.17410023738411,1352.0354958152,2199.12649445307
0.88,4.13060558740184,0.246795416739024,33.576241406758,-11.8622969549137,-4.13347360897449,0.192889658380332,-33.4186377513951,-12.2992978211146,1.58384194084722,1387.51704864172,2199.12649445307
0.89,4.10951653030279,0.218100990455028,34.6348953282427,-10.5079343400119,2.75527001405258,3.05682536376092,13.6255429146599,33.531138345918,-0.680538110153959,1423.18930618517,2199.12649445307
0.9,4.11070630210863,0.305145949302037,34.5796394075032,-14.8572710617347,1.54068864617856,-3.82325762251349,28.5952520111752,-24.470421479251,-2.68442558898696,1458.66906126821,2199.12649445307
0.91,4.0305797779521,0.268782409389978,38.5902676324031,-12.9295763320009,-3.94412064499718,-0.872771257398457,-33.4131846986033,-23.2366475284745,1.85515834255733,1494.06584802474,2199.12649445307
0.92,4.11004076100313,0.271831648591647,34.6215957049559,-13.0605029186524,3.82354089008159,-1.53194731115576,36.9645053236996,1.69025791515236,-1.88583096429711,1529.47009400282,2199.12649445307
0.93,3.97679600496524,0.281649137981013,41.2882725828139,-13.6433119308829,-0.157229825873534,-3.98365554282605,14.9269775780191,-40.8417280939657,-3.11033583819205,1564.88096237451,2199.12649445307
0.94,4.02007947539509,0.262855220028686,39.1285499402475,-12.7192379927779,-3.38874229279716,-2.1786595714331,-23.9006874813525,-33.4899921388777,2.20746452380712,1600.27515511491,2199.12649445307
0.95,4.06306409995035,0.356691476837862,36.9838229662761,-17.2980495842152,-4.02823896733214,0.639538514884763,-38.1014428889342,-14.6732999151556,1.50091094285606,1635.46593329134,2199.12649445307
0.96,4.04445608644522,0.29049233349536,37.9187450086752,-14.0871275975704,-3.37026999892123,2.25461548060304,-39.9200659761296,6.53197668739105,1.05290127263021,1670.81255147504,2199.12649445307
0.97,3.9844650493893,0.332554069751094,40.9228912486109,-16.062564914958,-2.81095317246532,2.84343035809215,-41.5352292631176,14.4053375473516,0.862924178123771,1705.89994390838,2199.12649445307
0.98,3.94892956279682,0.389284914040781,39.8450356089969,-18.8986517983471,-2.93451221365817,2.67099709923494,-43.2443372651643,8.64367959691489,0.930635975247648,1740.95984226616,2199.12649445307
