t,iq,id,vq,vd,ia,ib,va,vb,theta_e,omega,r
0,0,0,0,0,0,0,0,0,0,0,0
0.01,0.000535309661710632,0.000302306291552911,-0.0262950752769377,-0.0151247129024427,0.000198876928088095,-0.000581715991964694,-0.00958621347224252,0.0287800701087703,-2.29808705076495,-0.00116618188465788,0
0.02,0.000643642348879247,0.00036139845109924,-0.0316643745292144,-0.0180811624748659,0.000240505328806806,-0.000697883586669907,-0.011631053930827,0.0345583511647627,-2.29809629917073,-0.00133601041981607,0
0.03,0.000684581438761451,0.000384081702025172,-0.0336945283563805,-0.0192160265769944,0.000255997385136868,-0.00074204840740368,-0.0123926440581508,0.0367559422653626,-2.29810604261096,-0.00134905358984139,0
0.04,0.00067167566094059,0.00037714126724946,-0.033089915785921,-0.0188687921802496,0.000250964944268277,-0.000728285881856107,-0.0121715501630051,0.0360946978334802,-2.29811524414921,-0.00124450344381993,0
0.05,0.000687513740569723,0.000386608852406474,-0.0338899073232654,-0.0193424647305942,0.000256494056428527,-0.000745890305103949,-0.0124538546207392,0.0369805119667007,-2.2981240751979,-0.00120812696904437,0
0.06,0.000689352006569868,0.000388129299645054,-0.0340040902017718,-0.019418525248051,0.000256849942223171,-0.000748250392171509,-0.0124882604086407,0.0371133483429534,-2.2981325017031,-0.00114333338607116,0
0.07,0.000700620771213825,0.000395178502123567,-0.0345777430860094,-0.0197712013110964,0.000260574272529039,-0.000761010224696648,-0.0126819654554411,0.03775829008831,-2.29814033772735,-0.00110474454795212,0
0.08,0.000690004949918996,0.000389503479204268,-0.0340803800358931,-0.019487284202836,0.000256412445970475,-0.000749714911667351,-0.0124989553368408,0.0372156239297511,-2.29814789891952,-0.00101880796073777,0
0.09,0.000687465687349441,0.000388588887064969,-0.0339764688147875,-0.0194415263162302,0.000255118624454146,-0.000747345222698222,-0.012451503200549,0.0371124432862297,-2.29815493257199,-0.00095549249279754,0
0.1,0.000686351837337214,0.000388440036750821,-0.0339410090434955,-0.0194340731702467,0.000254380697964887,-0.000746495122067148,-0.0124297280353038,0.0370833811274745,-2.29816153046328,-0.000898973072192354,0
0.11,0.000685522499810126,0.00038841444705237,-0.0339183112861123,-0.0194327967522159,0.000253773632792477,-0.000745926151655934,-0.0124133933533238,0.0370674128523991,-2.29816772909142,-0.000846366337199075,0
0.12,0.000684780416301645,0.000388408780087866,-0.0338988036505292,-0.0194325112555609,0.000253218778020685,-0.000745429976226681,-0.0123987965997105,0.0370543010393347,-2.29817355424544,-0.000797013491828567,0
0.13,0.000711899531648689,0.000404173240421401,-0.035241341500696,-0.0202212186027274,0.000262988226503902,-0.00077523812093749,-0.0128769261426361,0.0385361467412748,-2.29817921932611,-0.000812112486565883,0
0.14,0.000728376896028724,0.000414055267166795,-0.0361091871308421,-0.0207156352782172,0.000268720424542505,-0.00079357671360159,-0.0131961749151255,0.039482551941835,-2.29818463581538,-0.000805128786694133,0
0.15,0.000690431717773281,0.000392528315209115,-0.0342219177542825,-0.0196386203248651,0.000254688514589796,-0.000752268699125727,-0.0125024854541014,0.037423293822365,-2.29818978040293,-0.000677032005911054,0
0.16,0.000683477466013559,0.000389064879980324,-0.0338949507689385,-0.019465333902643,0.000251793844488482,-0.00074505891529471,-0.0123733240936431,0.037076512274536,-2.29819433583552,-0.000623991273259501,0
0.17,0.000681852612034444,0.000388506719084453,-0.0338276820254676,-0.0194374124041622,0.00025094821881611,-0.000743562671726454,-0.0123414897094891,0.0370109808561756,-2.29819856925227,-0.00058566412636436,0
0.18,0.000681165683088869,0.000388415888738956,-0.0338055227132871,-0.0194328679534628,0.000250492594460412,-0.000743039063955113,-0.0123278136967531,0.036992901106475,-2.29820253966937,-0.000551614894094078,0
0.19,0.00068066391687329,0.000388400283881957,-0.0337917254408516,-0.0194320828825161,0.000250125430403827,-0.000742694699939467,-0.012317892564307,0.0369831863986469,-2.29820626969752,-0.000519952338685197,0
0.2,0.000680216739420066,0.000388396837411579,-0.0337799493456312,-0.0194319192491642,0.000249791123344542,-0.000742395656369873,-0.012309076206735,0.0369752769622654,-2.29820977496632,-0.000490253313384094,0
0.21,0.000679800888516582,0.000388395402517181,-0.0337690968845994,-0.019431836861578,0.000249479035039887,-0.000742118890609843,-0.0123009035397033,0.0369680397143716,-2.29821306920306,-0.000462351816047525,0
0.22,0.000679410754701151,0.000388394343913489,-0.0337589301912547,-0.0194317852176087,0.000249186053354448,-0.000741859454884287,-0.0122932300016244,0.0369612789352377,-2.29821616514416,-0.000436131469545317,0
0.23,0.000679044194990618,0.000388393395445148,-0.0337493788770475,-0.0194317364616989,0.000248910745521427,-0.00074161572875704,-0.0122860210926406,0.0369549271710094,-2.29821907473138,-0.000411489681851993,0
0.24,0.000678699568854411,0.000388392511344314,-0.0337403949597534,-0.0194317038649051,0.000248651908089423,-0.000741386590271901,-0.0122792317291514,0.0369489625737357,-2.29822180918282,-0.000388331196095439,0
0.25,0.000678375908189523,0.000388391681463378,-0.0337319619108375,-0.0194316565116937,0.000248408816688585,-0.00074117139099758,-0.0122728697277327,0.0369433511986764,-2.29822437904051,-0.000366566687579906,0
0.26,0.000683490037732468,0.000391496936433263,-0.033988874329813,-0.0195870213906275,0.000250161883327613,-0.000746891903186895,-0.012361356121102,0.0372302546326508,-2.29822674706952,-0.000358778096147076,0
0.27,0.000670136290266754,0.00038389457966969,-0.0333427067314523,-0.0192066584793302,0.00024524161905372,-0.000732334789639387,-0.0121315789172162,0.0365165252330588,-2.29822913805335,-0.000308947102249415,0
0.28,0.000669526511150744,0.00038371597784044,-0.03327425531768,-0.0191977239990759,0.000244903385538813,-0.000731796442007858,-0.0120863168778845,0.036464360929793,-2.29823127167195,-0.000290104460329665,0
0.29,0.000675897758676616,0.000387637178326835,-0.0336361804658557,-0.0193939062559683,0.000247053099011784,-0.000738962196918041,-0.0122261083553201,0.036851574059745,-2.29823321215129,-0.000288663490174761,0
0.3,0.000667481312360419,0.000383171238976224,-0.033228958380339,-0.0191704790273023,0.000243735563905442,-0.00073003046211556,-0.0120704761077445,0.036413933428166,-2.29823473156685,-0.000257155000451643,0
0.31,0.000675214367090062,0.000387548698910868,-0.0336120776606117,-0.0193894838737311,0.000246599129482947,-0.000738442485837991,-0.0122109277980684,0.036832283283324,-2.29823645172696,-0.000260603151422009,0
0.32,0.000676363227072432,0.000388252287202777,-0.0336730789806465,-0.0194246795914604,0.000246988091017105,-0.000739732341019201,-0.0122330228158382,0.0368991541644919,-2.298238127918,-0.000249489341176395,0
0.33,0.000676396017203377,0.000388365022088573,-0.0336792386405283,-0.0194303293182646,0.000246936443918368,-0.000739838735898168,-0.0122338079647681,0.0369074891519735,-2.2982397134059,-0.000236588868128037,0
0.34,0.000676247959708332,0.000388382753669212,-0.0336762842133113,-0.019431208564224,0.000246812968801164,-0.000739753894744,-0.012230961649373,0.0369061995037915,-2.29824120520249,-0.000224044818918897,0
0.35,0.000676078062478595,0.000388385229583261,-0.0336720035015291,-0.0194313386801574,0.00024668339306109,-0.00073964311442149,-0.012227626216849,0.0369034673142104,-2.29824260750234,-0.000212183963044102,0
0.36,0.000675913112713069,0.0003883852744619,-0.0336677214462129,-0.0194313465622627,0.000246559191704482,-0.000739533787154007,-0.0122243741826768,0.0369006418974582,-2.29824392544508,-0.000201024748497978,0
0.37,0.000675757428642958,0.000388384949578245,-0.033663664014279,-0.0194313179349732,0.000246442215468605,-0.000739430325223387,-0.0122213171254917,0.0368979376019099,-2.29824516406612,-0.000190535132617416,0
0.38,0.000675610756046608,0.000388384585180298,-0.0336598320469944,-0.0194313024837591,0.000246332051306915,-0.000739332807462559,-0.0122184224574046,0.0368953921553845,-2.29824632813297,-0.00018067655391494,0
0.39,0.000675472931014547,0.000388384233185847,-0.0336562307200706,-0.0194312870044588,0.000246228538917433,-0.000739241164805727,-0.0122157026577212,0.0368929991937551,-2.29824742213175,-0.000171411326882507,0
0.4,0.00067534337146784,0.000388383900819355,-0.0336528436959515,-0.0194312700434399,0.000246131235602089,-0.000739155016665785,-0.012213146334415,0.0368907468200278,-2.2982484502801,-0.000162703787177665,0
0.41,0.000675221669957499,0.000388383588184582,-0.0336496625132763,-0.0194312545121842,0.000246039834016942,-0.000739074093192448,-0.0122107450848097,0.0368886316315537,-2.29824941654152,-0.00015452037489366,0
0.42,0.000675107302612266,0.000388383294303282,-0.0336466723185712,-0.0194312389571357,0.000245953940765878,-0.000738998046246412,-0.01220848864367,0.0368866427119627,-2.29825032464101,-0.000146829542946222,0
0.43,0.000674999803768484,0.000388383018082408,-0.0336438603478408,-0.0194312219243334,0.000245873206172226,-0.000738926566249233,-0.0122063683149721,0.0368847705311685,-2.29825117807966,-0.000139601641912919,0
0.44,0.000674898765977252,0.00038838275846719,-0.0336412161887832,-0.0194312063253673,0.000245797324172019,-0.00073885938230632,-0.0122043742640054,0.0368830103807095,-2.29825198014775,-0.000132808806834557,0
0.45,0.000674803712867298,0.000388382514461463,-0.0336387253664429,-0.0194312067944179,0.000245725937336048,-0.000738796177683142,-0.0122024858339856,0.0368813636032859,-2.29825273393726,-0.000126424849979912,0
0.46,0.000674714491228654,0.000388382285127227,-0.0336363890053428,-0.0194311896987069,0.000245658929695526,-0.000738736850533014,-0.0122007261219897,0.0368798058634001,-2.29825344235418,-0.000120425159917515,0
0.47,0.000674630682904691,0.000388382069583829,-0.0336341944347662,-0.019431174040045,0.000245595987494734,-0.000738681122824426,-0.0121990729278569,0.0368783429610253,-2.29825410812969,-0.000114786606640436,0
0.48,0.000674551753316762,0.000388381867002347,-0.0336321227124171,-0.0194311744468418,0.000245536710115714,-0.000738628639103913,-0.0121975022816836,0.0368769732572374,-2.29825473383034,-0.000109487452397395,0
0.49,0.000674477723879655,0.000388381676604237,-0.0336301821708138,-0.0194311587533,0.000245481112275997,-0.000738579413636433,-0.0121960417068677,0.0368756782991502,-2.29825532186853,-0.000104507267886676,0
0.5,0.00067440804930736,0.000388381497657228,-0.0336283524137254,-0.019431157668235,0.000245428785521448,-0.000738533083842895,-0.0121946554657134,0.0368744674871661,-2.29825587451104,-9.98268534991537e-05,0
0.51,3.06447307441705,0.0231309094112979,1.59902451763641,-1.15485174824542,-0.0899178152760222,3.06324093882497,-1.21304585719308,1.55533974319907,0.0368933345876426,11.3447726010839,393.584793830909
0.52,2.99892602543768,0.0455814165619835,0.977769338508379,-2.27552871922219,-0.450483533668838,2.96524865019385,-2.40579384028875,0.588404477685902,0.16596621902069,23.8305245284195,393.584793830909
0.53,2.89545179444809,-0.00701321150842138,2.2981948220279,0.358854132677043,-1.09605720494279,2.67999046315492,-0.532333939451979,2.26430923361691,0.385799870270196,36.1175642567648,393.584793830909
0.54,2.78421452961207,0.0240323982197505,3.95932704755243,-1.19189234520123,-1.7660815287931,2.15252970635088,-3.45259181914706,2.27518961020578,0.695728810853472,48.4747011263584,393.584793830909
0.55,2.69683337180224,0.0211990431069617,4.21311659697729,-1.04946679422733,-2.39099282186225,1.24760288573652,-4.22856615092501,0.985373187763174,1.09772740102326,61.3101497793141,393.584793830909
0.56,2.6487689592643,0.0349992454251791,2.56307855168984,-1.73968833405127,-2.64888021155358,-0.0252105450611524,-2.5228771550184,-1.79749214809213,1.59352610608987,73.6921426217731,393.584793830909
0.57,2.56658036200642,0.0137974194535855,3.15528901381353,-0.675566986715704,-2.12062260386224,-1.44585092433802,-2.21384751047985,-2.34757720098289,2.17458191382135,84.7010669925423,393.584793830909
0.58,2.48475338176202,0.0428286447602449,3.86537287586495,-2.12434926230555,-0.791985984172392,-2.35554491824382,0.856417617897376,-4.32672117445596,2.83447944209477,95.4095418922881,393.584793830909
0.59,2.4002175285266,-0.034827469608177,4.38033086841494,1.75706983409322,1.04110545833345,-2.16295089207174,0.248221874400887,-4.7130646950512,-2.70749678339076,106.85622571742,393.584793830909
0.6,2.36744970998558,0.0332353354963024,2.69080526059854,-1.64405587012041,2.24062462132449,-0.765195415009024,3.06780270222105,0.729341644764224,-1.88585008961783,117.105346294848,393.584793830909
0.61,2.2692301293745,-0.0258420518214293,4.41367872582911,1.31607897357066,1.88440752090952,1.26454793774019,4.41358185041301,1.31640381692555,-0.991146824270756,127.150883038335,393.584793830909
0.62,2.24345185463742,0.00911640785921985,2.32697901177942,-0.437391634103584,0.0551310279600464,2.24279288003248,-0.389569810061167,2.33546100929445,-0.0205129275407174,137.386133362207,393.584793830909
0.63,2.20535988869253,0.0198805270744187,1.27480027799581,-0.968941127950729,-1.86915933244068,1.17057714993954,-1.59332964250377,-0.158944356714639,1.02030684263472,146.645289133685,393.584793830909
0.64,2.11118370464636,0.0170392946346847,2.79088842498787,-0.832989005510462,-1.79687970245831,-1.10842695168392,-1.92037822992997,-2.18976627475254,2.13159303251517,156.332017082856,393.584793830909
0.65,2.01450666696933,0.0442953610343905,4.79750481046168,-2.18954162707758,0.293131912899015,-1.99355784263041,2.96081456083357,-4.36391132809369,-2.97361457941426,165.145336851005,393.584793830909
0.66,1.95566271123684,0.015079366201759,4.75153195821221,-0.732868183439859,1.92887946154162,-0.322905636758164,4.80765479638994,-0.0246390535369658,-1.72895362424526,174.158145918136,393.584793830909
0.67,1.91595063565885,-0.0245154224949959,3.97512124818191,1.24490342515336,0.761772359906781,1.75817255009391,2.76276335020392,3.11745282987183,-0.421653524703952,182.741642348373,393.584793830909
0.68,1.87247107413415,-0.00724963197191791,3.44511624779414,0.389756559741216,-1.525693028719,1.08556955684612,-2.57212395239558,2.32484720147141,0.948505237543555,190.883735772047,393.584793830909
0.69,1.82048014509469,0.0149048190382022,3.29787358483518,-0.725511161382902,-1.26923024675181,-1.30515313011343,-1.75550625867045,-2.88453365426956,2.37833467857039,199.197190719857,393.584793830909
0.7,1.72414611633024,0.0121539666295031,5.59972965231138,-0.585622685597877,1.13386024061437,-1.29891820532142,4.15059012309207,-3.80427755808548,-2.41688903119142,206.943690886808,393.584793830909
0.71,1.71659194831903,0.047765680648872,3.46889527388802,-2.36146244947134,1.34467201840406,1.0680948647956,1.13556118283552,4.03983169470004,-0.871711992727411,214.443501918897,393.584793830909
0.72,1.68385029338953,0.0335449587179999,2.59824286418862,-1.65558760125759,-1.09572967763764,1.27900490552129,-2.96496579371489,0.837146420195163,0.728292652007024,221.967816561776,393.584793830909
0.73,1.56129778859315,-0.00272726523227729,6.33131381711906,0.153465552080014,-1.07383100974474,-1.13337777689176,-4.47379162366261,-4.48266381012052,2.38141946779814,229.21525710621,393.584793830909
0.74,1.52950489290866,0.0178661651795044,5.66115229617317,-0.867202191290858,1.22909046044173,-0.910516917657711,5.096006744866,-2.61369474448082,-2.19670642896106,236.059260764116,393.584793830909
0.75,1.5259684355264,0.0372951793137113,3.57628005012632,-1.83614577231205,0.685263019143999,1.36395938033967,-0.13341270723246,4.01788642742174,-0.441136047486636,242.764202937092,393.584793830909
0.76,1.44751335156555,-0.0203602114478496,5.27367292170929,1.04464259412099,-1.42064842289934,0.27832983973039,-4.9452693711803,2.10884211857778,1.36326462486348,249.36544793001,393.584793830909
0.77,1.45089678664031,-0.0207424654387506,2.93900295407345,1.06016829529404,0.127059504445131,-1.44547141711132,-0.841841450481421,-3.00882005953338,-3.0682115643162,255.800372968926,393.584793830909
0.78,1.37910165522121,0.0289428046321511,4.43797912579943,-1.43020719057484,1.2814122700332,0.510628686603317,3.53013177877373,3.04619778633878,-1.17060959090998,262.01352239326,393.584793830909
0.79,1.33388855352144,0.040391975693488,4.6682085965144,-2.00556029793599,-0.901205224804509,0.984235402584665,-4.69275912248196,1.9474227655007,0.771661173662877,268.032037383037,393.584793830909
0.8,1.29232106041676,-0.00768545496747619,4.79143938199359,0.399028429348066,-0.477295006248705,-1.2009755478047,-2.16598138972409,-4.2925097155529,2.75736306871083,273.837558718657,393.584793830909
0.81,1.24781651279786,-0.0342367882301979,5.10589582468305,1.72852002258757,1.24203387421798,0.124780056797528,5.21795853140593,-1.35309364255769,-1.49809847400072,279.46519685775,393.584793830909
0.82,1.22892097718968,0.0203640284149097,4.17880576173317,-0.993668491781143,-0.646626097024498,1.04524454195034,-3.09331441013279,2.98013433018006,0.57057913657794,284.930390650856,393.584793830909
0.83,1.2051047181359,0.0168435070638841,3.56144048469449,-0.813320250109613,-0.553199128303414,-1.0707622564547,-0.86259857198286,-3.54982701816193,2.67869734321679,290.202617937538,393.584793830909
0.84,1.12775665558927,0.0254569627908302,5.65369182178185,-1.24520370477372,1.12345965157088,0.101594992360185,5.47768565857597,1.87342555440464,-1.45804188442229,295.356134704071,393.584793830909
0.85,1.11404114229507,0.0240126009122482,4.61200016747584,-1.17277676230327,-0.721336367611885,0.849316264114356,-3.93793287155804,2.67182251994745,0.725646954000122,300.363069907344,393.584793830909
0.86,1.05998843189048,-0.00890665085073472,5.64115860401166,0.473517386373566,-0.197924777067799,-1.04138397663574,-1.56425847202239,-5.44058678301514,2.94537101658119,305.190228189789,393.584793830909
0.87,1.05143307994769,-0.00162782952108634,4.44423264024655,0.10787278271109,0.928180965012072,0.493957758949583,3.97702002103633,1.98649239871659,-1.08328688638005,309.88213297912,393.584793830909
0.88,1.05231554076337,0.0286673673303074,2.80440584392627,-1.41665939484983,-0.97246332316541,0.403118965542236,-3.12557439318849,-0.320001079855253,1.20505933520269,314.455744468214,393.584793830909
0.89,0.97462034926895,0.0199592251794458,5.13903358627729,-0.989187242184167,0.347281057330639,-0.910867203876727,2.84559076650562,-4.39212599893991,-2.75686531023438,318.875861334828,393.584793830909
0.9,0.943918896500812,-0.0184999553175063,5.17908376329284,0.934435306490128,0.353998619425111,0.875220034598829,2.89487977866305,4.3949686047009,-0.403948862591484,323.122830335475,393.584793830909
0.91,0.898821617773945,0.0384781278304708,5.96488907016906,-1.91646263549426,-0.840037346533122,-0.322021929887859,-4.71136555329969,-4.12986262190996,1.97964414843385,327.267526576178,393.584793830909
0.92,0.910095816021157,-0.0134571056618933,3.98516740667441,0.685038995488705,0.868307286559183,-0.272943115209452,3.56861784777325,-1.90152684469993,-1.89014138270141,331.255060071125,393.584793830909
0.93,0.866178369859807,0.0437839624226635,4.8030276133669,-2.17608825834132,-0.417062545795226,0.760421486199086,-4.37204900105046,2.94781646227671,0.552167347055511,335.115817889087,393.584793830909
0.94,0.835172477476456,0.0086007736181093,5.02307416785636,-0.411460407086757,-0.107860019667992,-0.828222951021168,-0.188812894088068,-5.03636013936771,3.02238866828818,338.848537451245,393.584793830909
0.95,0.793638209727457,0.0320291581439015,5.80087352677849,-1.58015371121743,0.571885417769295,0.551211886531531,2.86933483988986,5.28336417459065,-0.763468199181207,342.473747365749,393.584793830909
0.96,0.808450819090712,-0.0042385494170758,3.79822381549854,0.237331058039004,-0.793214009571191,-0.156276124886687,-3.77504055795624,-0.481558895168242,1.76007859208239,345.99559736649,393.584793830909
0.97,0.747890984613651,0.00688659822757987,5.57876947382992,-0.338948988745671,0.685197253358957,-0.299821737188727,5.26428476647562,-1.87746135953874,-1.97405772650872,349.45901785686,393.584793830909
