t,iq,id,vq,vd,ia,ib,va,vb,theta_e,omega,r
0,0,0,0,0,0,0,0,0,0,0,0
0.01,0.000551021127247473,0.000301711143479942,-0.0266255524033351,-0.01509782095375,-0.000242614221023622,0.00057947582911641,0.0113995525982827,-0.0284062394359623,0.89746394397392,-0.00258351138617325,0
0.02,0.000636410085211831,0.000346971081879474,-0.0309480875754378,-0.0173626598286573,-0.000281130284443102,0.000668111137004079,0.0133657181598576,-0.032872536546088,0.897444890351815,-0.00260273800159943,0
0.03,0.000665374366740407,0.000364555368494878,-0.0324647397915289,-0.0182425800567331,-0.000292794500828128,0.000699925028055463,0.014001998071075,-0.034506450221308,0.897427059126851,-0.00235339812742651,0
0.04,0.000645730409605262,0.000356610449794141,-0.0316398154364307,-0.0178450051971611,-0.000282382906049923,0.000681468025047514,0.0136045738645558,-0.0336814147758367,0.897412296501992,-0.00191805986602955,0
0.05,0.000657883634796446,0.000365564261600634,-0.0323164630618137,-0.0182930667522696,-0.000286290460034101,0.000696050198467081,0.0138536524059692,-0.0344538298457972,0.897399504338417,-0.00169392133845231,0
0.06,0.000655966063903015,0.000366503638864021,-0.032307948361866,-0.0183400798151269,-0.000284198034524737,0.000695591741947286,0.013817299778961,-0.0344854212935923,0.897388567434438,-0.00143770442817083,0
0.07,0.000666640347233593,0.000374459956207696,-0.0328849553758247,-0.0187382073893319,-0.000287573800534962,0.000708470832574407,0.0140197381333483,-0.0351566160047854,0.897379609232309,-0.00129209456298828,0
0.08,0.000651762977394953,0.000367435987078588,-0.0322353437469826,-0.0183867332939857,-0.000280319317397824,0.000693704017284582,0.0137308676813311,-0.0344768417989245,0.897371703935879,-0.00103610538440841,0
0.09,0.000647883824094342,0.000366696754672114,-0.0320991370516696,-0.0183497376225981,-0.000277743609473304,0.000690708655517585,0.013647248011413,-0.0343630629018288,0.897365267789724,-0.000870892632279381,0
0.1,0.000645716285842497,0.000366618226355494,-0.0320363913340911,-0.018345809894145,-0.000276094556431955,0.000689296918321067,0.0136004662344997,-0.0343209328047384,0.897359909109466,-0.000738912290292824,0
0.11,0.000644039556737687,0.000366609275294977,-0.0319903664421103,-0.0183453563262746,-0.000274786387026341,0.000688245416170856,0.0135646187132965,-0.0342919343724055,0.897355432208699,-0.00062935285934375,0
0.12,0.000642654855356103,0.000366607750575096,-0.0319526966179818,-0.0183452830211461,-0.000273702371911386,0.000687381638905628,0.0135350904358628,-0.0342684338302723,0.897351690057776,-0.000537862776566161,0
0.13,0.000670798028043879,0.00038275326097478,-0.0333222545722824,-0.0191532152565054,-0.000285629015543435,0.000717555655467973,0.0141016218584872,-0.0357541964726137,0.897348087333994,-0.000604453683039706,0
0.14,0.000689592506821042,0.000394393430867971,-0.0343527714808047,-0.0197356943906454,-0.000293058084278153,0.000738377249794952,0.0145437526317455,-0.0368522699555935,0.897344947755377,-0.000632412292786026,0
0.15,0.000645366395950678,0.000369526449570485,-0.0321538651677294,-0.0184913451153035,-0.000273995030716591,0.000691356857995312,0.0136009160884506,-0.0345082015027255,0.897342213247949,-0.000338798592479644,0
0.16,0.000639321607391435,0.000366912609614411,-0.0318781690190634,-0.0183605457367426,-0.000270899073399946,0.000685544070649493,0.013466933405915,-0.0342340328386774,0.897340550122864,-0.000269647631322223,0
0.17,0.000638154708333835,0.000366637683061589,-0.0318324553163509,-0.0183467853894224,-0.000270157513236962,0.000684601738568515,0.0134397376699943,-0.0341947831833269,0.897339238087387,-0.000233994728986923,0
0.18,0.000637667625862642,0.00036660861712854,-0.0318174577008356,-0.0183453248710813,-0.00026979415979662,0.000684275522407337,0.0134288882374755,-0.034184302243506,0.897338151117984,-0.000206974464602052,0
0.19,0.000637321697615142,0.0003666054198374,-0.0318078301948213,-0.0183451728429691,-0.00026952513163325,0.00068405751477729,0.0134214265144081,-0.034178190979912,0.89733724369536,-0.00018473655576903,0
0.2,0.000637040438530885,0.000366604964747821,-0.0318001573151477,-0.0183451422767901,-0.00026930504531675,0.000683881943809249,0.0134154220091769,-0.0341733917359618,0.897336485285039,-0.000166190600873671,0
0.21,0.000636806152693597,0.000366604817377059,-0.031793780623684,-0.0183451399080965,-0.000269121569906314,0.000683735876522249,0.0134104173652109,-0.034169421281102,0.8973358513066,-0.000150692518938558,0
0.22,0.000636610342122436,0.000366604718660461,-0.0317884499715612,-0.0183451403738431,-0.000268968210305291,0.00068361381589793,0.0134062321669629,-0.0341661040508857,0.89733532133081,-0.000137737494999749,0
0.23,0.000636446895356082,0.000366604638698563,-0.0317840040230831,-0.0183451256019773,-0.000268840196292226,0.000683511931557348,0.0134027509900173,-0.034163325525939,0.897334878294641,-0.000126907749233486,0
0.24,0.000636310049144223,0.000366604572114755,-0.0317802749750607,-0.0183451244995806,-0.000268733016476069,0.00068342662868302,0.0133998241502499,-0.0341610038368014,0.897334507936103,-0.000117854566723942,0
0.25,0.00063619572929828,0.000366604516475373,-0.0317771597121264,-0.0183451248074529,-0.00026864347953106,0.00068335536756724,0.0133973782834965,-0.0341590652492118,0.897334198332223,-0.000110286503755906,0
0.26,0.000642181940158591,0.000369986804867009,-0.032063960922609,-0.0185143788917217,-0.000271213064841049,0.000689732813124818,0.0135159923105958,-0.0344702446706249,0.897334026041904,-0.000137820422852107,0
0.27,0.000626337276891239,0.000360884215990199,-0.0313119748848695,-0.0180588829457232,-0.000264504734750256,0.000672735495621489,0.0132122642350968,-0.0336451942812047,0.897333535771926,-4.36438186117709e-05,0
0.28,0.000625974399777394,0.000360681882599497,-0.0311904590581488,-0.0180487459569284,-0.000264347167250439,0.000672351057691482,0.0131235961227677,-0.0335614837526929,0.897333367419517,-3.79496671202654e-05,0
0.29,0.000634650640348093,0.000365981899067297,-0.0317095717615457,-0.0183139616484422,-0.000267823505672597,0.000681905239419958,0.0133639557130698,-0.0340925625358426,0.897333387794493,-8.39356063829804e-05,0
0.3,0.000627854875827575,0.000362563045555693,-0.0313802251831836,-0.0181428881800569,-0.000264644276862434,0.000674994158365122,0.013213237736684,-0.0337534186798201,0.897334077619703,-6.38024238887644e-05,0
0.31,0.000635064504661117,0.000366179704096648,-0.0317249752238242,-0.0183238705374039,-0.000268024028409985,0.000682317829876709,0.013369835399201,-0.0341099074437629,0.897333958167362,-9.89451600174628e-05,0
0.32,0.000635900556467271,0.000366559791951291,-0.031766388842282,-0.0183428909795402,-0.000268440343469517,0.000683136429118464,0.0133903370970803,-0.0341506073444223,0.897333753774975,-9.87320345745082e-05,0
0.33,0.000635947124190691,0.00036659971120566,-0.0317699941695199,-0.018344890222299,-0.000268451720711982,0.00068319672618453,0.01339190205684,-0.0341544211793954,0.897333569775375,-9.48353500517925e-05,0
0.34,0.000635904283865567,0.000366603882382134,-0.0317691193402086,-0.0183450862109148,-0.0002684155261002,0.000683173309025306,0.0133910906847362,-0.0341540308310964,0.897333414308899,-9.11106070772985e-05,0
0.35,0.000635858008792797,0.000366604300324211,-0.0317678884042184,-0.0183451082101143,-0.000268379004829537,0.000683144809047725,0.0133901103366808,-0.0341532820395814,0.897333284138651,-8.79381639077738e-05,0
0.36,0.000635818020130956,0.000366604327143914,-0.0317667955117171,-0.0183451098256824,-0.00026834765595333,0.000683119918424462,0.013389251334366,-0.0341526031263325,0.897333175295768,-8.5278761126341e-05,0
0.37,0.000635784492519472,0.000366604315661047,-0.0317658755289456,-0.0183451114283907,-0.000268321393551798,0.00068309902280121,0.0133885281076081,-0.0341520318070876,0.897333084304645,-8.30546895020695e-05,0
0.38,0.000635756378218099,0.000366604302498238,-0.0317651003434387,-0.0183451101098135,-0.000268299373799508,0.000683081498120104,0.0133879203958358,-0.0341515483140176,0.897333008239476,-8.11953464384795e-05,0
0.39,0.00063573292053077,0.0003666042911199,-0.0317644527309192,-0.0183451102370169,-0.0002682810013784,0.000683066875798783,0.0133874119280516,-0.0341511453508043,0.89733294465251,-7.96410023722307e-05,0
0.4,0.000635713246341397,0.000366604281568456,-0.0317639062964394,-0.0183451103565883,-0.000268265592377186,0.00068305461186113,0.0133869829087607,-0.0341508053463595,0.897332891496518,-7.83416369212463e-05,0
0.41,0.000635696831781033,0.000366604273579651,-0.031763449282899,-0.0183451104695877,-0.000268252736300612,0.000683044379825016,0.0133866240887229,-0.0341505209915734,0.89733284706054,-7.72554240426049e-05,0
0.42,0.000635683094773068,0.000366604266900741,-0.0317630646504206,-0.0183451105771816,-0.000268241977339049,0.000683035816837838,0.013386322098846,-0.0341502816788056,0.897332809914009,-7.6347397587584e-05,0
0.43,0.000635671686071539,0.000366604261317272,-0.0317627450244588,-0.0183451106800731,-0.000268233041815365,0.000683028705229504,0.0133860711334119,-0.0341500828251433,0.897332778861128,-7.55883272101016e-05,0
0.44,0.000635662081807496,0.000366604256650021,-0.0317624726468653,-0.0183451107793243,-0.000268225519667797,0.000683022718392803,0.0133858572766759,-0.0341499133690996,0.897332752902428,-7.4953777596637e-05,0
0.45,0.000635654049150296,0.000366604252748255,-0.0317622429185933,-0.018345110875405,-0.000268219228423324,0.000683017711218582,0.0133856769048706,-0.0341497704538266,0.897332731201873,-7.44233218933181e-05,0
0.46,0.000635647355269297,0.000366604249486369,-0.031762050100783,-0.018345110968785,-0.000268213985687484,0.000683013538580276,0.0133855255079853,-0.0341496505097308,0.897332713061308,-7.39798841403034e-05,0
0.47,0.000635641767333854,0.0003666042467597,-0.0317618874782499,-0.0183451110599322,-0.000268209609130727,0.000683010055337032,0.0133853978167484,-0.0341495493567579,0.897332697896676,-7.36091895866235e-05,0
0.48,0.000635637110720984,0.000366604244480308,-0.0317617504321664,-0.0183451111492022,-0.000268205961977411,0.000683007152639319,0.0133852902038778,-0.0341494641209753,0.897332685219609,-7.32993051639282e-05,0
0.49,0.000635633152600045,0.000366604242574929,-0.031761630764504,-0.0183451112370646,-0.000268202861998759,0.000683004685323523,0.0133851962470282,-0.0341493896951249,0.897332674622183,-7.304025534999e-05,0
0.5,0.000635629892971037,0.000366604240981931,-0.0317615313528133,-0.018345111323519,-0.000268200309000061,0.000683002653433046,0.0133851181838271,-0.0341493278784961,0.897332665763084,-7.28237010430303e-05,0
0.51,4.7152851709885,-0.0211929800393189,4.23664924616511,1.07036238581161,-0.765322327499393,4.65281045403506,0.388106634072331,4.35249878949791,0.158531733627813,49.0926503105421,853.703381739674
0.52,4.69175857447223,0.0199383434644604,5.41407526264243,-0.975255163834683,-3.09018918152094,3.53040038537908,-4.31429113293529,3.41324268173519,0.723254279893179,105.185801554888,853.703381739674
0.53,4.67910252664652,0.0285475638476109,6.04813752514906,-1.39211360209201,-4.63855491711285,-0.61532406031271,-5.79916858960228,-2.21078978503524,1.70878158708309,164.805826550337,853.703381739674
0.54,4.30504733468028,0.00138797204333674,8.79980210155745,-0.0350805940359961,-0.00728952292446649,-4.30504138692762,0.0230173972373993,-8.79984192324369,3.14022180825991,223.513961613662,853.703381739674
0.55,3.98004950444319,0.0673071331373587,8.72767870516466,-3.31558814473892,3.87220592542834,0.922683899863477,7.63159941219973,5.37812148782739,-1.31996520015742,273.63129327496,853.703381739674
0.56,3.65525898723974,0.0127966839860922,8.66056711620876,-0.597047603452634,-2.79227695205504,2.35887079805999,-7.01904562596145,5.10831548710693,0.872839126491251,322.95747153821,853.703381739674
0.57,3.32243804547923,0.00928649779116664,11.0378059844102,-0.428057624039727,0.837355177645905,-3.21520094419597,3.22563239965988,-10.56464338732,-2.88402084600916,367.008027714749,853.703381739674
0.58,3.08693503501358,0.0310844621457923,9.68334837899102,-1.49226032589946,0.169690092004965,3.08242427755436,-1.05586685453085,9.74059658823137,-0.0449259993517017,406.684650214481,853.703381739674
0.59,2.82122789915163,0.0214746474268998,10.5917381665183,-1.01608642460349,-0.197323117236913,-2.81440075448354,0.353764880817202,-10.6344816243879,3.07920691326579,444.181948232975,853.703381739674
0.6,2.63885045909515,-0.00462004412554484,8.34675945038404,0.284880454973819,-0.482353441446926,2.59439554574832,-1.23115436506285,8.26037584650893,0.182071672113625,478.743531005826,853.703381739674
0.61,2.41214899062208,0.0351928538655351,9.29712284151453,-1.71120587870156,1.46602854308408,-1.91584487910297,7.1006713666785,-6.24060772937589,-2.47383759276032,510.359272470896,853.703381739674
0.62,2.17811210431228,0.0581259596048883,11.5078582245507,-2.85966200467623,-2.12514524220631,0.480945595321913,-11.8443677742533,-0.565172297249367,1.37491364087555,539.236733605266,853.703381739674
0.63,2.04112189622317,0.00647823241740908,9.63317920479929,-0.270234045566655,1.54579474708732,1.33294379574466,7.09829501277987,6.51808069470648,-0.856028980959652,565.826057770399,853.703381739674
0.64,1.86693420831479,0.00686062629143308,10.3055131327978,-0.283910431815372,0.440968933634372,-1.81412149701679,2.74655209156762,-9.93683338251513,-2.89946668673475,590.313669792693,853.703381739674
0.65,1.67303524369833,0.0136876157557652,12.5794700164181,-0.62550567154003,-1.66945911854331,0.110184068696025,-12.5946047864288,0.101259630435934,1.51307317309548,612.995410369439,853.703381739674
0.66,1.51935039795837,0.000368011618734565,13.3934450510237,-0.00317385942749107,0.300752246665389,1.48928635706318,2.64491326707971,13.1296920838914,-0.199021746113175,633.914204746824,853.703381739674
0.67,1.42208391015444,0.0422537730287808,11.942821704314,-2.08867354658433,1.38705682585248,-0.316514439972871,12.1212854603013,-0.260741701924316,-1.76544247171113,652.902633221082,853.703381739674
0.68,1.3028799077675,0.00123227627852152,12.1861266870432,-0.0140741107386414,-0.0747406608664823,-1.30073494847425,-0.673507002917195,-12.1675087848861,3.08514124547604,670.265948724225,853.703381739674
0.69,1.20620861238122,0.0263812290535879,11.7272550359032,-1.2930348050357,-1.1863442634431,-0.219596162135533,-11.2188462737883,-3.65211417801488,1.77569562384811,686.482363481918,853.703381739674
0.7,1.09976915853352,0.00401260952636667,12.1044965297275,-0.185364931444507,-0.599126808196661,0.922255588650359,-6.78625004484189,10.0249691632881,0.579765103989529,701.333871505965,853.703381739674
0.71,1.02716435058813,0.0315828068185139,11.2754250507516,-1.53447011892258,0.530930319090015,0.879873327858417,4.18838860386595,10.5805108347371,-0.512190157646663,714.854383427248,853.703381739674
0.72,0.892621174212494,0.0410193409701787,13.8343843395547,-2.05439268676032,0.89343364863247,0.0152138909353129,13.6777486139499,2.92060134553195,-1.50784790968789,727.560607543558,853.703381739674
0.73,0.863068815753125,0.0332423273413967,11.480176388936,-1.63427628338186,0.54847830761226,-0.667206399198453,8.84772595278832,-7.49553562834999,-2.41505190305571,739.04491412707,853.703381739674
0.74,0.777912586455607,0.0194604217046541,12.2564205685127,-0.968132318798954,-0.0968792582225756,-0.772101748155785,-0.257986451335765,-12.2918903481072,3.04178124986508,749.682292777444,853.703381739674
0.75,0.731837735696119,-0.0185555650831037,11.3274500466029,0.946727927112822,-0.538368268369832,-0.496074982232368,-9.14579364745969,-6.74995384312703,2.28998285504643,759.360937358892,853.703381739674
0.76,0.620886412259529,0.0230986447023905,13.9512978192487,-1.13134587931266,-0.621314876778959,0.00114376953284893,-13.9026057256808,-1.62364047014079,1.60614098426897,768.253757485649,853.703381739674
0.77,0.619260071799105,0.00567434708531086,11.2782389353355,-0.269711859065571,-0.512954919111913,0.346976203360357,-9.54833944766937,6.00838012791461,0.985230298694197,776.470137072309,853.703381739674
0.78,0.536989155561132,-0.000688654373804148,12.9095637401545,0.0413490203331787,-0.220488370866338,0.489635278291722,-5.24785301807605,11.7948541493002,0.421830460287636,784.038974816971,853.703381739674
0.79,0.48816215409443,-0.00542527956073261,13.0233457033247,0.287547051462344,0.0376416273454679,0.486738975467561,1.43481582437812,12.9472591757957,-0.0882939274268777,790.968940277701,853.703381739674
0.8,0.432739108780955,-0.0296733319507417,13.7063476728727,1.46787025629659,0.200864241299985,0.384444013433134,8.41479778956452,10.9183234875929,-0.549933093953521,797.304728899413,853.703381739674
0.81,0.415282082852616,0.000220191324869362,12.6433400222926,0.0134468936322133,0.342036199138154,0.235521751228527,10.4171827295486,7.16495162003538,-0.967240871340102,803.072218666529,853.703381739674
0.82,0.411521791719786,0.00772092044651532,11.0357032678525,-0.401981885789261,0.402690359839996,0.0851485276721752,10.6617236035003,2.87680132354636,-1.34365693778179,808.487209040318,853.703381739674
0.83,0.331017896559039,-0.0107150452816102,13.4314269799344,0.568337160154993,0.330155131073607,-0.0261772699784919,13.2848228672734,-2.05905785010799,-1.6822772785402,813.352782414678,853.703381739674
0.84,0.312758254975728,-0.0109287806942795,12.82050329534,0.541246434570263,0.290536418975471,-0.116300273223391,11.5101174265264,-5.67234072287016,-1.98648598940938,817.889283223743,853.703381739674
0.85,0.240612206773966,0.0548948869298543,15.0452268844285,-2.73801591856593,0.150983068134893,-0.195222426468512,13.3599445256818,-7.44093175919226,-2.25898172603556,822.025096938496,853.703381739674
0.86,0.257154404427159,0.0444333862405393,12.9500177083654,-2.20946146879557,0.117705484707722,-0.23291228477435,9.49708122460316,-9.07690072890301,-2.50256374133228,825.805252568238,853.703381739674
0.87,0.235985645551812,0.0158820911367813,12.8202994653178,-0.817545825045035,-0.122057951722893,-0.20259151548521,-5.13669062493021,-11.7746706527287,2.66654914307035,829.334589385353,853.703381739674
0.88,0.184466087007654,-0.00307783762830426,14.3245233055139,0.182588044567398,-0.111717162905091,-0.146821271799487,-9.00648613559243,-11.1404000742169,2.47446470152698,832.512412832275,853.703381739674
0.89,0.215361866266773,-0.0338764988752739,11.7648432075385,1.69257165052573,-0.137191044298279,-0.169431307562391,-9.86825523017735,-6.62524514280079,2.30493413170918,835.519659620651,853.703381739674
0.9,0.18980159053496,0.00257179360359736,12.1271905773854,-0.155270628229221,-0.159608398197723,-0.102744426207445,-10.02141259475,-6.83111629779513,2.15629897943141,838.215839905297,853.703381739674
0.91,0.154310171941904,0.0407680981891217,13.0565161096168,-2.01821859125448,-0.156495156994472,-0.0313517596312156,-10.8335691635421,-7.56171927418085,2.0268099820759,840.703894706905,853.703381739674
0.92,0.116454273482699,0.00865247910575716,14.1741701348738,-0.449053078846257,-0.112555628488811,-0.0311077755962648,-13.1932987648314,-5.20053991253484,1.91460527882657,842.952749860317,853.703381739674
0.93,0.0989874035327053,-0.0147699886347086,14.3427295485335,0.733347587893593,-0.0923556137736189,-0.0385629255492136,-14.0855454924527,-2.80162413023049,1.81822037440991,845.019773132148,853.703381739674
0.94,0.105800992756851,0.0347708240327035,13.3570444080645,-1.72525590861613,-0.110084021044144,0.0168632316891187,-12.8902272992663,-3.90245864071249,1.73631674721085,846.900342662039,853.703381739674
0.95,0.137933924661508,0.012929154956525,11.1549235107798,-0.667504160828022,-0.138537796167999,-0.000457879165757232,-11.0382471536158,-1.74211943097028,1.66756272588347,848.639659068353,853.703381739674
0.96,0.0505620462730576,0.053318968146136,14.9587835542454,-2.64779711988057,-0.0526727754781459,0.0512348671406135,-14.8397317786782,-3.24936851521937,1.61116677373374,850.257478403185,853.703381739674
0.97,0.0751870300545713,0.0154666474320227,13.2193223777313,-0.76348989100292,-0.0751127846119856,0.0158232821831298,-13.2227967527177,-0.70074744121512,1.56605069111222,851.724372322241,853.703381739674
