t,iq,id,vq,vd,ia,ib,va,vb,theta_e,omega,r
0,0,0,0,0,0,0,0,0,0,0,0
0.01,0.00112771348569591,0.00059574218389073,-0.0530674084853507,-0.0298212586445573,-0.000623161333882053,0.00111279666041989,0.0283535909316858,-0.0538658629539644,0.996495494043769,-0.00600296385944954,0
0.02,0.00123341927264783,0.000662932229361675,-0.0593130621683289,-0.0331846240569583,-0.000675360289386809,0.00122665835601642,0.0317677841057969,-0.0600838290273946,0.996456488774789,-0.0048544573622885,0
0.03,0.00126023548373543,0.000689641135126468,-0.061244453937651,-0.0345215996678775,-0.000683326060119047,0.00126367078991586,0.0326610917979501,-0.0622565423414771,0.996426909935061,-0.00361641502432708,0
0.04,0.00120918641524335,0.000674610802916438,-0.0593944390320739,-0.0337692153049872,-0.000648611772843204,0.00122332918315138,0.0315155808666327,-0.0606203551036123,0.996408218025579,-0.00236612935024817,0
0.05,0.00122710631090406,0.000690196974095012,-0.0605401073848302,-0.034549431954465,-0.000655170460194565,0.00124615947189713,0.0320526346907638,-0.0618982750965116,0.996394404051219,-0.00182507120718481,0
0.06,0.00121906508172367,0.000690947174037334,-0.0604116770431914,-0.0345869715262845,-0.00064800012606833,0.00124242645955547,0.0319238225172832,-0.0618603174774902,0.996384766416408,-0.00130621389359271,0
0.07,0.00124591626458636,0.000709086940991999,-0.061771446232659,-0.0354949949892921,-0.000660678245343913,0.00127224835797713,0.0325716156215273,-0.0633616295147752,0.996378715262734,-0.00119996757326458,0
0.08,0.00120984294478882,0.000691856571320583,-0.0602610798574222,-0.0346324978500195,-0.000639750390198343,0.00123818613486657,0.0317719826943861,-0.0618170588800684,0.996373841576106,-0.000717323502990523,0
0.09,0.00120455053885501,0.000691023811090917,-0.0600909364250274,-0.0345908221570962,-0.000635756370663935,0.0012346131966372,0.0316516162243399,-0.0616897139588736,0.996371013100987,-0.000544868837351208,0
0.1,0.00120238507664061,0.000690983123550297,-0.0600382321577923,-0.0345887807132004,-0.000633958277765822,0.00123340360450729,0.0316083657443432,-0.0616594217198853,0.996369160608935,-0.000440871535147749,0
0.11,0.00120104220647099,0.000690980843219608,-0.0600075339483052,-0.0345886556657962,-0.000632830655131011,0.0012326728152059,0.0315825865581989,-0.0616426756202056,0.996367929789857,-0.00037243387684318,0
0.12,0.00120015535454561,0.000690980522946267,-0.0599873992338832,-0.0345886515667557,-0.000632085305037302,0.00123219118861137,0.0315656351514482,-0.0616317577352568,0.996367110725549,-0.000326939060598719,0
0.13,0.00126151314095745,0.000723658500154881,-0.0628047521062027,-0.0362244223289896,-0.000665837085338379,0.0012929648121441,0.0330418812788208,-0.0645358794915424,0.99636519711403,-0.000657151229456591,0
0.14,0.00131277934290254,0.0007553614862546,-0.0657046417672442,-0.0378113763214187,-0.000691647410387673,0.00134743624627379,0.0346139759127843,-0.0674438492420993,0.996363949519237,-0.000949947542456733,0
0.15,0.0012040104109878,0.000694088324722814,-0.0602640335171065,-0.0347442184478222,-0.000633627780480605,0.00123689753338211,0.0317130812791336,-0.061912800995303,0.996362896504867,-0.000150785694102337,0
0.16,0.00119701932558824,0.000691129690371378,-0.0599300055836961,-0.0345961089057424,-0.000629367287373471,0.00123061461568142,0.0315131876675967,-0.0616069421713711,0.996363647169849,-0.000138777477238131,0
0.17,0.00119710758232735,0.000690986976165425,-0.0599192234889258,-0.0345889841092125,-0.000629519668279797,0.00123054238128752,0.0315080446681748,-0.0615950832973826,0.996364252040854,-0.000168477541852305,0
0.18,0.00119751026266773,0.000690980190128422,-0.0599273824866001,-0.0345886400318446,-0.000629861910975041,0.0012307552256429,0.0315151063819539,-0.0615992147732576,0.996364662267561,-0.00019097831801966,0
0.19,0.00119780328001946,0.000690979932775836,-0.0599339173441884,-0.0345886221010284,-0.000630108376015723,0.00123091405045158,0.0315206190001976,-0.061602741861967,0.9963649358641,-0.000206152755367087,0
0.2,0.00119800013832854,0.000690979967167448,-0.0599383371688504,-0.0345886218117312,-0.000630273844376556,0.00123102092896779,0.0315243408273393,-0.0616051374221624,0.996365118007592,-0.000216267092794114,0
0.21,0.00119813122198082,0.000690979999987474,-0.0599412696996434,-0.0345886216457074,-0.000630384020719019,0.0012310921053642,0.0315268102505234,-0.0616067268728244,0.996365239244166,-0.000223000149650244,0
0.22,0.00119821853347213,0.000690980022310491,-0.0599432132653566,-0.0345886215617739,-0.000630457406068382,0.00123113951456439,0.0315284468939535,-0.0616077803087791,0.996365319938098,-0.000227481689578481,0
0.23,0.00119827650830236,0.00069098003719087,-0.059944488523078,-0.034588621532862,-0.000630506134071783,0.00123117099423413,0.0315295207995352,-0.0616084715115435,0.996365373647732,-0.000230464569283737,0
0.24,0.0011983152746045,0.000690980047095834,-0.0599453348374014,-0.034588621539965,-0.000630538717077273,0.00123119204395641,0.0315302334803681,-0.0616089302412935,0.996365409396364,-0.000232449948626171,0
0.25,0.00119834100239061,0.000690980053688741,-0.0599458829987343,-0.034588621571504,-0.000630560341309586,0.00123120601386355,0.0315306951115225,-0.0616092273648912,0.996365433190625,-0.000233771399977138,0
0.26,0.00121206418706051,0.000697984144914533,-0.0605625329233357,-0.0349392273607544,-0.000638275410360663,0.00124454247040254,0.0318578773748019,-0.0622386186529609,0.996365558087986,-0.000334217194875277,0
0.27,0.00117193150473516,0.000675917189629285,-0.0587647158278237,-0.0338346233262213,-0.000616573468356697,0.00120421121782923,0.0309487650547971,-0.0603344636467013,0.996364959858973,-2.9263522494232e-05,0
0.28,0.00117031663842514,0.000674069131390992,-0.0581683057140533,-0.0337421114658205,-0.00061622201709068,0.0012017822821633,0.03049834867591,-0.0599327339928527,0.996365022227697,-2.11503729372051e-05,0
0.29,0.00119646517165356,0.00069016346906541,-0.0598582535592062,-0.0345477459565432,-0.000629429415825248,0.0012295011718198,0.0314793471372107,-0.0615272945419433,0.996365547449829,-0.00022635655378279,0
0.3,0.00118811422000371,0.000686086790527927,-0.0594343362329576,-0.034343680870943,-0.000624636218678535,0.00122154004364446,0.0312344655641302,-0.0611255830249544,0.996367470683463,-0.000261385380073529,0
0.31,0.00119910493033624,0.000690744158405762,-0.0599427580836714,-0.034576822190999,-0.000631331731397667,0.0012314220930529,0.0315345778544418,-0.0615975752692236,0.996366972812249,-0.000313075924062692,0
0.32,0.00119941413776756,0.000690968933298672,-0.0599685454185532,-0.0345880812273799,-0.000631468579351104,0.00123177910923708,0.0315500787224045,-0.0616210543176518,0.99636648594508,-0.000291788567755519,0
0.33,0.00119911237029503,0.000690979701325532,-0.0599630526156176,-0.0345885974828046,-0.000631208981011117,0.00123162439344526,0.0315451663290956,-0.0616185137444948,0.996366150618096,-0.000273582274748118,0
0.34,0.00119887441739484,0.000690980163762394,-0.0599577284443259,-0.0345886212900796,-0.000631008691929316,0.00123149562975537,0.0315406699381197,-0.0616156478729768,0.996365926610194,-0.000261171601474341,0
0.35,0.00119871341500705,0.000690980147775743,-0.0599540565138895,-0.0345886245820481,-0.000630873355126726,0.00123140822870777,0.0315375763665991,-0.0616136601726391,0.996365777453283,-0.000252889942640506,0
0.36,0.0011986060800804,0.000690980121496767,-0.0599515934804391,-0.0345886248630918,-0.000630783139284952,0.00123134994810704,0.031535502375756,-0.0616123252334483,0.996365678171369,-0.000247376203547046,0
0.37,0.00119853448465753,0.000690980103249633,-0.0599499350509769,-0.0345886250771227,-0.000630722963346856,0.0012313110725999,0.0315341059335883,-0.0616114263778347,0.996365612090204,-0.000243706194934279,0
0.38,0.00119848698720626,0.000690980091067866,-0.0599488275965201,-0.0345886252459802,-0.000630683041616404,0.00123128528204165,0.0315331734220512,-0.0616108261634187,0.996365568107388,-0.000241263460841532,0
0.39,0.00119845532223656,0.000690980082957581,-0.0599480764908303,-0.0345886224747569,-0.000630656427180977,0.00123126808831242,0.0315325425696524,-0.0616104166415449,0.996365538832645,-0.000239637597561478,0
0.4,0.001198434134648,0.000690980077559509,-0.0599475595582568,-0.0345886225942626,-0.000630638619106215,0.0012312565836435,0.0315321073384736,-0.0616101364773205,0.996365519347897,-0.00023855543697653,0
0.41,0.00119842016480939,0.000690980073966264,-0.0599472106969117,-0.0345886227002431,-0.00063062687738733,0.00123124899819529,0.0315318136121828,-0.0616099474189539,0.996365506379071,-0.000237835160243454,0
0.42,0.00119841085158365,0.000690980071574652,-0.059946966319535,-0.0345886227974929,-0.000630619049590368,0.00123124394122388,0.0315316078723276,-0.0616098149885915,0.996365497747505,-0.000237355750275451,0
0.43,0.00119840456515628,0.000690980069982993,-0.0599467878653707,-0.0345886228890683,-0.000630613765914826,0.00123124052773609,0.0315314576560255,-0.0616097182822987,0.996365492002154,-0.000237036659149046,0
0.44,0.0011984003742047,0.00069098006892355,-0.0599466573032954,-0.0345886229767133,-0.000630610243471491,0.00123123825207487,0.0315313477657354,-0.0616096475346208,0.996365488178344,-0.000236824274849691,0
0.45,0.0011983976966523,0.000690980068218472,-0.0599465645740526,-0.0345886230615222,-0.000630607992911679,0.00123123679822065,0.0315312697165188,-0.0616095973009666,0.996365485633635,-0.000236682913695851,0
0.46,0.00119839595042247,0.000690980067749171,-0.0599464932387446,-0.0345886231445804,-0.000630606525118366,0.00123123585006844,0.0315312096809252,-0.0616095586635563,0.996365483939882,-0.000236588824936865,0
0.47,0.00119839466985393,0.00069098006743687,-0.0599464283908042,-0.0345886232267659,-0.000630605448860606,0.00123123515471119,0.0315311551268598,-0.0616095235325099,0.996365482812565,-0.00023652620026934,0
0.48,0.00119839385494668,0.000690980067228946,-0.059946375682739,-0.0345886233080788,-0.000630604763933751,0.00123123471222417,0.0315311107879413,-0.0616094949851306,0.996365482062248,-0.000236484517830813,0
0.49,0.00119839338928539,0.000690980067090563,-0.059946332994949,-0.0345886233887372,-0.000630604372470952,0.0012312344594024,0.0315310748768917,-0.061609471873869,0.996365481563116,-0.000236456774362901,0
0.5,0.0011983929236241,0.000690980066998833,-0.0599462853618344,-0.0345886234693958,-0.000630603981188762,0.00123123420651431,0.0315310348245396,-0.0616094460702561,0.996365481231261,-0.000236438308551167,0
0.51,4.63133302883956,0.0394922576343989,8.43459717150254,-1.96262960285637,-1.2575373566283,4.45751108345426,-4.24357062832361,7.54893719181422,0.283497221655277,86.8045205011864,3694.32556057257
0.52,4.5988435222482,-0.00685067539805306,10.0607169831071,0.380121384720045,-4.40762315970526,1.31235161291,-9.52907721925219,3.24949316522287,1.27991916737226,185.687710007069,3694.32556057257
0.53,4.58224317549683,-0.00475520698347065,10.8929067142096,0.265924258947779,-0.509172004354668,-4.55386857532825,-1.4858828838475,-10.7943635500875,3.02920651483528,292.562009642662,3694.32556057257
0.54,4.46037276568263,-0.00684096909861132,16.9888120557343,0.413784954527497,3.02485924970864,3.27798696262716,11.8439685162538,12.1865238209937,-0.74679259626359,390.236908882123,3694.32556057257
0.55,4.39383489433371,0.0635985802704317,20.3184985577396,-3.12552333111873,-2.71006309897788,-3.45910217507887,-9.81009800239209,-18.0657758459939,2.49149316560543,492.701274714733,3694.32556057257
0.56,4.28340550910392,0.0301140620663805,25.8430063593512,-1.45372362026956,-0.729492451302828,4.22093714424275,-6.01075804987837,25.1762800611889,0.178166873962416,592.601247944861,3694.32556057257
0.57,4.33362495191159,-0.0480859036376953,23.3353691615344,2.47148402603436,4.26687282049865,0.759219211854705,23.4243905454076,1.39485295721577,-1.40580139048617,691.389403605815,3694.32556057257
0.58,4.26366140188772,0.00600514409525532,26.837084632296,-0.207666028013957,3.27113878465793,-2.73468383240356,20.7469487046374,-17.0245809401393,-2.26569998899942,789.361515781706,3694.32556057257
0.59,4.1778731354322,0.114630614045927,31.1303507821341,-5.58129986620981,2.71465044704986,-3.17780381140413,25.0041655077411,-19.3659844902541,-2.40720364395075,886.040785120954,3694.32556057257
0.6,4.11496792282121,0.104901977543244,34.2796267176301,-5.17240999240044,3.94685743009036,-1.16888060009589,34.4478124062868,-3.89805765103803,-1.83323439084839,984.865729150139,3694.32556057257
0.61,4.09203215210622,0.118911490122478,35.4305634183853,-5.75386336245502,2.22445195340882,3.4366670748459,13.4609591940507,33.2751310337634,-0.545402662845594,1080.7574044376,3694.32556057257
0.62,4.08443161584413,0.0267190648310076,35.8149778308583,-1.15975647940138,-4.05271549678167,0.508716655003753,-35.7014431977285,3.07646318290172,1.45246614544654,1177.64588495095,3694.32556057257
0.63,4.0965040236767,0.0275424545777603,35.2158393629242,-1.20562607111109,3.46415714977688,-2.1867142118835,30.5415480900405,-17.5733524554187,-2.12714687904348,1273.90562526391,3694.32556057257
0.64,4.08731952775269,0.0915638296915965,35.6795080778745,-4.37563379321916,-3.88892886458197,1.2612680694751,-35.4335278012003,6.05298069822133,1.27957528678927,1369.55089764266,3694.32556057257
0.65,3.88270905073592,0.186264520514781,45.9143844812875,-9.06536435284097,3.14924725216876,2.27867632387243,30.2057453887376,35.7480695794334,-0.896495126862909,1464.63715724153,3694.32556057257
0.66,3.89308176663713,0.0717892764520806,45.3998379129524,-3.48029217818455,2.6499826673578,-2.85286368490316,34.0118356948469,-30.2729705981197,-2.37460804841021,1560.46346321675,3694.32556057257
0.67,3.90603629608252,0.178792967774346,44.7561092817311,-8.67186979166487,-0.243836183731815,-3.90251590479049,7.92510463730792,-44.8943577770032,3.12493355725163,1654.28353129829,3694.32556057257
0.68,3.82038060893567,0.146785322837183,48,-7.16950490454587,-0.559790234957971,-3.78199534914809,1.92738363428678,-48.4941954557717,3.03304781619004,1748.78823316687,3694.32556057257
0.69,3.80504010097509,0.0792603302714574,48,-3.83535737289054,1.70800590305454,-3.4010775064844,25.8210511919443,-40.6445971996375,-2.65536282628358,1842.37416438417,3694.32556057257
0.7,3.78151891326363,0.0212328340152286,48,-0.931532922893392,3.71548541757298,0.703920617977188,46.9316253154805,10.1138666608665,-1.37794474246467,1935.12962566221,3694.32556057257
0.71,3.74951478915714,0.0878593274167507,48,-4.23228203535483,-1.97451588787465,3.18870936650753,-29.7642970240716,37.8945752567519,0.577860750353382,2027.42888245274,3694.32556057257
0.72,3.77508490257032,0.173936664626821,48,-8.41931440951064,0.0794467563230182,-3.77825464967961,11.617171293993,-47.3278584583353,-3.07452604364877,2118.99721984461,3694.32556057257
0.73,3.64395259740619,0.18366387136296,48,-8.90871328989415,-0.646070404688368,3.59092132773376,-19.5442752445734,44.7368581557298,0.228373007376806,2210.55034581777,3694.32556057257
0.74,3.77474093424398,0.0142917995771297,48,-0.426621876788892,0.224792414133408,-3.76806870249739,3.46562050632234,-47.8766277084332,-3.07821993060854,2301.88187346121,3694.32556057257
0.75,3.5811372876353,-0.115815595105789,48,5.94650114676734,-3.58192657967701,-0.0880880398521639,-47.9525255470121,6.31792446549142,1.56305455113037,2393.11648692353,3694.32556057257
0.76,3.52945196768156,0.0627081788881718,48,-3.00018326737201,-1.90371090018592,2.97268368925858,-29.0974330766449,38.2928255419731,0.587363171414884,2483.79022317529,3694.32556057257
0.77,3.51312798446556,-0.0513373629261581,48,2.7256380459691,-1.00723438876101,3.36603366681982,-10.4646557380057,46.9246212882178,0.276142655555094,2574.13041924296,3694.32556057257
0.78,3.46349069621967,-0.122726496495265,48,6.28328015858323,-2.12809940846675,2.73532859149055,-23.0217547458223,42.584955300839,0.625765232350595,2664.19124393906,3694.32556057257
0.79,3.67044285646392,-0.0936891391596024,48,4.95334341522887,-3.6576812357853,-0.31983807582522,-48.2140935035391,1.98413674457692,1.63249757057768,2753.59186370456,3694.32556057257
0.8,3.5750405482886,0.0366793953626694,48,-1.37394988885552,0.506755402971916,-3.53913255777607,8.64867929850052,-47.234395144733,-2.98911351590178,2842.49884768243,3694.32556057257
0.81,3.7570198582169,0.436546454674291,48,-21.6009938995938,2.68996811113689,2.65891755855488,13.1578858672498,50.965409612351,-0.675527003066703,2931.46937261009,3694.32556057257
0.82,3.43013841026386,0.0202278096011521,48,-0.835430982277626,-2.60136661928659,-2.2358779908372,-35.6684492513873,-32.1319105085173,2.28667760271206,3019.62637651115,3694.32556057257
0.83,3.60600640292803,-0.0376862050278824,48,2.39876895680546,1.32837659382769,3.35262852892743,20.3673421480453,43.5307416239672,-0.387693602831612,3107.6727324891,3694.32556057257
0.84,3.41834092301125,0.278164270243233,48,-13.4256929376679,-1.18907769071803,-3.21691222643858,-0.00647163031293729,-49.8422430170889,2.86873052408393,3195.33339444528,3694.32556057257
0.85,3.0604775439658,0.0505906698078968,48,-2.05191860393884,-3.04201243856313,0.339473911542152,-47.9791860919792,2.49160027059376,1.47618978353841,3280.13320696292,3694.32556057257
0.86,2.31152184748503,-0.0435198754626231,48,2.21940927554851,-1.43912075876392,1.80940837641912,-27.4036792605032,39.4710544642508,0.653076635468978,3349.84691838263,3694.32556057257
0.87,2.07512189730246,0.510744022644516,48,-25.4149612923221,-0.0969689914642196,2.13485066457251,-37.9522478037254,38.8528910653358,0.286721112769329,3405.23542168205,3694.32556057257
0.88,1.45852280164794,-0.116922244447194,48,6.17113688006993,-0.51872372780535,1.3681685818587,-7.44901200299434,47.8183557911792,0.282399166616686,3449.13868262653,3694.32556057257
0.89,0.978233346039159,-0.267354623935807,48,13.315317082036,-0.750535823529862,0.681993366420214,-14.5216955946906,47.6489037234888,0.566420532486276,3484.28664229224,3694.32556057257
0.9,0.675847966031326,0.256813533833598,48,-12.6359001843112,-0.475794180401772,0.544374468766296,-48.3057761719801,11.4113085091252,1.08141046341658,3512.44522222109,3694.32556057257
0.91,0.774273080799123,0.528887343340337,48,-26.5455797302273,-0.868020109262326,0.354628982899007,-41.3605920913674,-36.02733996655,1.78221871270482,3535.10830111095,3694.32556057257
0.92,0.4607912051335,-0.195945229775426,48,10.0255361406143,-0.447028060851954,-0.225585860840324,-48.5517462037232,6.87308631373207,1.63607386857991,3553.3126260393,3694.32556057257
0.93,0.378539569730315,-0.337299800900669,48,16.8941178209821,0.0965821175492911,-0.497730103679633,-39.044650332972,-32.6332115692767,2.60540449872874,3567.80052691204,3694.32556057257
0.94,-0.010809722702243,-0.141918780133436,48,6.87388488661789,0.117182809865774,0.0807835337889089,18.224348387746,-44.9346572177482,-2.61405112775988,3579.07271744453,3694.32556057257
0.95,0.0206885226503953,0.249053247557842,48,-12.3310688109297,0.0441280986190387,-0.245984239334214,46.6201378038669,16.8112465084641,-1.47616881500905,3588.24769942528,3694.32556057257
0.96,0.138845490253493,0.45990674820601,48,-23.1156812753279,0.480350274982206,0.00747666594665561,-9.07458724984849,52.4974912454627,-0.277634517280266,3595.75099152012,3694.32556057257
0.97,-0.23802281815918,0.0050740047249954,48,-0.505925014243099,0.199406339775639,-0.13006813270617,-39.9207605773042,26.6568721917931,0.971508120690801,3601.96907230227,3694.32556057257
0.98,0.0007988864480101,-0.316846794149124,48,15.9862848845596,0.20121616553237,-0.244754129506703,-47.1846819065651,-18.2528654678263,2.26139897831125,3607.02778954668,3694.32556057257
0.99,-0.104520280548392,-0.406313948343728,48,20.2216367835813,0.400480515111625,-0.125023480516708,-42.4608994903567,-30.1659842981613,2.58721471654497,3610.8800874891,3694.32556057257
1,-0.299310516268517,-0.0626102406221478,48,2.86955508064988,-0.169767470620025,0.25433409779062,32.2483159857471,-35.6690406717687,-2.34680662293029,3614.20984606981,3694.32556057257
