t,iq,id,vq,vd,ia,ib,va,vb,theta_e,omega,r
0,0,0,0,0,0,0,0,0,0,0,0
0.01,0.000555137817734533,0.000304992687571732,-0.0269448134234212,-0.0152608383189431,-0.000227223659490555,-0.000591242712191033,0.0114819601733153,0.0287590115824293,-3.00612270413071,-0.00156741599133231,0
0.02,0.000651620289144405,0.000355595469450239,-0.0317789480981132,-0.0177928394137984,-0.000264340461021165,-0.00069367229999856,0.0133382837837666,0.0338906603997547,-3.00613449285903,-0.0016302541213687,0
0.03,0.000684927166705657,0.00037505835516476,-0.0334868810425066,-0.0187666942676926,-0.000279135409599642,-0.00072929926407338,0.0140729753647993,0.0357143021781721,-3.0061458119128,-0.00150560860467417,0
0.04,0.000666229015468688,0.000367265738342244,-0.0326800029302809,-0.0183767781749309,-0.000273945859193672,-0.000709717471845728,0.0137959209955553,0.0348620299394367,-3.00615542941531,-0.0012531738872421,0
0.05,0.000678979847535715,0.000376516266057302,-0.0333730540758157,-0.0188396445299328,-0.000281396130021585,-0.000723598196497359,0.0141612714883308,0.0356111125099362,-3.00616388488291,-0.00112224489109684,0
0.06,0.000677551496655991,0.000377673619838032,-0.0333744449883505,-0.0188975547492231,-0.000282741053248952,-0.000722337103124302,0.0142187258884506,0.0356202047704589,-3.0061712466542,-0.000969186573070976,0
0.07,0.000687652524155835,0.000385346190810998,-0.0339183073748619,-0.0192814621513704,-0.00028898417741138,-0.000733379728351081,0.0145259157828367,0.0362108288850211,-3.00617740640133,-0.000876337762776677,0
0.08,0.00067360226097952,0.000378777181282826,-0.0332956032004091,-0.0189527741990004,-0.000284376071199621,-0.000718569696818863,0.0142844987291184,0.0355493732486974,-3.00618291178714,-0.000721400856390358,0
0.09,0.000669495766319464,0.000377952849303853,-0.0331419347594796,-0.0189115315322404,-0.000284116924607949,-0.000714388207187037,0.0142645406566727,0.0353914784143112,-3.00618750017803,-0.000615976950820377,0
0.1,0.000667153975124659,0.00037784856631445,-0.033066446275588,-0.0189063092993003,-0.000284332491295445,-0.000712052666580391,0.0142696940624186,0.0353159203756908,-3.006191394008,-0.000530074599477763,0
0.11,0.000665329006961405,0.000377834658797171,-0.033010281174383,-0.0189056160001392,-0.000284567414075706,-0.000710241581251682,0.0142767056016997,0.0352601284274312,-3.00619470889119,-0.00045747045641796,0
0.12,0.000663799443062177,0.000377832199738583,-0.0329636351531481,-0.0189054869680817,-0.000284773446261388,-0.000708724880382624,0.0142829736747934,0.0352138515788223,-3.00619753245347,-0.000395704852370655,0
0.13,0.000691715946887138,0.000393998279487096,-0.0343303901680309,-0.0197143942721685,-0.000297025335158397,-0.000738567224896152,0.0149000891868948,0.0366772459820843,-3.00620021411062,-0.00042860934657591,0
0.14,0.000709327676055414,0.000404952927606941,-0.0352892309376863,-0.0202625163616079,-0.000305504318827686,-0.000757495700828222,0.0153138613723382,0.037701260447717,-3.00620259601663,-0.000435436201966379,0
0.15,0.000667029273855209,0.000381228629433963,-0.0331868882529715,-0.0190754304152936,-0.00028770792515384,-0.000712381547966803,0.014421480623221,0.0354578974852992,-3.00620469367424,-0.000261217640395186,0
0.16,0.000660214670971105,0.000378255325314071,-0.0328728646120127,-0.0189266613081458,-0.000285682622911931,-0.000705227581607595,0.0143165076677587,0.0351266472107997,-3.00620610329485,-0.000211517031034375,0
0.17,0.000658706093334942,0.000377882441873113,-0.0328112609021077,-0.0189080052270003,-0.00028551757535094,-0.000703682152280622,0.0143063773214159,0.0350630727630613,-3.0062072486362,-0.000183693854547407,0
0.18,0.000658052832495522,0.000377835468180081,-0.0327890604178447,-0.0189056527156135,-0.000285559883752601,-0.00070302825274767,0.0143070766882811,0.0350407440606517,-3.00620821617089,-0.000162126390064684,0
0.19,0.000657589272125815,0.000377829371725603,-0.0327745995638645,-0.0189053441772291,-0.000285616988632488,-0.000702567876263947,0.0143087516001326,0.0350263621102286,-3.00620903919538,-0.000144067371651736,0
0.2,0.000657207837291856,0.000377828428778385,-0.0327629226882064,-0.0189053072410144,-0.000285668028929706,-0.000702189604194194,0.0143103155781095,0.0350147770663395,-3.00620974013762,-0.000128729399076502,0
0.21,0.000656885139705638,0.000377828158096864,-0.0327530804290293,-0.0189052879846079,-0.000285711734212929,-0.000701869652250334,0.0143116458062328,0.0350050137221564,-3.00621033723084,-0.000115670062885567,0
0.22,0.000656610399545125,0.00037782799421463,-0.0327447006343134,-0.0189052872032323,-0.000285749010139505,-0.000701597258551765,0.0143127938467031,0.0349967032185788,-3.00621084587924,-0.000104546063764148,0
0.23,0.000656376526851693,0.000377827862940312,-0.0327375678782127,-0.0189052706846188,-0.000285780749451253,-0.000701365384274855,0.0143137553388505,0.0349896272963691,-3.00621127918644,-9.50698897148566e-05,0
0.24,0.000656177165613254,0.000377827752135513,-0.0327314823928726,-0.0189052712002111,-0.000285807805908245,-0.000701167726751548,0.0143145901101182,0.0349835922793496,-3.0062116483125,-8.69973409510694e-05,0
0.25,0.000656007315658871,0.000377827657858341,-0.0327262946320658,-0.018905271651318,-0.000285830857205334,-0.000700999328323459,0.014315301736987,0.0349784475460808,-3.00621196276382,-8.01204951510485e-05,0
0.26,0.000661776662211634,0.000381147266482145,-0.0330054823087107,-0.0190713607414867,-0.000288341566518909,-0.000707163863904402,0.0144421973019169,0.0352774942428603,-3.00621217414252,-9.38403754431578e-05,0
0.27,0.0006468602778517,0.000372546872544062,-0.0322925520455293,-0.0186410317727547,-0.000281833363582428,-0.000691223080109855,0.0141120417599876,0.0345130013260283,-3.00621256971463,-3.93502327258422e-05,0
0.28,0.000646454563147202,0.000372381524598864,-0.0321884766482177,-0.0186327607818488,-0.000281724416519562,-0.00069079870817274,0.0141178996546106,0.0344087592427975,-3.00621275775633,-3.42895936661398e-05,0
0.29,0.000654200583589515,0.000377144957041591,-0.0326476098975869,-0.0188711088111797,-0.000285398855526473,-0.000699116739504173,0.0142921014324791,0.0348958595886694,-3.00621282424901,-5.70974973233407e-05,0
0.3,0.00064656973784742,0.000373285220834741,-0.0322776177630204,-0.0186779749526372,-0.000282604101197661,-0.000691034878989465,0.0141506591447761,0.0345031911937919,-3.00621247108442,-4.04353367778903e-05,0
0.31,0.000654326841011828,0.000377258264414638,-0.0326513312676071,-0.0188767746621139,-0.00028549391458837,-0.000699257204232228,0.0142972046450252,0.0349003151064502,-3.0062125796753,-6.24279773033372e-05,0
0.32,0.000655387523020356,0.000377756094270391,-0.0327038360546207,-0.0189016872439074,-0.000285844147337407,-0.000700375324752471,0.0143148086079679,0.0349556995048196,-3.00621274382248,-6.24214408386247e-05,0
0.33,0.000655475302930423,0.000377818440047956,-0.0327094654984424,-0.0189048082151395,-0.000285894180618369,-0.000700470673105272,0.0143171464920949,0.0349616965144555,-3.00621289419119,-5.96598973041369e-05,0
0.34,0.000655430192339071,0.000377826219576085,-0.032708513042154,-0.0189051998036647,-0.000285908068195376,-0.000700426988179051,0.014317667579937,0.0349608037681582,-3.00621302383643,-5.69021229098926e-05,0
0.35,0.000655374260509493,0.000377827166134213,-0.032706860423965,-0.0189052338539669,-0.000285916632524868,-0.000700371664227655,0.0143179282356753,0.0349591692822349,-3.00621313450657,-5.44932328607907e-05,0
0.36,0.000655323852680389,0.000377827260621564,-0.0327053171936545,-0.0189052398666478,-0.00028592359555741,-0.000700321703407931,0.014318145774426,0.0349576396333524,-3.00621322881773,-5.24323822628648e-05,0
0.37,0.000655280487973052,0.000377827251905824,-0.0327039794381643,-0.0189052400433466,-0.000285929495959609,-0.000700278711329419,0.0143183293100133,0.0349563129914819,-3.00621330916463,-5.06754946081135e-05,0
0.38,0.000655243526108409,0.000377827233301449,-0.0327028361936512,-0.0189052402058097,-0.000285934514056804,-0.000700242065576118,0.0143184861629118,0.0349551792492994,-3.00621337761117,-4.91786463162197e-05,0
0.39,0.000655212093971547,0.000377827216051275,-0.0327018623144336,-0.0189052403559365,-0.000285938780066431,-0.000700210902035777,0.0143186197904964,0.0349542134662348,-3.00621343591961,-4.79034821901037e-05,0
0.4,0.000655185260239893,0.000377827201180213,-0.0327010270679116,-0.0189052404957945,-0.000285942421754218,-0.000700184297616436,0.0143187343952166,0.0349533851696707,-3.00621348559155,-4.68171903079342e-05,0
0.41,0.000655162384629176,0.000377827188489605,-0.0327003119721975,-0.0189052406268129,-0.000285945526236785,-0.000700161617499928,0.0143188325176608,0.0349526760287094,-3.00621352790598,-4.58917985517344e-05,0
0.42,0.000655142943270451,0.000377827177675604,-0.0326997023614606,-0.0189052407501667,-0.000285948164681718,-0.000700142342258015,0.0143189161765109,0.0349520714962637,-3.00621356395295,-4.51034750315272e-05,0
0.43,0.000655126295879446,0.000377827168462842,-0.0326991760178967,-0.0189052408672835,-0.000285950423883315,-0.000700125837162381,0.0143189884042929,0.0349515495447215,-3.00621359466065,-4.44319173791084e-05,0
0.44,0.000655112209625519,0.000377827160614539,-0.0326987296548197,-0.0189052409786866,-0.000285952335585343,-0.000700111871254703,0.014319049672772,0.0349511069062181,-3.00621362081993,-4.38598303336999e-05,0
0.45,0.000655100160639722,0.000377827153928769,-0.0326983441983602,-0.0189052410855415,-0.000285953970764137,-0.000700099925239481,0.0143191025809798,0.0349507246719186,-3.0062136431044,-4.33724803871953e-05,0
0.46,0.000655089916091411,0.000377827148233205,-0.0326980140953414,-0.0189052411883625,-0.00028595536107534,-0.000700089768229018,0.0143191478989894,0.0349503973313061,-3.00621366208818,-4.29573163445675e-05,0
0.47,0.000655081126734622,0.000377827143381024,-0.032697727026647,-0.0189052412879306,-0.000285956553852166,-0.000700081054013291,0.0143191873073254,0.0349501126710878,-3.00621367826009,-4.26036460842095e-05,0
0.48,0.000655073734361693,0.000377827139247759,-0.0326974844900988,-0.0189052413843836,-0.000285957557119007,-0.000700073724781361,0.0143192206185282,0.0349498721694369,-3.00621369203657,-4.23023611939778e-05,0
0.49,0.00065506738972666,0.000377827135726552,-0.0326972727707475,-0.0189052414784992,-0.000285958418154855,-0.000700067434366864,0.0143192496968271,0.034949662231915,-3.00621370377258,-4.2045702393339e-05,0
0.5,0.000655062034621862,0.000377827132727056,-0.0326970921650353,-0.0189052415704029,-0.000285959144937748,-0.000700062124996171,0.014319274512895,0.0349494831479445,-3.00621371377015,-4.18270596991329e-05,0
0.51,4.7321360592,-0.0136185840481813,3.39403691597667,0.690160439030451,-0.425102067813888,4.71302295565731,0.392379700615905,3.44119836527331,0.0870760255585052,26.9488628550531,2638.54123990372
0.52,4.7053744237572,-0.00905035864862425,4.73311900753482,0.472700448517877,-1.82755462441354,4.33597445466699,-1.39399258987463,4.54781770884575,0.396967500757262,57.6694982933866,2638.54123990372
0.53,4.69330202596385,0.00034964600472942,5.33787114452309,0.0148622190908102,-3.77936786789496,2.78270777270841,-4.28984370128765,3.17652801964838,0.936202526175988,89.9277369867785,2638.54123990372
0.54,4.64173503659844,-0.0102743474953852,7.91752110038796,0.54651576955291,-4.58742124195793,-0.708079134726574,-7.90968475462891,-0.6501591680885,1.72172661764068,123.857407711953,2638.54123990372
0.55,4.65490789988624,0.0276889278692269,7.26021525892333,-1.33320118596242,-1.83303449507483,-4.27889223666776,-1.59058214164966,-7.20820362218077,2.742802442644,154.533111049534,2638.54123990372
0.56,4.57726049578393,0.00622976442969536,11.1441029413607,-0.264203045633055,3.4469676325784,-3.01160531879359,8.57574164485523,-7.12162122396732,-2.28752685001231,187.630789450326,2638.54123990372
0.57,4.60949409236946,0.0342640561231318,9.53399888468893,-1.63776481622421,3.32858897839114,3.1889034519822,5.69349257405031,7.82071292375226,-0.799394057002011,218.532897456519,2638.54123990372
0.58,4.62981698857544,0.0625424570160154,8.51956098401654,-3.04905168775391,-3.65541906135549,2.842011328709,-8.63473197730311,2.70574190105247,0.923447187681624,250.596281309344,2638.54123990372
0.59,4.58594964678946,0.0753639356234195,10.7148149728061,-3.69023906898536,-1.26651469292329,-4.40823711003508,0.773895279640564,-11.3060254017,2.87825384890386,282.641740475056,2638.54123990372
0.6,4.57765776287383,0.0737224892522714,11.1314003670181,-3.60283864374738,4.32115832158366,1.51260581753109,9.20078681422006,7.22731225442794,-1.21797673430534,314.359530149221,2638.54123990372
0.61,4.53859179994976,0.0519675021317849,13.0867741472657,-2.50399363602879,-4.21277159400159,1.68939978827461,-13.1067970807551,2.39697976518858,1.20086178795529,345.857757822914,2638.54123990372
0.62,4.51788466547652,0.0835691247841843,14.1242961390244,-4.06689646539266,2.87902778736973,-3.48273809648644,12.2850668321429,-8.06923300028352,-2.43231252371607,377.155580177207,2638.54123990372
0.63,4.51475151325471,0.0488667077998581,14.2832535408382,-2.30705006263054,-1.91188259325827,4.09024132920821,-8.26723854295708,11.8737769297387,0.448073370923106,408.420080373859,2638.54123990372
0.64,4.48188085912561,0.0356334580860573,15.9291902714366,-1.67881679179637,1.78357934458269,-4.11185730544114,7.98966130564374,-13.8824652257856,-2.72437115662229,440.255268953838,2638.54123990372
0.65,4.51872558440172,0.0995252639980975,14.0894299978462,-4.83575248912352,-2.53097562881892,3.74472276031554,-12.0906986633596,8.70123816661209,0.616374093223836,471.237027643088,2638.54123990372
0.66,4.45899861375572,0.0693713791558324,17.0784067108909,-3.3539238983257,3.81985344488261,-2.30134758029722,16.4498709563589,-5.68529038990139,-2.09747375693143,502.711934529606,2638.54123990372
0.67,4.46985835037795,0.0915536178906127,16.5381101062632,-4.40592332627375,-4.44405353677248,-0.488266218053551,-15.8279862848058,-6.51122848715097,1.70070655288423,533.495347686178,2638.54123990372
0.68,4.42784372282809,0.116064271061711,18.6416385122275,-5.64950404236944,2.43605195860889,3.6993136936144,5.04285748072397,18.814812536255,-0.556131221091577,564.781373417602,2638.54123990372
0.69,4.46516567297298,0.110050253695317,16.778472837813,-5.35738992632199,2.26313841066652,-3.85071682672207,13.405772241155,-11.4238368427671,-2.58561103263888,595.909464068763,2638.54123990372
0.7,4.42338844423487,0.100157801552428,18.8702658325112,-4.86286647059957,-4.22444120554523,-1.31548219854696,-16.3347734906689,-10.6258918641713,1.89531575825567,626.920655841641,2638.54123990372
0.71,4.37366057922064,0.0946990948037301,21.3597157452841,-4.5825338370851,-1.28592825501136,4.18141881467866,-11.0690126019008,18.8338533791237,0.320003019105803,657.808912891934,2638.54123990372
0.72,4.38529153339405,0.0920528211031106,20.7812948998748,-4.42838099065696,3.80461247653727,2.18270003850908,15.5207786470785,14.5113130385353,-1.0289526106982,688.589063261636,2638.54123990372
0.73,4.3450637840504,0.111351019989706,22.7959268054479,-5.35734597232723,3.57015808813715,-2.47910257206676,21.9931931101192,-8.04082655002304,-2.15212972428122,719.195861163151,2638.54123990372
0.74,4.31514524343458,0.149179954758292,24.2951861603773,-7.22613802380123,0.245810294833255,-4.31072040728597,9.41626137334914,-23.5331078069852,-3.05007383473667,749.946604878964,2638.54123990372
0.75,4.33812816315312,0.142343413413786,23.1494566004421,-6.93096206939316,-2.50067858637734,-3.54770689529425,-6.91647130348371,-23.1537902040078,2.56040490034358,780.748321167747,2638.54123990372
0.76,4.29408252159544,0.135394202868895,25.3551751905333,-6.5165713606991,-3.74976872648163,-2.09683351517051,-18.3710145993066,-18.6509097320689,2.11218785114487,811.195908498798,2638.54123990372
0.77,4.31342467558672,0.149591897142827,24.3916410183352,-7.26108575043294,-4.14445917155033,-1.20476899985166,-20.9047335610958,-14.5143939791529,1.88836034614845,841.856914847684,2638.54123990372
0.78,4.28316122447458,0.107258182194576,25.9084543616456,-5.17694644158033,-4.10277666653644,-1.23458414740121,-22.9995017029932,-13.0027575260971,1.88812830703906,872.467082880496,2638.54123990372
0.79,4.19018991086472,0.149581708674767,30.5607846773993,-7.24889824406246,-3.67003050954257,-2.02754586525417,-22.4762715699507,-21.939127196973,2.11120934173547,902.758371056134,2638.54123990372
0.8,4.25590089030493,0.15846123960524,27.279073178966,-7.63648676166014,2.92525342460662,3.0952697385499,12.2449735195416,25.5445568971184,-0.719950098270102,933.044134679024,2638.54123990372
0.81,4.21645668535553,0.138233985131752,29.2551977016897,-6.61769642954587,0.355796583146307,4.20369175910249,-5.09806368964718,29.5579134110457,-0.0516651701556348,963.355169341085,2638.54123990372
0.82,4.20337368018586,0.210128078679693,29.9133433240219,-10.2338862207056,-2.98549193924745,2.96636848442963,-29.0876954713507,12.3873527504917,0.838559933356799,993.673506416866,2638.54123990372
0.83,4.1537559542642,0.105367305487237,32.3983211895228,-5.06263873296138,-3.89700179668859,-1.4415851668413,-28.2148163546409,-16.7094483725182,1.95046860597447,1023.97408391771,2638.54123990372
0.84,4.22238641350111,0.155737962425699,28.9709814100652,-7.53206216021892,0.442618671576435,-4.20201023909166,11.551214393824,-27.6155602926259,-2.99977751835224,1054.03474592491,2638.54123990372
0.85,4.16914890525452,0.238773032339798,31.6371065568071,-11.6190708199322,4.16652854627405,0.280811374842916,29.9493278825703,15.4579130993696,-1.44629221738264,1083.99151326776,2638.54123990372
0.86,4.12519630523176,0.10685376529161,33.8391449935293,-5.10926414030048,-1.22540315537631,3.94043771561594,-15.7198682960551,30.3986521856338,0.327397770795702,1114.13857431039,2638.54123990372
0.87,4.09608955273342,0.17750436020259,35.2989387011364,-8.53989859158278,-3.11854493261509,-2.66160382573432,-20.012270351223,-30.3060056221644,2.32061301754903,1143.91175919405,2638.54123990372
0.88,4.16161674781354,0.235914149651862,32.0272199319353,-11.5059649205718,4.05260974072159,-0.975224964352637,33.567021769298,5.60224016456419,-1.75032002491473,1173.79952962107,2638.54123990372
0.89,4.0848744457697,0.23042582133026,35.8690031768997,-11.2829680288304,-2.39070964736975,3.32021124008869,-31.3359084490321,20.7834452898919,0.68040410955005,1203.67604948419,2638.54123990372
0.9,4.06583580342197,0.227962334784101,36.8257158665103,-11.1677615733319,0.534050696775743,-4.0370505891977,17.8375809264515,-34.0979904735166,-2.9540598551516,1233.36579482329,2638.54123990372
0.91,4.04445036087058,0.294268696426175,37.8998413480241,-14.4795831007533,0.647279720865541,4.00314897926604,-11.1053711674497,39.0221351569874,-0.0876745604789804,1262.99409644733,2638.54123990372
0.92,4.0552507497886,0.272880300644132,37.3647068251677,-13.4056652333391,1.38745312079039,3.82027435398947,-2.51089633523192,39.6172762323814,-0.281179917361767,1292.61015512755,2638.54123990372
0.93,4.03694097955716,0.273050236161204,38.2851731963183,-13.4058890564132,-0.764736249993315,-3.97323890193401,8.62279847691335,-39.6373522638873,3.01898120570484,1322.13636892712,2638.54123990372
0.94,4.07705475558037,0.263824584021974,36.2845051428579,-12.8906069089944,-0.761139424808484,4.01405601195812,-21.5311141886398,31.9240376791541,0.252013254350478,1351.53124460156,2638.54123990372
0.95,4.04122468604353,0.264871965491844,38.0811035286226,-12.8631603031148,2.83860256396103,-2.888596476676,36.9759787433215,-15.7609750623095,-2.29947458927114,1380.80398218602,2638.54123990372
0.96,3.93981190657712,0.0843943891881118,43.1568561314711,-3.96465647949059,-3.93473417952789,-0.217041951217444,-42.7274730728281,-7.25229459989117,1.64731863811456,1410.2335004621,2638.54123990372
0.97,4.03428130064558,0.147142486478027,38.4385328744499,-6.97756234907233,1.97412738040042,3.52134883390143,11.3556681272017,37.3798874698709,-0.474500886326779,1439.36163354917,2638.54123990372
