t,iq,id,vq,vd,ia,ib,va,vb,theta_e,omega,r
0,0,0,0,0,0,0,0,0,0,0,0
0.01,0.000506928052480415,0.00028962807143799,-0.024987623899324,-0.0144912792220079,0.000581598754690087,5.10231192638801e-05,-0.0287907948536716,-0.00233851519517472,-0.964212244515638,-0.00144577407062431,0
0.02,0.000598974477145499,0.000341366894287739,-0.02954740612136,-0.0170799876624046,0.00068671926088735,6.09789923966574e-05,-0.0340128748450874,-0.00281061057795272,-0.964223723743127,-0.00166967476371698,0
0.03,0.000634105488048524,0.000361200338717502,-0.0312757203117778,-0.0180723324243705,0.000726890080072471,6.47013613081846e-05,-0.0359985968750998,-0.00298008444537436,-0.964236028543767,-0.00172505053343582,0
0.04,0.000621555838336809,0.00035407480127483,-0.0306612482965228,-0.0177158194535786,0.000712517998918464,6.33934246244141e-05,-0.0352905448548943,-0.00292230215027656,-0.964247977529744,-0.00164322196748441,0
0.05,0.000636996194000808,0.000362987400350005,-0.0314219980739405,-0.0181617456951312,0.000730285372068298,6.48635439013102e-05,-0.0361698213740701,-0.00298914560053489,-0.964259820447874,-0.00164313184244486,0
0.06,0.000639046104541268,0.000364241338559922,-0.0315247883408215,-0.0182244912790036,0.000732685168482331,6.49932329655237e-05,-0.0362900781460713,-0.00299576208402954,-0.964271478671074,-0.00160483189893628,0
0.07,0.000651061445644614,0.000371282122377904,-0.0321171102909002,-0.0185767727316397,0.000746571477860838,6.60488368329044e-05,-0.0369775900168774,-0.0030435333256867,-0.964282705514653,-0.00159712817693626,0
0.08,0.000640726050470093,0.000365406980950916,-0.0316112692063948,-0.0182828185408848,0.000734731357811069,6.49766521742274e-05,-0.0363944482769476,-0.00299631928450113,-0.964293860918527,-0.00152474644574412,0
0.09,0.000639058265319134,0.000364578208220546,-0.0315312276928553,-0.0182413509932349,0.000732889325261933,6.46990981321497e-05,-0.0363050781387477,-0.00298437719072192,-0.964304612160169,-0.0014790861184779,0
0.1,0.000638650514626354,0.000364460241451136,-0.0315130391515071,-0.0182354450278698,0.000732487729999374,6.45559666606472e-05,-0.0362867982347915,-0.00297848380831777,-0.964315050612655,-0.00143827467876762,0
0.11,0.000638429903661908,0.000364442424493546,-0.0315039917230027,-0.0182345486247635,0.000732296961592822,6.44374324628791e-05,-0.0362788835776635,-0.00297369540979298,-0.964325196585275,-0.00139911725902863,0
0.12,0.000638240725869354,0.00036443874672128,-0.0314964366561719,-0.0182343731414133,0.000732140059191357,6.43254070899892e-05,-0.0362726051147394,-0.00296917565777541,-0.964335059898503,-0.00136112468288726,0
0.13,0.00066469575945015,0.000379679872172635,-0.0327979924458705,-0.0189969418909653,0.00076256490995073,6.68731341861243e-05,-0.0377767211654619,-0.00308406350048718,-0.964344889434069,-0.00140068552757452,0
0.14,0.000681739023392981,0.000389619642711421,-0.033673620027655,-0.0194942775106064,0.000782234831290635,6.84122117688263e-05,-0.0387796927945738,-0.00317410903812392,-0.964354544856479,-0.00141355792806275,0
0.15,0.000644050838239932,0.000367981472739433,-0.0317870053494004,-0.0184116202891926,0.000738935151564151,6.47046234816787e-05,-0.0366124675869306,-0.00298809102140078,-0.964363997161126,-0.00126815619414131,0
0.16,0.000638452840302896,0.000364932737415967,-0.0315135058957912,-0.0182590808055834,0.000732598322766008,6.40127300556508e-05,-0.0363008246104922,-0.00295723152748933,-0.964372839331565,-0.00121832230148214,0
0.17,0.000637506132290555,0.000364502316997249,-0.0314684881644657,-0.0182375439527527,0.000731575655625458,6.38205915093732e-05,-0.0362515845711513,-0.00294896131991758,-0.964381385150453,-0.00118312960850442,0
0.18,0.000637236684551696,0.000364440709317956,-0.0314567016652009,-0.0182344754008488,0.000731319668459778,6.37115787788404e-05,-0.0362401752428487,-0.00294446449549437,-0.964389685849702,-0.00115083587784463,0
0.19,0.000637069159711243,0.000364431075492912,-0.0314498805362447,-0.0182339887375282,0.000731177035930362,6.3618119810312e-05,-0.0362343166827718,-0.00294068453883998,-0.964397754476237,-0.00111971890761774,0
0.2,0.000636920086988418,0.000364428788609945,-0.0314439248207548,-0.018233868736352,0.000731053737022858,6.35293063236207e-05,-0.0362293774860005,-0.00293710473164878,-0.964405598390365,-0.00108950821916872,0
0.21,0.000636776893993541,0.000364427562319919,-0.0314382176352256,-0.018233814858186,0.000730935858805816,6.34431337049436e-05,-0.0362246794989849,-0.00293362021370179,-0.96441322397635,-0.00106014416137736,0
0.22,0.000636638182279056,0.00036442651048968,-0.0314326917356505,-0.0182337530871198,0.000730821747646769,6.33595284845774e-05,-0.036220125307045,-0.0029302532539762,-0.964420637330003,-0.00103159818553279,0
0.23,0.000636503196569031,0.00036442550761609,-0.031427310846003,-0.018233707963538,0.000730710711876259,6.32781588949194e-05,-0.0362156991084669,-0.00292696279372938,-0.964427844360142,-0.001003846801349,0
0.24,0.000636371994355677,0.000364424535348072,-0.0314220789629387,-0.0182336628496066,0.000730602788737632,6.31990684478453e-05,-0.0362113947261384,-0.00292376456885174,-0.964434850809861,-0.000976867789805723,0
0.25,0.000636244459223671,0.000364423590444823,-0.0314169914318214,-0.0182336177451552,0.000730497881166727,6.31221892557652e-05,-0.0362072083551176,-0.00292065571964185,-0.9644416622613,-0.000950639639692842,0
0.26,0.00064147294947259,0.000367498766043549,-0.0316750212490699,-0.0183874815817007,0.000736547178375934,6.35699769942157e-05,-0.0365069419999598,-0.00294102632731951,-0.964448227309681,-0.000940911018754529,0
0.27,0.000627929234135125,0.000359734416864706,-0.0310107021888296,-0.0179990010533332,0.000720993576021097,6.22273018443265e-05,-0.0357396834708692,-0.00288144313916679,-0.964454811857764,-0.000876557845327096,0
0.28,0.000627538817828841,0.000359579256951594,-0.0309574893979859,-0.0179912354038452,0.000720584724700771,6.2127807299093e-05,-0.0356915489952119,-0.00285727693886497,-0.964461071807659,-0.000851659134569398,0
0.29,0.000634560638356225,0.000363738127580264,-0.0313386370465895,-0.0181993172159528,0.000728725198801696,6.27073666971069e-05,-0.0361233488937554,-0.0029032712179142,-0.964467076310754,-0.000849269591080721,0
0.3,0.000627436599865599,0.000359795619701227,-0.030989554191358,-0.0180020501911095,0.00072062473410076,6.18834986834322e-05,-0.0357240937663697,-0.00286625271634647,-0.96447254014552,-0.000807825709767447,0
0.31,0.000634368200453584,0.000363767278607283,-0.0313311028917499,-0.0182007788360413,0.00072858437337087,6.25656264401141e-05,-0.0361180229569871,-0.00289737404048221,-0.964478226510538,-0.000806382009773627,0
0.32,0.000635282848687748,0.000364326014911817,-0.0313769980082453,-0.0182287272217405,0.000729654730882563,6.26236111945087e-05,-0.036171679837845,-0.00290035822658003,-0.964483819735614,-0.000787806680680207,0
0.33,0.000635328370467844,0.000364404065263477,-0.0313801624685181,-0.0182326414905357,0.000729736955819247,6.25814382507484e-05,-0.0361765265498552,-0.00289874784357257,-0.964489266724852,-0.000767261473636461,0
0.34,0.000635250661770903,0.000364414429760099,-0.0313772446002337,-0.0182331507494124,0.000729679335335623,6.25247749449072e-05,-0.0361744343050902,-0.00289647504052916,-0.964494563483451,-0.000746927914502644,0
0.35,0.000635157295343589,0.000364415278274728,-0.0313735302672381,-0.0182331994141299,0.000729603415643975,6.24671173408575e-05,-0.0361714246457268,-0.00289413223665349,-0.964499713024712,-0.000727108105601368,0
0.36,0.000635064160939401,0.000364414803452557,-0.0313698010981536,-0.0182331645595133,0.000729526923035107,6.24107847407773e-05,-0.0361683547657077,-0.00289185482587219,-0.964504719276195,-0.00070783235269369,0
0.37,0.000634973064511442,0.000364414158743934,-0.0313661463314185,-0.0182331361195244,0.000729451999135073,6.23558554263074e-05,-0.0361653492579694,-0.00288961960924845,-0.964509586202065,-0.000689091973676224,0
0.38,0.000634884471010406,0.000364413506153548,-0.0313625896653521,-0.018233106224706,0.000729379118623602,6.23024583234279e-05,-0.0361624231256508,-0.00288744641509792,-0.964514317675594,-0.00067087300393702,0
0.39,0.000634798380438217,0.000364412868054279,-0.0313591317790754,-0.0182330763298074,0.000729308294527328,6.22505722396913e-05,-0.0361595777683411,-0.00288533429628069,-0.964518917466559,-0.000653161067500125,0
0.4,0.000634714676379554,0.000364412247165311,-0.0313557675760642,-0.0182330464347699,0.000729239432996158,6.22001258770084e-05,-0.0361568090099766,-0.00288328021404592,-0.964523389239874,-0.000635942072630947,0
0.41,0.000634633300626756,0.000364411643449161,-0.0313524949378858,-0.018233016539374,0.000729172486433699,6.21510834485334e-05,-0.0361541151213169,-0.00288128283058194,-0.964527736558132,-0.000619202303004842,0
0.42,0.000634554194972161,0.000364411056491508,-0.031349311518086,-0.0182329866435384,0.00072910740702038,6.21034095524709e-05,-0.0361514941854405,-0.00287934068173847,-0.964531962885001,-0.000602928421609311,0
0.43,0.000634477301208109,0.000364410485836809,-0.0313462151743847,-0.0182329567472165,0.000729044146905,6.20570688939208e-05,-0.0361489444528681,-0.00287745242326468,-0.96453607158824,-0.00058710746226616,0
0.44,0.000634402561126938,0.000364409931034142,-0.0313432036730094,-0.0182329268503711,0.000728982658231036,6.20120262460348e-05,-0.0361464640985841,-0.00287561666230099,-0.964540065941097,-0.000571726819609352,0
0.45,0.000634329916520988,0.000364409391644008,-0.0313402746662171,-0.0182328969527539,0.00072892289314085,6.19682464416466e-05,-0.0361440512034521,-0.00287383194461745,-0.964543949125927,-0.00055677423908843,0
0.46,0.00063425913528045,0.000364408867239164,-0.0313374172241121,-0.0182328807211499,0.000728864660865164,6.1925595282924e-05,-0.0361417045825873,-0.00287208069781174,-0.964547724237017,-0.000542237807211714,0
0.47,0.000634190448794556,0.000364408357403979,-0.0313346435005091,-0.0182328508206602,0.000728808151533152,6.18842027252264e-05,-0.0361394186584189,-0.00287039220037507,-0.964551394282206,-0.000528105942053328,0
0.48,0.00063412374136856,0.000364407861734424,-0.031331948203642,-0.0182328209191035,0.000728753270044092,6.18440010118809e-05,-0.0361371968794535,-0.0028687520979371,-0.964554962185649,-0.000514367384027281,0
0.49,0.000634058722687908,0.00036440737983759,-0.0313293175376727,-0.0182328061337024,0.000728699777794306,6.1804822944883e-05,-0.0361350365309261,-0.00286714000253489,-0.964558430789686,-0.000501011186914332,0
0.5,0.000633995624136029,0.000364406911331047,-0.0313267635411004,-0.0182327762289137,0.000728647864908921,6.17667986311182e-05,-0.0361329302872032,-0.00286558751982435,-0.964561802858209,-0.000488026709142823,0
0.51,0.977195674004134,-0.0271609524450607,-1.07719230868326,1.35928312350389,-0.0423683089913246,0.976654508525575,1.37588560017019,-1.05590373376231,0.0155662390179572,4.84812173215764,196.489660629212
0.52,0.977507353691342,0.040071245849453,-1.37198910846986,-2.00477504443088,-0.0292461375673171,0.977891095522385,-1.90259292201935,-1.51050232228045,0.070868798589539,10.2231679028352,196.489660629212
0.53,0.931061977327887,0.00495736786471053,0.646719756004357,-0.247526998199487,-0.148555539284239,0.919147557723911,-0.350725948360646,0.59708237856305,0.16556188414994,15.595058581635,196.489660629212
0.54,0.924577071029462,-0.00782575553028811,0.652842797165651,0.39232156836113,-0.280165517766222,0.881142034735503,0.182325764025147,0.739511491854626,0.299384920749363,20.899941281995,196.489660629212
0.55,0.929055827295244,0.0290899964673223,0.0755975940159244,-1.45467920997048,-0.396638555567374,0.840635958285836,-1.32990177044128,-0.594279295549228,0.472161109758593,26.2299641630205,196.489660629212
0.56,0.926260734569475,-0.0561864849380664,-0.161679515993784,2.81270218961292,-0.628799030572295,0.68244241416124,2.28227690227744,1.6518613787713,0.683925352296272,31.5394662556089,196.489660629212
0.57,0.942468039735955,0.0339941617252661,-1.38137721325959,-1.69955353738697,-0.737926591621894,0.587252887887689,0.101498421395175,-2.18778045109917,0.934666232744949,36.8627962853435,196.489660629212
0.58,0.915724949826373,0.00314888549064926,-0.485958377702994,-0.155819639532858,-0.860274968839304,0.313829694584311,0.404202152519523,-0.311537999002465,1.22443521535779,42.2058184138558,196.489660629212
0.59,0.889227395308472,-0.0130070490990659,0.348939105274022,0.652833027567227,-0.889319631112025,0.00226663012554653,-0.337675762289793,0.658729489725512,1.55362129173419,47.6261290497549,196.489660629212
0.6,0.872844912555564,0.0218282341303625,0.629164383862521,-1.09006423253671,-0.826838573330991,-0.28048651809196,-0.214698618576624,-1.24015819803694,1.92284530140392,53.137683308311,196.489660629212
0.61,0.845388532867724,0.000771568180947924,1.39056189893417,-0.0366569740412234,-0.611938625123,-0.583278223409955,-0.98037277139909,-0.986851233779708,2.33313251479007,58.8165509881859,196.489660629212
0.62,0.863196777207976,0.031083121216869,-0.131672131753984,-1.55402762833346,-0.330546968946129,-0.798005976122576,1.50218278672829,-0.419268762444326,2.78488511601086,64.4165460230201,196.489660629212
0.63,0.822239757100299,0.0373928455033924,1.32212462147746,-1.86977144597346,0.0737380468250674,-0.819779936020407,2.03086575516135,-1.05813187240887,-3.00643997636908,69.7281817986111,196.489660629212
0.64,0.829802171956232,0.0122854151768128,0.403613786657717,-0.613116332025338,0.502187239108834,-0.660704588212912,0.731541821378176,0.0605168484893767,-2.47686840335399,74.7006415011132,196.489660629212
0.65,0.84740801824357,-0.0453080049853541,-0.982875835842265,2.26925368087671,0.813774489988653,-0.240674560647685,-1.68513354356688,-1.80993981038068,-1.91176606084614,79.4498622733138,196.489660629212
0.66,0.784213805617315,0.0364670729931149,1.67418983267283,-1.82239649679555,0.767493960991343,0.165148903039943,1.15288839756471,2.18972348256999,-1.31238071558923,84.0655199848717,196.489660629212
0.67,0.781296641156413,-0.0110969730138626,1.30477420865213,0.558126698311846,0.482204243554226,0.61483872014591,1.25394065053324,0.664510339929,-0.679282649725619,88.6689885738238,196.489660629212
0.68,0.811623900765437,-0.0120161642074479,-0.782424247807887,0.60468491920493,-0.0022139722631496,0.811709826737845,0.595192130269824,-0.78966947714628,-0.0120764728135129,93.3914964461226,196.489660629212
0.69,0.789898160823024,-0.0024192395093879,-0.33466246509917,0.124444273407843,-0.504882798562664,0.607485240073314,0.309066249593056,-0.178783097894466,0.690357848821407,98.3123825868066,196.489660629212
0.7,0.730067188847665,-0.0538826937757096,1.96655256465826,2.69766791647688,-0.730373889575686,0.0495522587430923,-1.56670760962651,2.94790916466079,1.42938353601355,103.266832487186,196.489660629212
0.71,0.744199730483855,-0.00373529307178774,0.640866285762282,0.188736384008177,-0.598075724153301,-0.442891204975984,-0.628490593153263,-0.226562559115766,2.20318791376677,107.802817305665,196.489660629212
0.72,0.738435171065239,-0.0334850468468679,0.360453367062397,1.67810453533312,-0.064290135754882,-0.736392917315956,-1.7110020998156,-0.13576920033203,3.00919442472954,112.064914897675,196.489660629212
0.73,0.725695246186238,-0.00279089587416009,0.435075338693582,0.143055440476079,0.472037409228016,-0.551200565789249,0.17271128959631,-0.424177109041871,-2.43725183533816,116.218343743082,196.489660629212
0.74,0.729357657391221,0.0408265204356794,-0.352681918157673,-2.03882904778046,0.729398023885877,-0.0400988767607369,-0.3547157236846,2.03847618991237,-1.56979870447344,120.48298168088,196.489660629212
0.75,0.682437310676832,-0.0356487104698202,1.30647732405222,1.78677282854079,0.396024872092068,0.55691634402884,2.21178713452646,-0.0862427424050716,-0.670328730454942,124.995489355659,196.489660629212
0.76,0.710570103371967,0.00500437403046949,-0.792990517738612,-0.248604694475397,-0.179270722775313,0.687602300404166,-0.0346565762876535,-0.830323537579524,0.262083700431009,129.344393531238,196.489660629212
0.77,0.693126585493467,0.0116166504689464,-0.539070943180935,-0.578774784869437,-0.648151499830737,0.245884207205579,0.310962205688972,-0.727241527977945,1.224964932338,133.31321116566,196.489660629212
0.78,0.647763919434074,0.0473018649410418,1.13584318559713,-2.36343814536693,-0.545942749764067,-0.351826769486837,0.514142912574076,-2.57131030307366,2.21614618091465,137.118103382879,196.489660629212
0.79,0.674238741922638,-0.0103679205792263,-0.804254590205709,0.523292303471757,0.0733546031026048,-0.670316699098432,-0.596187368526314,0.751811746615734,-3.04796963746848,140.95790828606,196.489660629212
0.8,0.595110407390011,0.0414556544309363,2.45933317302969,-2.07277957531887,0.523887684354715,-0.285336051787461,3.09882497373199,0.86140501855879,-1.99997560234588,145.014186419034,196.489660629212
0.81,0.598471230400516,-0.0236831977125582,1.60808433235591,1.18679844965821,0.462741257057044,0.380262062909602,1.99844914618855,0.0250357779577359,-0.922479641284167,148.89564396753,196.489660629212
0.82,0.579741201696731,0.0383160724146162,1.93018071437336,-1.91441505808619,-0.0672574797624522,0.577100003262914,-2.23217780988431,1.55176184700685,0.18201620166605,152.432460646355,196.489660629212
0.83,0.590910172897091,-0.0443955997799274,0.761953718583198,2.22583503111498,-0.582598724526685,0.108279859128874,-0.167059157889524,2.34670115114103,1.31204637472108,155.893173137079,196.489660629212
0.84,0.61148717134045,0.00656557637210102,-0.943551201447484,-0.324379011170004,-0.386539984562947,-0.473863385208353,0.842074603747326,0.535183122271624,2.46807604456994,159.574468605439,196.489660629212
0.85,0.558926920885417,0.0616661824572244,0.98277715580855,-3.08421904002987,0.21892367626403,-0.517952164702825,3.17164584609916,0.64724079891787,-2.63181065120824,163.210937111341,196.489660629212
0.86,0.546503772665874,-0.0140660781579535,0.976009847255638,0.706660827228858,0.538506516270082,0.094207006254521,1.06924243873941,-0.555594594896618,-1.42334027837272,166.467866790377,196.489660629212
0.87,0.575953157373548,-0.00375388849141983,-1.11054685182993,0.192383724614277,0.10591904474406,0.566142461866155,-0.022469857570619,-1.12686330719683,-0.191468514423127,169.635550940087,196.489660629212
0.88,0.486961466971663,-0.0327332864320874,2.6765298630714,1.64072436550787,-0.441628590386153,0.207767000530351,-1.54357266283888,2.73371029665191,1.06394318561588,172.934259889363,196.489660629212
0.89,0.491859273708462,0.0375633244158347,1.76414985126882,-1.87830062848699,-0.378370227516248,-0.31650042559764,0.0483061114036443,-2.57641310125288,2.34361290701585,176.145073921374,196.489660629212
0.9,0.532928548230239,0.0222741594594408,-0.900485927085066,-1.1112111933786,0.237857989978785,-0.477422823398366,0.538183211242375,1.32515057721943,-2.63760465569265,179.06486465104,196.489660629212
0.91,0.505954382125286,0.0115855689793574,-0.167434037515602,-0.575002883775666,0.492361200305919,0.11706626599354,-0.30774266845402,0.513767382462051,-1.31447123578615,181.967796239469,196.489660629212
0.92,0.474772783815157,0.061568419977561,0.720961673436253,-3.07989219933149,0.0470451350823247,0.476431130233125,-3.10046717004983,0.626597974390423,0.0305342656289315,185.012160262767,196.489660629212
0.93,0.445205331054908,-0.00566951108213354,1.5665590266564,0.285539653363319,-0.439489342966835,0.0713375607530897,-1.49366409918972,0.551912707258354,1.39714666096524,187.797150460653,196.489660629212
0.94,0.427219064169054,0.0460581513189508,1.86895580439796,-2.30088947807506,-0.192897600673163,-0.383963537001808,1.49971867858689,-2.55693802705638,2.78343312060026,190.418326134812,196.489660629212
0.95,0.411295486843104,-0.00842164109098011,2.04525833606785,0.425019789128301,0.360421545385089,-0.198320980126651,1.55886468568854,-1.39056261064321,-2.09430240809941,193.091800140502,196.489660629212
0.96,0.420896587044869,-0.0259493922599594,0.914126623810917,1.29946299149652,0.240623342176783,0.346305811594831,1.58631251978332,-0.0885671508389284,-0.668821817056046,195.775640469845,196.489660629212
