t,iq,id,vq,vd,ia,ib,va,vb,theta_e,omega,r
0,0,0,0,0,0,0,0,0,0,0,0
0.01,0.000857973096864121,0.000488413473960422,-0.0425711162185693,-0.024449516898224,-0.000846915395686119,-0.000507345906693375,0.0422099782550463,0.0250678389248055,2.62803116412713,-0.000949724385896286,0
0.02,0.000953559105054276,0.000542675121389473,-0.0473578642691415,-0.0271657980119556,-0.000941141041630901,-0.000563936870549261,0.0469277034597539,0.0279023034488948,2.62802405738514,-0.00101388894890753,0
0.03,0.000991115003266308,0.000564140155920954,-0.0492271536514511,-0.02824031471058,-0.000978292052507932,-0.000586095320935007,0.0487821749278069,0.0290021971734733,2.62801680833681,-0.00101059867385999,0
0.04,0.000969003806647798,0.00055197767581646,-0.0481434790510051,-0.0276314824643722,-0.000956839362962776,-0.00057280552143171,0.0477196737680978,0.0283571178680027,2.62801005652203,-0.000942066243991391,0
0.05,0.000990752109470591,0.000564548022712505,-0.0492297053718999,-0.0282607249888273,-0.000978476855942297,-0.000585565756131882,0.0488015940834343,0.0289937386829278,2.62800341618133,-0.000924541255169883,0
0.06,0.000991250169963497,0.000565104849428242,-0.0492641233371316,-0.028288598940486,-0.000979210286643079,-0.000585719732322855,0.0488429670145325,0.0290097096057349,2.62799702811733,-0.000884261500212701,0
0.07,0.00101698540217444,0.000580115473405949,-0.0505466504782876,-0.0290400314117227,-0.00100493194583502,-0.000600753739032196,0.050127752831541,0.0297572796980494,2.62799100207233,-0.000875237263687617,0
0.08,0.000991510973944421,0.000565792496529082,-0.0492952202247896,-0.0283230217992662,-0.000979944324353891,-0.000585597371704673,0.0488885725462593,0.0290193000474056,2.62798512206542,-0.00080842280043078,0
0.09,0.000989873098650344,0.00056515180296413,-0.0492226610132698,-0.0282909518224804,-0.000978584809694466,-0.00058448018106732,0.0488251509458776,0.0289715886233641,2.62797957841122,-0.000771093772643114,0
0.1,0.000989368855091602,0.000565120695558018,-0.0492057920144706,-0.0282894116305156,-0.000978313052861331,-0.000584051112981037,0.048815674261033,0.0289573949901025,2.62797429535464,-0.000736731263612279,0
0.11,0.000988937758130875,0.000565116860350287,-0.0491921656103802,-0.0282892098264705,-0.000978100840984212,-0.000583672596731305,0.0488089492170692,0.0289453800522762,2.62796925797679,-0.000704023321427894,0
0.12,0.00098852885955343,0.000565114353352425,-0.0491792783355525,-0.0282890898757099,-0.00097790055254514,-0.000583312993055053,0.0488026517348618,0.0289339801487373,2.62796445472808,-0.000672838234067059,0
0.13,0.00103523582600516,0.00059193072616525,-0.0514975358979616,-0.0296314978439634,-0.00102420868424422,-0.000610812386205317,0.0511110440089949,0.0302932838818977,2.62795968117696,-0.000695872427253763,0
0.14,0.00108114803712349,0.000618757617336222,-0.0538255647333076,-0.0309744260126971,-0.00107013559519857,-0.000637614205516612,0.053424696374545,0.0316608323163371,2.62795513080097,-0.000719422425201036,0
0.15,0.000991723375302583,0.000567497048485238,-0.0493582900643582,-0.028408364710848,-0.000981553414904001,-0.000584911144406823,0.0489948898749584,0.029030617454036,2.62795074824936,-0.00058885011116068,0
0.16,0.00098722959407341,0.000565211782729686,-0.0491419882317573,-0.0282939504665312,-0.000977357309192129,-0.0005821162434768,0.0487890733769343,0.0288982518397361,2.62794679426828,-0.000558411518614497,0
0.17,0.000986715530688804,0.000565108158075285,-0.0491222971477584,-0.0282887677256772,-0.000977016655393115,-0.000581715758691632,0.0487749926863279,0.0288834649056973,2.62794303455561,-0.000533779118636925,0
0.18,0.000986401473380596,0.000565101797107673,-0.0491122333205533,-0.0282884475118521,-0.00097685888449824,-0.00058144185225918,0.0487698723411132,0.0288746822700233,2.62793945007373,-0.000510496581530753,0
0.19,0.000986109963885707,0.000565099849529609,-0.0491030294334199,-0.028288366162969,-0.000976715937888382,-0.000581185579215344,0.0487653777089123,0.0288665393945417,2.62793603221122,-0.000488305721134911,0
0.2,0.000985832694034728,0.000565098175683976,-0.0490942866090369,-0.0282882729553489,-0.000976580132570189,-0.000580941729830385,0.0487610946605025,0.0288588116864866,2.62793277320222,-0.000467146674838698,0
0.21,0.000985568076486365,0.000565096587607733,-0.0490859373663147,-0.0282882032620756,-0.000976450529388159,-0.000580709006622526,0.0487570210665586,0.0288514226276875,2.6279296656626,-0.000446971060924299,0
0.22,0.000985315915375444,0.000565095073525259,-0.049077983019721,-0.0282881335710758,-0.000976327026138047,-0.000580487237798648,0.0487531373046644,0.0288443845691252,2.62792670255249,-0.000427733152416508,0
0.23,0.000985075665584504,0.0005650936296665,-0.0490704068944539,-0.0282880374857209,-0.000976209355766069,-0.00058027594378124,0.0487494123908232,0.0288376956279498,2.62792387715942,-0.000409389366553729,0
0.24,0.000984846438287243,0.000565092252766547,-0.0490631746945809,-0.0282879678028858,-0.000976097082566774,-0.00058007434570792,0.0487458756462182,0.0288312996760725,2.62792118308242,-0.00039189814705807,0
0.25,0.000984627534990406,0.000565090939726534,-0.0490562610804899,-0.0282879215955685,-0.000975989864311135,-0.000579881830707112,0.0487425122509615,0.0288251757819286,2.62791861421837,-0.000375219869107839,0
0.26,0.000994510386535718,0.000570824175186626,-0.0495489416447335,-0.0285749139692599,-0.000985840857168446,-0.000585669661364066,0.0492346310112461,0.0291131316702661,2.6279161898001,-0.000371048872259086,0
0.27,0.000962306228327204,0.000552467120928274,-0.0479592330612654,-0.027655970460406,-0.000954029704318261,-0.000566639673922077,0.0476531959903873,0.0281800221758848,2.62791376828993,-0.000318633802683926,0
0.28,0.000959301323535304,0.000550740281314554,-0.0477675245955968,-0.0275695365500556,-0.000951050423465159,-0.000564868992621972,0.0474837770689583,0.0280554213449249,2.62791153493016,-0.000300906037019392,0
0.29,0.000982695717193346,0.000564447193238945,-0.0489746027191062,-0.0282556959542679,-0.000974485225046998,-0.000578506743876481,0.0486745830438441,0.0287694461340889,2.62790947691988,-0.00031457257430427,0
0.3,0.00097680391480166,0.000561278972777042,-0.0486857238309014,-0.0280970952701138,-0.000968831721979404,-0.000574930489485401,0.0483945488795877,0.0285957008359272,2.62790775157574,-0.00029678296200913,0
0.31,0.000983217087177908,0.000564914847400254,-0.0490059687038597,-0.0282791062808431,-0.000975150833006371,-0.000578727464545136,0.0487104900662385,0.028785082562914,2.6279058243922,-0.000291812927969101,0
0.32,0.000983366183731638,0.000565075899531093,-0.0490161670704646,-0.0282871696814903,-0.000975365437521949,-0.000578776370306716,0.0487225775688448,0.0287899120859552,2.62790397016937,-0.000280126547844848,0
0.33,0.000983230052217973,0.000565082210985356,-0.0490121220193134,-0.0282874842134864,-0.000975305063840581,-0.000578652981676909,0.0487209147136105,0.0287861483605119,2.62790220135035,-0.000268658975987845,0
0.34,0.000983087284557072,0.000565081669693013,-0.0490076226243443,-0.028287455379241,-0.000975235412903777,-0.000578527261154771,0.0487187271671709,0.0287821616688786,2.62790051470463,-0.000257709241832634,0
0.35,0.000982950570467598,0.000565080861325421,-0.0490033025429504,-0.0282874090754219,-0.000975168458310674,-0.000578407020820839,0.0487166102509266,0.0287783435585773,2.62789890644774,-0.000247267712932314,0
0.36,0.000982820026389288,0.000565080077465529,-0.0489991729913896,-0.0282873627621468,-0.000975104513389615,-0.000578292215222971,0.0487145847896365,0.0287746950400996,2.62789737293798,-0.000237311443284698,0
0.37,0.00098269549894689,0.000565079329414067,-0.0489952318311944,-0.0282873369571705,-0.000975043514673221,-0.000578182701812516,0.0487126677036001,0.0287712039984361,2.6278959107013,-0.000227817910897767,0
0.38,0.00098257694564533,0.000565078616064396,-0.0489914821140013,-0.0282872906211275,-0.00097498544227672,-0.000578078440867178,0.048710824846564,0.0287678930959151,2.62789451642524,-0.000218765610544024,0
0.39,0.000982463594077384,0.000565077935831638,-0.0489878902121955,-0.028287267699583,-0.00097492991712544,-0.000577978757347515,0.0487090780597255,0.0287647112956407,2.62789318695119,-0.000210134035097183,0
0.4,0.000982355867399413,0.000565077287181623,-0.0489844820472333,-0.0282872213420755,-0.000974877147601791,-0.000577884017590373,0.0487073993651724,0.0287617040484895,2.62789191926717,-0.000201903630476116,0
0.41,0.000982252993209751,0.00056507666864893,-0.0489812235222419,-0.0282871983939252,-0.000974826754562974,-0.000577793546787352,0.0487058128903902,0.028758818497974,2.62789071050156,-0.000194055751415693,0
0.42,0.000982154775632732,0.000565076078837035,-0.0489781091720553,-0.0282871754329024,-0.000974778642151485,-0.000577707172343678,0.0487042956303082,0.0287560612601431,2.62788955791608,-0.000186572619227646,0
0.43,0.000982061214668357,0.00056507551641342,-0.0489751431302525,-0.0282871524586409,-0.000974732810743771,-0.000577624892352581,0.0487028496918635,0.0287534358075495,2.62788845889925,-0.000179437281525684,0
0.44,0.000981971961066146,0.000565074980106846,-0.0489723118396864,-0.0282871265617524,-0.000974689089072577,-0.000577546400824831,0.048701465951516,0.0287509316408602,2.62788741096176,-0.000172633573822875,0
0.45,0.000981887168203828,0.000565074468706129,-0.0489696267362065,-0.0282870801531729,-0.000974647552848931,-0.000577471829609408,0.0487001347791193,0.028748567247274,2.62788641172949,-0.000166146082909388,0
0.46,0.000981806063677952,0.000565073981055307,-0.0489670527499675,-0.0282870571449463,-0.00097460782282956,-0.000577400504346777,0.0486988772511249,0.0287462903940565,2.62788545893843,-0.000159960111937639,0
0.47,0.000981728800857468,0.000565073516052174,-0.0489646009730612,-0.0282870341253487,-0.000974569974686597,-0.000577332557037948,0.0486976784909594,0.0287441221408986,2.62788455043051,-0.000154061647128141,0
0.48,0.000981655030496409,0.000565073072645621,-0.0489622571838829,-0.0282870110955362,-0.000974533837087528,-0.000577267682015482,0.0486965315707107,0.028742050000695,2.62788368414762,-0.000148437326020397,0
0.49,0.000981584482811608,0.000565072649833814,-0.0489600109854764,-0.0282870114579009,-0.000974499277734355,-0.000577205642888182,0.0486954518199014,0.0287400533223766,2.62788285812685,-0.000143074407202851,0
0.5,0.000981517464538978,0.00056507224666024,-0.0489578806800063,-0.0282869884060611,-0.000974466447621969,-0.000577146705439523,0.048694407521681,0.0287381709556266,2.62788207049739,-0.00013796074144881,0
0.51,4.6737426684145,0.0276795757161294,6.31401969074418,-1.38028265845714,-0.197600343211963,4.6696456818299,-1.68297849887876,6.24016091496482,0.0482129759279291,14.8472504285859,1900.42610826061
0.52,4.64471685763793,0.0117672196117574,7.7665834005742,-0.577288227852618,-0.994864437401412,4.53693485805972,-2.24632961927052,7.45701566698635,0.218398025966892,31.6051387349471,1900.42610826061
0.53,4.67740814143322,0.0402189424338326,6.13340425106358,-1.99419689679303,-2.25770797094636,4.09664731247413,-4.74464763029004,4.36849949462362,0.512294234485082,48.6879746724071,1900.42610826061
0.54,4.61499241441969,0.0318317381276725,9.25558328901788,-1.56772681234747,-3.69439157290506,2.76597887749555,-8.37809398249773,4.23451657199915,0.935027188221917,66.9522120908312,1900.42610826061
0.55,4.65203742969008,0.0476748261447977,7.40484733966639,-2.35961015936852,-4.63507922686121,0.399707013955334,-7.5622264143704,-1.79227673247133,1.49502173635902,85.4840377248893,1900.42610826061
0.56,4.60537714030958,-0.00239074381163706,9.73932952005264,0.156834968623745,-3.76504581000607,-2.65215655056367,-8.05538048621647,-5.47631097818914,2.18396043721885,102.342375834441,1900.42610826061
0.57,4.66803417583553,-0.00718397511652782,6.60805355499606,0.402691169657243,-0.66292643285523,-4.62072756401942,-1.34702202169279,-6.48182564073507,2.99755806237815,120.09287918394,1900.42610826061
0.58,4.61421208111542,-0.0051047916636846,9.30078635742933,0.302653212458952,3.32344818449311,-3.20088602630567,6.48167817358017,-6.67713066276897,-2.33851762893959,137.807392215584,1900.42610826061
0.59,4.57975767315211,0.045672939633093,11.0252865993119,-2.23292421585533,4.38260819454291,1.33004202013911,9.84796797257309,5.43694969278679,-1.26617579369286,155.234203297535,1900.42610826061
0.6,4.62146990345732,0.0416419935695518,8.94147029959412,-2.02189784794924,0.331521781981923,4.60975177555818,-1.45690545664931,9.05071204472063,-0.0627835777524453,172.621626523027,1900.42610826061
0.61,4.60949142245498,0.0714571356071212,9.54227149939285,-3.51825577110665,-4.37748273907077,1.44573931434843,-10.1576215110565,-0.505761087047748,1.26730868636928,190.514154526905,1900.42610826061
0.62,4.52603796895769,0.0829835403413558,13.7168484022715,-4.08172864003186,-1.90489194718503,-4.10649395883689,-1.80940825426926,-14.1964249214771,2.72559460672744,207.698952770625,1900.42610826061
0.63,4.5735585036088,0.0451917872296543,11.342753268752,-2.17703171929398,4.19563804910002,-1.82101648661113,11.296083072326,-2.40749372703355,-1.97040648973621,224.967236552898,1900.42610826061
0.64,4.59845188394446,0.0101636841230424,10.100040616347,-0.420571028745227,1.17181558680501,4.4466516908735,2.14525453748848,9.878541562977,-0.255459236483077,242.517171914949,1900.42610826061
0.65,4.54976973853819,0.00323974765263091,12.536196886075,-0.0721341028389209,-4.54921330542007,-0.0712283052706023,-12.5333369710264,-0.277308611354026,1.58716439561575,260.025054315849,1900.42610826061
0.66,4.52218120547075,0.11747943803449,13.9176400725423,-5.78683779026583,1.71967303153485,-4.18409475730241,10.916728596625,-10.3929415252524,-2.7256649218078,277.479473558017,1900.42610826061
0.67,4.52511602115142,0.0458762307876184,13.7730266722368,-2.19420967188004,2.69465480379843,3.63560381804709,6.31271036117159,12.4362577849719,-0.627697773306393,294.832882216273,1900.42610826061
0.68,4.57503925769961,0.132669283242272,11.2790554695488,-6.5272863855844,-4.5769514546562,0.0100364300980507,-11.1001114940321,-6.8271578760602,1.59759388773249,312.131204538212,1900.42610826061
0.69,4.54623440102958,0.046579629669973,12.7214434059355,-2.20749321611432,3.25639608125852,-3.17274352146044,10.7263795975999,-7.18699724208955,-2.3329383517818,329.515393928768,1900.42610826061
0.7,4.50475043315522,0.0337479101929503,14.7978839351295,-1.58963080359005,-0.626981516605001,4.46103234288771,-3.74172393558086,14.4049920874392,0.147123170365989,347.104229825274,1900.42610826061
0.71,4.52589346357667,0.00324818273704985,13.7430404151406,-0.0482571017995817,-1.71134347398669,-4.18987180094813,-5.14273584576747,-12.7446363863674,2.7545427504117,364.404123872722,1900.42610826061
0.72,4.5286741094242,0.056851588914703,13.6063120541786,-2.70560741426007,3.27121838174281,3.1322917475036,7.81304992649559,11.4633454995421,-0.794537113446107,381.520056185963,1900.42610826061
0.73,4.48224793809199,0.0527236535043697,15.9300763683035,-2.52562906242765,-3.96798824254779,-2.0852807171149,-12.8121288434547,-9.79772880619156,2.06641776022438,399.042426226373,1900.42610826061
0.74,4.52426933425543,0.145345636172629,13.8314187006312,-7.12798649854607,4.31142125130103,1.37905226756218,10.6433656712837,11.3505551398583,-1.22910543382769,416.106327535827,1900.42610826061
0.75,4.4576399051566,0.0881442281783151,17.1654418718509,-4.28929005803428,-4.26669674598933,-1.29368535848937,-14.9997780111729,-9.38387252009414,1.88496239262428,433.549056416927,1900.42610826061
0.76,4.41883827238997,0.116220899433272,19.1080398026576,-5.65491347805218,4.09398731295428,1.66700535583209,15.2320710550228,12.8483167348467,-1.15781721908688,450.569027158097,1900.42610826061
0.77,4.44662537128086,0.117670337718074,17.7212382475774,-5.73946072661573,-3.64127972144473,-2.55487876250376,-10.8125866492353,-15.1681134097997,2.20908085234208,467.902404958046,1900.42610826061
0.78,4.4923676105424,-0.00531144705495112,15.4367273767864,0.405621502190719,2.4616576577943,3.75787659929686,8.81307302013572,12.6801744802673,-0.581110729338075,485.22357008384,1900.42610826061
0.79,4.41228045446644,0.0530650686954999,19.4436910133655,-2.51779609690753,-0.508805804816622,-4.38316681902105,0.494737703685574,-19.5997870400008,3.03805419494343,502.374689247619,1900.42610826061
0.8,4.47765403628819,0.113107277220508,16.1776989124106,-5.4728615071107,-2.04795777941385,3.98347183479266,-12.560391915409,11.5718066916084,0.500129795883258,519.450795062686,1900.42610826061
0.81,4.42121414975892,0.0325589947756151,19.0023907059427,-1.43680616541746,4.1556953747997,-1.50943386673204,18.3885593076224,-5.00161484805998,-1.91183587776265,536.600803072986,1900.42610826061
0.82,4.45867866241544,0.0678587370419033,17.1319038736352,-3.1968046307587,-3.91509621597153,-2.13458235787637,-13.3421541693907,-11.2119852079339,2.08517930351329,553.761862586935,1900.42610826061
0.83,4.40981053571869,0.0295039605432292,19.5780739290132,-1.27264163253493,0.360863325354168,4.39511969177605,0.202452592254132,19.6183487695233,-0.0752312755215174,570.931304820528,1900.42610826061
0.84,4.38892415052272,0.133500618598042,20.6252248838803,-6.5050935953572,3.69772021700918,-2.36798285697537,21.0390426646338,-5.0074772042129,-2.10997786399162,588.129069890034,1900.42610826061
0.85,4.43728354388794,0.094374773333064,18.2101326789155,-4.5584641647675,-3.47356187217571,-2.76274496956697,-11.0948708329857,-15.1424030102405,2.26396923283294,605.312166718278,1900.42610826061
0.86,4.43186554204715,0.145359071511936,18.4838820968544,-7.08852975776478,-1.91822283234454,3.99787226008133,-14.82497142244,13.1195035661022,0.48015316951099,622.378654352724,1900.42610826061
0.87,4.42826367285151,0.111682220901735,18.666828397711,-5.36801681959082,-2.81938274729754,-3.41658791764574,-7.28907187103956,-18.0037640026695,2.47688608370376,639.390318282886,1900.42610826061
0.88,4.3484788039448,0.106794681341861,22.6589940259302,-5.17312319204789,-3.45880097164896,2.63768247725921,-21.3845627336172,9.10448738366051,0.943833864969964,656.610392210654,1900.42610826061
0.89,4.39036891807445,0.130556455328085,20.5675061371297,-6.32390059236998,2.08143906706696,3.86781535687906,3.5485657828593,21.2231408676418,-0.463966406092899,673.5984611594,1900.42610826061
0.9,4.33777841736813,0.152218187733769,23.2001341383112,-7.42305921712099,4.24388801324665,-0.910443027258214,24.1422731445899,3.24016659888542,-1.74704671469209,690.641745649773,1900.42610826061
0.91,4.3995050039925,0.146978277946097,20.1168864950524,-7.13045582307178,0.887613865351893,-4.31154131609313,11.6441039045382,-17.8870726157166,-2.9051644948296,707.63436824144,1900.42610826061
0.92,4.36383764420155,0.0752911709770676,21.9033832262869,-3.57743459204335,-3.17394403761851,-2.99580156075858,-13.1667776813554,-17.8659508705161,2.34458067605268,724.738781169667,1900.42610826061
0.93,4.34084100033041,0.179671682060547,23.0563416632142,-8.7375521512478,-4.27722780645325,0.761908652783988,-24.0220774702967,-5.55693283185137,1.43588128817275,741.623244108201,1900.42610826061
0.94,4.39985270264376,0.149705854406019,20.1089342973332,-7.24790944061616,-2.55017713803829,3.58855294128872,-17.9610067950186,11.5889457994733,0.651844800611056,758.64022866393,1900.42610826061
0.95,4.3702483695915,0.110945259375883,21.592377036031,-5.32990568694347,0.144635947969699,4.36926310778489,-5.16327315502676,21.6328280866005,-0.00770993248102367,775.680741685673,1900.42610826061
0.96,4.35145388340898,0.049095929666275,22.5353603098441,-2.2453200013997,2.29014661676173,3.70037697856309,9.72008353251075,20.4549236694786,-0.542915334669654,792.672290533109,1900.42610826061
0.97,4.34610750613712,0.165876203959635,22.8060058095668,-8.09308165922877,3.64084359447138,2.37916441015289,13.9192854728762,19.7955895000254,-0.953840906198053,809.610339856895,1900.42610826061
0.98,4.29298687539832,0.109097743429925,25.4653500762423,-5.25070516911021,4.09639853251771,1.28885906628712,22.3867540766579,13.2244924738054,-1.24056254876442,826.549598218,1900.42610826061
