t,iq,id,vq,vd,ia,ib,va,vb,theta_e,omega,r
0,0,0,0,0,0,0,0,0,0,0,0
0.01,0.00117559289293476,0.000674195246651722,-0.0584722044435289,-0.0337881779332648,0.00106103461220074,-0.000843067869295542,-0.0527360016678179,0.0421847577760938,-1.72151683419496,-0.000881146693076512,0
0.02,0.00132914865742906,0.000762585689571705,-0.0661650516315111,-0.0382179709559759,0.00119957142703017,-0.000953520570799507,-0.0596761881874304,0.0477198064205078,-1.72152337930403,-0.000975103942116989,0
0.03,0.00135660399274207,0.000778303505493163,-0.0675294900444439,-0.0390056816123891,0.00122434874407495,-0.000973191087438005,-0.0609065465473296,0.0487038788125514,-1.72153015546881,-0.000971455499137219,0
0.04,0.00134311276457525,0.000770713092700304,-0.0668653778576333,-0.0386252944414618,0.00121214417681841,-0.000963668544796315,-0.0603067787594635,0.0482284621607492,-1.72153650459542,-0.000937944577062522,0
0.05,0.00135637439391198,0.000778320126510557,-0.0675265103908413,-0.0390065170831526,0.00122410680501892,-0.000973188699943577,-0.060902852251929,0.0487050363730732,-1.72154294624585,-0.000924624641188259,0
0.06,0.00135627960673706,0.000778338263939073,-0.0675259283167861,-0.0390074413933628,0.00122400425395023,-0.000973200087892655,-0.0609018319269188,0.048706245462422,-1.72154922970727,-0.000901632900142898,0
0.07,0.00138951902800563,0.000797404341255369,-0.0691763931798025,-0.0399629396564548,0.00125399722177801,-0.000997049537593617,-0.0623897747736103,0.0498991575384821,-1.72155531720528,-0.000904934658422621,0
0.08,0.00135611950865907,0.000778385439998562,-0.0675258654112851,-0.0390097902947369,0.00122382713553573,-0.000973237461924832,-0.0609008288431674,0.048709293616286,-1.7215613040391,-0.000857468492742815,0
0.09,0.00135590294992147,0.000778330334801082,-0.0675189305586119,-0.0390070332653043,0.0012236156683523,-0.000973157549341344,-0.0608941043943941,0.0487058792954593,-1.72156710115056,-0.000836157148998586,0
0.1,0.00135578359886332,0.000778327621807689,-0.0675167094506111,-0.0390068983421951,0.00122349258692958,-0.000973143845247948,-0.0608916538838007,0.0487057559289659,-1.72157274455288,-0.000815481077444691,0
0.11,0.0013556677402621,0.000778325121137834,-0.0675145627445444,-0.0390067692584218,0.00122337307216812,-0.000973130691364481,-0.0608892833410033,0.0487056403795885,-1.72157823840712,-0.000795353112569745,0
0.12,0.00135555490845433,0.000778322687032894,-0.0675124698751723,-0.0390066401932354,0.0012232566817088,-0.000973117878594109,-0.0608869731151171,0.048705524046966,-1.72158358667664,-0.000775758530551724,0
0.13,0.00141425226702172,0.000811981028476678,-0.0704235795625276,-0.0406934666645819,0.00127622644982123,-0.00101521855487319,-0.0635113853337579,0.0508108523897013,-1.72158902435446,-0.000800965782073365,0
0.14,0.00155217626773594,0.000891500308188406,-0.0773514781546544,-0.0446787021684223,0.00140063398084822,-0.00111456198451049,-0.0697617076180265,0.0557919505877107,-1.72159424146314,-0.000887772501170226,0
0.15,0.00135577984974868,0.000778627792025937,-0.0675339145896788,-0.0390219361039543,0.00122341789429717,-0.000973472596128532,-0.0609051087678448,0.0487248277891684,-1.7215993494945,-0.000718435713531527,0
0.16,0.00135512251138209,0.00077831419410978,-0.0675044806956234,-0.0390062323878256,0.00122281046833207,-0.000973069660479022,-0.0608781348626542,0.0487051719504545,-1.72160413884918,-0.000700462141233307,0
0.17,0.00135502283445622,0.000778311212781631,-0.0675025867192189,-0.0390060597477407,0.00122270783433906,-0.000973057438019595,-0.0608760612615973,0.0487050005246302,-1.72160880076831,-0.000683380946590906,0
0.18,0.00135492697650201,0.000778309144480594,-0.0675008002356903,-0.0390059630773799,0.00122260895913935,-0.000973046540031462,-0.0608740885390101,0.0487049128178796,-1.72161333914727,-0.000666753574924448,0
0.19,0.00135483367968212,0.000778307133228789,-0.0674990612528672,-0.0390058664167103,0.00122251272457482,-0.000973035935353083,-0.0608721686359958,0.048704824919996,-1.72161775726089,-0.000650566824732248,0
0.2,0.00135474282758123,0.00077830517522231,-0.0674973661200018,-0.0390057697643842,0.00122241901301223,-0.000973025606696356,-0.0608702977880854,0.0487047364764406,-1.7216220582966,-0.000634809016411016,0
0.21,0.00135465453661465,0.0007783032690473,-0.0674957227359504,-0.0390056731203586,0.00122232793673031,-0.000973015574011528,-0.0608684836532665,0.0487046488640724,-1.72162624535639,-0.000619468783181891,0
0.22,0.00135456857395174,0.000778301413332855,-0.0674941214692852,-0.0390055764843419,0.00122223926279989,-0.000973005804712366,-0.0608667165622599,0.0487045608204816,-1.72163032146095,-0.000604535059488756,0
0.23,0.00135448493959251,0.000778299606744801,-0.0674925642615672,-0.0390054798556342,0.00122215298855256,-0.000972996301130734,-0.060864998291381,0.0487044728167778,-1.72163428955045,-0.000589997073009007,0
0.24,0.00135440314512453,0.000778297847983793,-0.0674910286562395,-0.0390054155257155,0.00122206862852433,-0.000972986992141259,-0.0608633016471007,0.0487044135784951,-1.72163815248715,-0.000575844336880319,0
0.25,0.00135432381812759,0.00077829613578478,-0.0674895478818604,-0.0390053189096878,0.00122198680064036,-0.000972977974255306,-0.0608616690499328,0.048704324417867,-1.72164191305784,-0.000562066642138387,0
0.26,0.00136302627660647,0.000783293398126736,-0.0679230026196056,-0.039255751555278,0.00122983589959339,-0.00097923073804898,-0.0612523889656177,0.049017274108597,-1.72164556705971,-0.000555416227246087,0
0.27,0.00131384186941957,0.000755171236192376,-0.0654890019428708,-0.0378463912562658,0.00118543276832239,-0.00094404089191081,-0.0590576542157231,0.0472583557176059,-1.72164917662922,-0.000504508553010633,0
0.28,0.00127519257187291,0.000732808269875132,-0.0634946531167656,-0.0367256251134912,0.00115057992545198,-0.000916127660811603,-0.0572542241775531,0.0458508050989466,-1.72165268243058,-0.000462063304661014,0
0.29,0.00135380343014134,0.000778164237443566,-0.0674729244827757,-0.0389987084929974,0.00122147845473674,-0.000972786560614681,-0.0608455425870557,0.0486961471747707,-1.72165598427388,-0.000510342027939372,0
0.3,0.00135267712740011,0.000777565491901858,-0.0674191031397619,-0.0389687058270036,0.00122045200672721,-0.000972029014208686,-0.0607966953121778,0.0486585793167003,-1.72165899021398,-0.000498513545134069,0
0.31,0.00135389211924316,0.00077828490505776,-0.0674813712776352,-0.0390047694975489,0.00122154195673997,-0.00097292677623415,-0.0608526799473519,0.048703786878354,-1.72166219739202,-0.000487747622722935,0
0.32,0.00135383002179883,0.000778285471691305,-0.0674803236249289,-0.0390047718549795,0.00122147744067374,-0.000972921818695991,-0.0608514917197004,0.0487038218158634,-1.7216653207792,-0.00047630717964826,0
0.33,0.00135376580603094,0.000778284092522073,-0.0674791163355274,-0.0390047075528575,0.00122141120336862,-0.000972914517589871,-0.0608501597190777,0.0487037618143641,-1.72166836140115,-0.000465167184321295,0
0.34,0.00135370333649166,0.000778282744545915,-0.0674779424097547,-0.0390046432519896,0.00122134676621439,-0.000972907410982274,-0.0608488646281241,0.0487037019182051,-1.72167132144783,-0.000454322386364508,0
0.35,0.00135364249676565,0.00077828143224966,-0.0674767974202674,-0.0390045789527199,0.00122128401136197,-0.000972900488449944,-0.0608476019656795,0.0487036415928112,-1.72167420305466,-0.000443764970858243,0
0.36,0.00135358328685292,0.000778280154703968,-0.0674756827829757,-0.0390045146548968,0.00122122293692499,-0.000972893751640887,-0.0608463730303155,0.0487035811778612,-1.72167700829998,-0.000433487322313548,0
0.37,0.00135352570675346,0.000778278910989257,-0.0674745998684935,-0.0390044503578884,0.00122116354106891,-0.000972887202144787,-0.0608451790785539,0.0487035210024181,-1.72167973920754,-0.000423482027028376,0
0.38,0.00135346964005197,0.000778277700210569,-0.0674735441802582,-0.0390043860621294,0.00122110570691553,-0.000972880824009699,-0.0608440155688679,0.0487034605113872,-1.72168239774712,-0.000413741867759142,0
0.39,0.00135341508674843,0.000778276521495862,-0.0674725169747799,-0.0390043217673161,0.0012210494327269,-0.000972874618739365,-0.0608428836500993,0.0487034000104795,-1.72168498583628,-0.000404259818517009,0
0.4,0.00135336155844118,0.000778275373996381,-0.0674714951336902,-0.0390042897402344,0.00122099423395832,-0.000972868514382118,-0.0608417555252463,0.0487033680387907,-1.72168750534245,-0.000395029039497931,0
0.41,0.00135330991551884,0.000778274256886504,-0.0674705228187342,-0.0390042254457963,0.00122094095957586,-0.000972862641694002,-0.0608406844665326,0.0487033075437762,-1.72168995808247,-0.000386042872149935,0
0.42,0.00135325966957914,0.000778273169361738,-0.0674695768425725,-0.0390041611521126,0.00122088912512277,-0.000972856928646116,-0.0608396426134036,0.0487032470495458,-1.72169234582612,-0.000377294834369867,0
0.43,0.00135321033222194,0.000778272110638927,-0.0674686339391067,-0.0390041291222098,0.00122083824618862,-0.000972851303166971,-0.0608386020302606,0.0487032150601453,-1.72169467029533,-0.000368778615827886,0
0.44,0.0013531627638328,0.000778271079955787,-0.0674677382465351,-0.0390040648285248,0.00122078917186242,-0.00097284589590677,-0.060837615972143,0.0487031545187454,-1.7216969331672,-0.0003604880734138,0
0.45,0.00135311647601098,0.000778270076570308,-0.0674668663728293,-0.0390040005351386,0.00122074141781456,-0.000972840634723496,-0.0608366563832435,0.0487030939060492,-1.72169913607379,-0.000352417226808106,0
0.46,0.00135307098035786,0.000778269099759344,-0.0674659950625187,-0.0390039685022545,0.00122069449975734,-0.000972835447436495,-0.0608356953451867,0.0487030617165727,-1.7217012806041,-0.000344560254167157,0
0.47,0.00135302713725595,0.000778268148819785,-0.0674651683058945,-0.0390039042086609,0.00122064926689365,-0.00097283046459823,-0.0608347859725375,0.0487030008699323,-1.72170336830552,-0.00033691148792338,0
0.48,0.00135298408632367,0.000778267223067162,-0.0674643441226041,-0.0390038721731292,0.00122060486725613,-0.000972825558040294,-0.0608338769893334,0.0487029689324747,-1.72170540068345,-0.000329465410696418,0
0.49,0.00135294208312898,0.000778266321834001,-0.0674635362506923,-0.0390038401360954,0.00122056155218011,-0.000972820767326686,-0.0608329867557217,0.0487029361659926,-1.72170737920438,-0.000322216651315611,0
0.5,0.00135290173248427,0.000778265444471683,-0.0674627758896874,-0.0390037758411507,0.00122051991831144,-0.000972816184498741,-0.0608321508965673,0.0487028754582948,-1.72170930529517,-0.000315159980942991,0
0.51,4.54343805024915,-0.000287015660461867,12.8299860546332,0.018538965947712,-0.274707717648425,4.53512569491676,-0.756419170331167,12.8076819094673,0.0604362489228946,18.5676697103216,1055.40725073486
0.52,4.48345496441278,-0.0413432197702899,15.8312683623222,2.08121393934327,-1.24841407079993,4.30633718925578,-2.26345270186504,15.8062421621206,0.272945634893058,39.4291491359873,1055.40725073486
0.53,4.43470793241478,0.0586099709771335,18.2708116804451,-2.92267823265217,-2.59856421059555,3.59409705182434,-13.2454047728851,12.9199016991748,0.63921728947242,60.557570028376,1055.40725073486
0.54,4.42025716290153,-0.00414739841536038,18.9956230196612,0.228747021275346,-4.05982377809374,1.74829101637014,-17.3489605036992,7.7394824469023,1.16322653763432,82.6248444287255,1055.40725073486
0.55,4.52779879012671,0.0705649616075887,13.6208446484458,-3.51698465917153,-4.36564026967347,-1.20296564102428,-12.0864365427312,-7.19823879351562,1.85526022854948,106.255164751921,1055.40725073486
0.56,4.55880890167178,0.0411551167717916,12.0726330262559,-2.03642706276068,-1.91942942117354,-4.1352415942399,-3.12895598698423,-11.836601615333,2.71605010168953,128.212076638918,1055.40725073486
0.57,4.56822503646549,0.0424462333308944,11.6041543039918,-2.09027930043049,2.50868809000588,-3.81797927359183,8.19827157760716,-8.47431459201617,-2.55097045211766,149.099526375607,1055.40725073486
0.58,4.43713020322719,-0.00366242743596756,18.1613342952192,0.214156249933915,4.35244578116007,0.862759280348576,17.859087809896,3.30649495395296,-1.37593443039652,171.941894261926,1055.40725073486
0.59,4.43033111606346,0.0399275328783553,18.5038065275925,-1.95926968670761,0.194283361197002,4.42624920010203,-1.3132929870686,18.5608419864494,-0.0348532271404151,193.477739132468,1055.40725073486
0.6,4.42225775069157,-0.0566132998219162,18.9100221419041,2.88356213081949,-4.40208281573788,0.425717703007103,-18.4830794995453,4.92743748647176,1.46158668845303,215.349938388838,1055.40725073486
0.61,4.42207274650483,0.0503702999555175,18.9218537698026,-2.47285492190592,-0.134886865177696,-4.42030203448825,2.11072111039388,-18.9656641841177,3.1224769762506,237.174452907813,1055.40725073486
0.62,4.4018923971834,-0.0228031404922668,19.9335472262692,1.18808472657441,4.28304877719683,1.01620363694985,19.6869737225516,3.34378767073925,-1.34302232707616,259.356853354783,1055.40725073486
0.63,4.34944650738187,0.0316296876984539,22.5584745478619,-1.51784314746471,-2.56017929674759,3.51627179356564,-14.6308503836809,17.2373675135499,0.636605762322167,280.538346355547,1055.40725073486
0.64,4.44331197885057,0.0315683226367158,17.8679296165681,-1.51999398806503,-1.61813432379418,-4.13831598727674,-4.96894288184745,-17.2302901061858,2.77596239569586,302.773037476563,1055.40725073486
0.65,4.38823538526141,0.024351647203108,20.624452247167,-1.16383254434292,4.11280991461588,1.53035858720079,18.877543768729,8.38813912299177,-1.20902513770415,324.785314968943,1055.40725073486
0.66,4.34673860038378,0.039577673662748,21.5721963246386,-1.90675884301307,-4.11154828733617,1.41098317963818,-21.0695208106558,5.00706264825034,1.24931890260739,346.200010047736,1055.40725073486
0.67,4.34091826803378,0.11339297541911,17.5915605120992,-5.59404265016728,2.79322495240306,-3.32480431633152,15.8512533732883,-9.46013112586468,-2.41674823029006,367.386695966562,1055.40725073486
0.68,4.21963648375848,0.122856312133849,19.377651775218,-6.06853698568722,-1.35435383491115,3.998268552556,-12.4370491177939,16.0511787327238,0.355711381831532,388.415511255751,1055.40725073486
0.69,4.1616968843846,-0.0134237633809848,18.0699738240271,0.76261346874575,0.588561626452203,-4.11989033431568,1.74249974787271,-18.0019228954132,-3.00291974331017,409.025219922791,1055.40725073486
0.7,4.08562414536873,0.0355930618052447,17.7226868156134,-1.69167240525565,-0.254349470187779,4.07785456708351,-2.94473821877378,17.5580152726301,0.0710042170673157,429.248375722332,1055.40725073486
0.71,4.02533247924073,0.107856271435841,16.6453593804825,-5.30857104841825,0.494826039657438,-3.99625846689066,7.73615042970249,-15.665276633706,-2.99160941099572,449.028099688296,1055.40725073486
0.72,3.90595239785959,0.0354371639373259,18.6035851431005,-1.67433929383427,-1.38846071397584,3.65101311592806,-8.32980992314198,16.7185842370636,0.372476802341896,468.404926841539,1055.40725073486
0.73,3.73642991485722,-0.00595141493828111,23.1123891762907,0.401480720401901,2.51148781571932,-2.76647300356847,15.2102957839703,-17.4066258180415,-2.40606107078878,487.435234123115,1055.40725073486
0.74,3.70093980455971,0.0716941301443139,20.9206457807835,-3.52399955933784,-3.47233392503466,1.2825726483615,-20.9181862702469,3.53856975944853,1.23634095324404,506.255800630426,1055.40725073486
0.75,3.64969681262555,-0.0534421851161424,19.5222379289704,2.7539815505295,3.46891099454091,1.13569335790622,19.4586356899487,3.17233119674482,-1.26904442471564,524.555642068277,1055.40725073486
0.76,3.57136496915861,0.00969275203550857,19.6413868005744,-0.39081096715728,-1.72260851699379,-3.1284759212044,-9.08418537921673,-17.4187940069872,2.6409858290718,542.233431430414,1055.40725073486
0.77,3.47370531999118,0.100855730897905,20.8077983713284,-4.94413066085898,-1.25006403867486,3.24255153047749,-12.6047716468812,17.277981154738,0.396986342307163,559.627593756618,1055.40725073486
0.78,3.46081917657709,0.107537649735566,17.665462540945,-5.31688435387897,3.40635066830906,-0.620974108626752,18.259691228145,2.63087481094349,-1.7200522648434,576.978191023165,1055.40725073486
0.79,3.29440184157731,0.0723180198819574,22.3299197734292,-3.52657645371896,-1.84232472942746,-2.7320602081813,-9.10874158080285,-20.690405636088,2.57024801322452,593.522794247216,1055.40725073486
0.8,3.26599498587335,0.0897115706623259,20.1663418738297,-4.41299553664095,-2.03160235178305,2.55878160418003,-16.3480748147486,12.6054085229307,0.698516314127945,610.005320276351,1055.40725073486
0.81,3.22633560272972,0.0261375445740804,18.5219586213631,-1.21970450010542,2.81794002414482,1.57134929694209,15.5006427395531,10.2117924430436,-1.05401793176584,626.028127167192,1055.40725073486
0.82,3.11127018155282,0.030372888931946,20.8204170983114,-1.4188098765905,1.32873616693349,-2.81342937599022,10.3516976887175,-18.1202964814313,-2.69060119530303,641.689902410268,1055.40725073486
0.83,2.99122955346241,-0.0101281890539949,23.2893499062873,0.597411457111447,-2.62098704754698,-1.44152132079668,-20.7305811312283,-10.6298506794843,2.07024727470744,657.065191814383,1055.40725073486
0.84,2.9554150105131,0.0771755261349105,21.6912881524263,-3.80298425562569,-1.74867866472716,2.38381141740037,-16.2889027288001,14.8204695894501,0.65900626346584,672.189896408331,1055.40725073486
0.85,2.9098757157786,0.105708313025917,20.5806840514561,-5.1910426042328,1.82923777653773,2.26548892859976,8.18473252456318,19.5837083527655,-0.642947328155757,686.748912536973,1055.40725073486
0.86,2.77879040187037,0.0393376508753511,23.7853970472381,-1.90096189412043,2.66942345557948,-0.772917824290146,23.4411157227467,-4.45789888741974,-1.83847841175255,701.237660428596,1055.40725073486
0.87,2.7905531361524,0.0327128579805605,19.9828138527112,-1.55356175704875,0.553629334342709,-2.73527905284315,5.71247692129876,-19.2118195657959,-2.93016518287396,715.198576205749,1055.40725073486
0.88,2.65116590859774,0.0615386051796745,23.7041086111798,-2.97899601960131,-1.90517877354891,-1.8446575605399,-14.5211177174954,-18.9709336241011,2.36326393211471,728.863636339978,1055.40725073486
0.89,2.65565311013284,0.0629931863310755,20.2716290247788,-3.07564954641,-2.63680692048405,0.322041685143078,-20.4750946717326,-1.08123153587693,1.47298097448099,742.393578129176,1055.40725073486
0.9,2.63851738159663,0.044145717828493,18.0176559129919,-2.150156442254,-1.62446164491285,2.0796266928459,-12.999494661104,12.6598671352059,0.679859018592538,755.540850436623,1055.40725073486
0.91,2.42714849047659,0.0539080776733594,25.525402724723,-2.6356991502264,0.0979980002233408,2.42576838705047,-2.17149345273757,25.5690772311892,-0.0181699833886455,768.327570554691,1055.40725073486
0.92,2.42379029081149,0.0361041998078475,22.6471333804664,-1.69924693286321,-2.1419998023278,1.13485670192474,-20.940721468152,8.79012371271069,1.09847937079839,780.775799761856,1055.40725073486
0.93,2.47495962977233,0.107943852841227,17.1020077055428,-5.30300074328036,-1.27465316025001,2.12422606269522,-13.8540896562542,11.343045633345,0.584046945555637,792.952793755775,1055.40725073486
0.94,2.25228407694066,0.068979932850848,25.2833832075023,-3.3681805423971,-0.286253981510755,2.23508399225751,-7.30431956798743,24.4385151396788,0.15799668195159,804.91031329128,1055.40725073486
0.95,2.23391631588603,-0.00419152986026197,23.3020410114591,0.289916991812017,0.399447451781593,2.1979175163253,4.4947964655626,22.8662627443802,-0.181653216125896,816.582743570506,1055.40725073486
0.96,2.3328813633826,0.0186250556136032,15.5102675680554,-0.855290537157768,1.00417098171183,2.10578322431402,5.78916206775387,14.4147675835895,-0.43698407474402,827.974429114985,1055.40725073486
0.97,2.20559895979736,0.129579377458623,19.0611157463129,-6.42402586442327,1.36954346355382,1.73372670509477,5.65202759296084,19.3041142218317,-0.609895082673243,839.099631157239,1055.40725073486
0.98,2.08898358624534,0.0614712323661243,22.1394156583288,-3.01504402422594,1.39644735753078,1.55485237680506,12.0010595990729,18.8472487291852,-0.702358751126337,849.921110321112,1055.40725073486
