t,iq,id,vq,vd,ia,ib,va,vb,theta_e,omega,r
0,0,0,0,0,0,0,0,0,0,0,0
0.01,0.000708898542478838,0.000379788504210482,-0.0341548202164939,-0.0190035729157406,-0.000778223582725504,-0.000202841087427909,0.0379740288333703,0.00925530451942302,2.31760231682758,-0.00374042684392425,0
0.02,0.000829362339442038,0.000441907771005975,-0.0402800211680802,-0.0221118645862233,-0.000908831422659528,-0.000239060271368745,0.0445808423216278,0.0111338743784286,2.31757516453724,-0.00362148769043704,0
0.03,0.000865439837308411,0.000465825235734705,-0.0422292413215486,-0.0233086278321907,-0.000951560544547248,-0.000245991447633141,0.0468245516992075,0.0115785280662701,2.3175510778187,-0.00308013359642799,0
0.04,0.000835028597703229,0.000456066124693075,-0.0409678688935685,-0.0228203015957671,-0.000922617135525569,-0.000232479440616529,0.045567337862092,0.0110792674290471,2.31753261773497,-0.0023077451251303,0
0.05,0.000846668172049038,0.000467551884627973,-0.0416659721555203,-0.0233950087232945,-0.000938964634350437,-0.000231942177749497,0.0464702155187961,0.0111309810198501,2.31751781392309,-0.0019101672193757,0
0.06,0.000841553684246103,0.000468955421024455,-0.0415388639367646,-0.0234652548984756,-0.000936167014471628,-0.000227427156231819,0.0464247711264031,0.0109925443127859,2.31750607134225,-0.00150646557396526,0
0.07,0.000851976569103888,0.000478573418151478,-0.0421194858689774,-0.0239464946141271,-0.00095035145665889,-0.000227439441807148,0.0471778734376483,0.0110333110203894,2.31749732551744,-0.00129341891343801,0
0.08,0.000832892343372644,0.000470301308554182,-0.0412858656313788,-0.0235325847021723,-0.000930727923472621,-0.000220541399616703,0.0462849939484126,0.0107705421819231,2.31749000811055,-0.000943969721029949,0
0.09,0.000826723664670653,0.000469287849040927,-0.0410459867061886,-0.023481876345029,-0.000925513300413908,-0.000217090381502472,0.0460745528029111,0.0106445819729853,2.31748463719413,-0.000735743005561814,0
0.1,0.000823344920218294,0.00046916302842375,-0.0409257822670816,-0.0234756377802908,-0.000922949594044702,-0.000214883344495874,0.0459821354858755,0.0105673288735884,2.31748055821664,-0.000585645864424,0
0.11,0.000820970436642438,0.000469147151546599,-0.040843797854442,-0.0234748394331451,-0.000921196735545577,-0.000213279352177689,0.0459214539959165,0.0105120869710722,2.31747743762275,-0.000472110071299844,0
0.12,0.000819184558385985,0.000469144747777638,-0.0407825614177415,-0.0234747275104091,-0.000919884869754384,-0.000212065936591298,0.04587645870663,0.0104704672302,2.31747504656375,-0.00038532378416412,0
0.13,0.000855078196796074,0.000489303319915582,-0.0425105564889973,-0.0244833967616143,-0.000959921317507115,-0.000221647300258405,0.0478298389655184,0.0109036982039782,2.31747253452816,-0.000526702617055214,0
0.14,0.000877199896465279,0.000503073782429466,-0.0437287769119409,-0.0251724374787018,-0.000985510977531413,-0.000226563461510599,0.0491919751504593,0.01122528928937,2.31747037648519,-0.000594506584009991,0
0.15,0.000824173444076308,0.000473295828809224,-0.0410830727393466,-0.0236824308294168,-0.000926367268031635,-0.000212401723647477,0.0462381599541138,0.0105218325283358,2.31746856138425,-0.00021047632829139,0
0.16,0.000815564551481671,0.000469651162689474,-0.0406793259068953,-0.0235000684031138,-0.000917573389077183,-0.000209229127767829,0.0458179732010097,0.0103814306789569,2.317468071695,-0.000141947913699986,0
0.17,0.000814077259759647,0.000469205041615823,-0.0406109937675701,-0.0234777287952834,-0.000916178829104579,-0.000208546179624669,0.0457526499301415,0.0103514051483081,2.31746784018586,-0.000125450870523866,0
0.18,0.00081375251688364,0.000469150410333601,-0.0405970716836234,-0.0234749969798846,-0.000915903409540181,-0.000208365569716586,0.0457405779163619,0.0103439472334343,2.31746768567835,-0.000118554132842294,0
0.19,0.000813633714761725,0.000469143701715088,-0.0405925313068457,-0.0234746626516157,-0.000915811681694183,-0.000208289698085075,0.0457370196011345,0.0103411035441026,2.31746757090554,-0.000114184764025938,0
0.2,0.000813563458080237,0.000469142863707781,-0.0405900251781337,-0.0234746221404002,-0.000915759565559266,-0.000208242514818936,0.0457351536067913,0.0103394271194926,2.31746748351285,-0.000110981847718158,0
0.21,0.000813512875617973,0.000469142748180185,-0.0405882507308813,-0.0234746165083419,-0.000915722375826822,-0.000208208182779545,0.0457338481106389,0.0103382229904185,2.3174674166172,-0.000108550065929843,0
0.22,0.000813474574977127,0.000469142724106216,-0.0405869050373859,-0.02347461667038,-0.000915694259242086,-0.000208182139740915,0.0457328610735896,0.0103373065330778,2.31746736535462,-0.000106689759445168,0
0.23,0.000813445354730132,0.000469142713544929,-0.0405858725455312,-0.0234746153577697,-0.000915672813931957,-0.000208162265144914,0.0457321027867246,0.0103366044319109,2.31746732606283,-0.000105264374822016,0
0.24,0.000813423002988361,0.00046914270641508,-0.0405850757411209,-0.0234746154856702,-0.000915656410208354,-0.000208147061515216,0.045731518367122,0.0103360617717857,2.31746729594491,-0.000104171870961625,0
0.25,0.000813405889936068,0.000469142701068045,-0.0405844583280217,-0.0234746156023737,-0.000915643851188458,-0.000208135421129796,0.045731065532182,0.0103356412838979,2.31746727285849,-0.000103334450178284,0
0.26,0.000820939186621197,0.000473294970494574,-0.0409408303191758,-0.0236823825956522,-0.000923993139242922,-0.00021020455717644,0.0461337402024644,0.010425202518988,2.31746738340738,-0.000153223129251426,0
0.27,0.000802351562734634,0.000462481706380168,-0.0400629203437548,-0.0231413216827599,-0.000903006406258253,-0.000205515909884312,0.0451219109138788,0.0102260212778479,2.31746695681624,-2.52531646596847e-05,0
0.28,0.00080194485685701,0.000462272462953614,-0.0399022446834394,-0.0231308520710915,-0.000902565780600502,-0.000205393269445757,0.044996871173948,0.0101245756882407,2.31746697748653,-2.34038871613385e-05,0
0.29,0.000811576620014419,0.000468301830368202,-0.0404979912319561,-0.0234325426110259,-0.000913730142456841,-0.000207510099142278,0.0456390272135106,0.0103077903570832,2.3174672248862,-9.055110136556e-05,0
0.3,0.000801816517674574,0.000463565965547051,-0.040023225345027,-0.0231955792792606,-0.000903349839557671,-0.000204358018684073,0.0451296135987838,0.0101593032016836,2.31746840413818,-6.78358675938438e-05,0
0.31,0.000812215057674198,0.000468460361597205,-0.0405172961658305,-0.023440482078659,-0.000914306169053653,-0.000207828389617294,0.0456585771332697,0.0103151259243314,2.31746833919157,-0.00012980321895634,0
0.32,0.000813709390085003,0.000469059349626808,-0.0405904623458572,-0.0234704560012913,-0.000915809820248374,-0.000208403498342691,0.0457326383788897,0.0103428103175445,2.31746810713908,-0.000131648331939978,0
0.33,0.000813821608613319,0.000469132620502422,-0.0405977931451396,-0.0234741046299483,-0.000915941992121536,-0.000208425750169866,0.0457404991330662,0.0103451020048755,2.31746790018398,-0.000125778688130789,0
0.34,0.000813742679409562,0.000469141556571794,-0.0405956225972278,-0.0234745544900694,-0.00091589016514472,-0.00020836543328114,0.0457392132852615,0.0103432901249625,2.31746773690721,-0.000120117313211442,0
0.35,0.000813655891834488,0.000469142625869932,-0.0405927110767767,-0.0234746100477227,-0.000915827219573967,-0.000208305587089084,0.0457371154006927,0.0103412660868499,2.3174676110107,-0.000115592294113502,0
0.36,0.000813585169531518,0.000469142738018563,-0.0405902736408922,-0.0234746160991352,-0.000915775408964879,-0.000208257381747664,0.0457353315445235,0.0103396017213819,2.31746751438931,-0.000112094154271462,0
0.37,0.000813530221499666,0.00046914273738823,-0.0405883626490272,-0.0234746162966252,-0.000915735094642162,-0.000208219993704082,0.0457339298646898,0.0103383002439649,2.31746744030714,-0.000109408009009718,0
0.38,0.000813488079153203,0.00046914272630559,-0.0405868892845484,-0.0234746164668096,-0.0009157041683979,-0.000208191326785049,0.045732849185705,0.0103372968138465,2.31746738351821,-0.00010734824773834,0
0.39,0.000813455715693765,0.000469142716512605,-0.0405857493110389,-0.0234746166160996,-0.000915680417519516,-0.000208169312875281,0.045732013049004,0.01033652044438,2.31746733998728,-0.000105769260822507,0
0.4,0.000813430919230238,0.000469142708847275,-0.0405848683800084,-0.0234746167492231,-0.000915662219795785,-0.000208152446209419,0.0457313669214742,0.0103359204930671,2.31746730661957,-0.000104558902369256,0
0.41,0.000813411943532798,0.000469142702951873,-0.0405841870334426,-0.0234746168699067,-0.000915648293826269,-0.000208139538838337,0.0457308671907594,0.0103354564647859,2.31746728104219,-0.000103631124435361,0
0.42,0.000813397391617583,0.000469142698430421,-0.0405836567962892,-0.0234746169811379,-0.000915637614399227,-0.000208129640556451,0.0457304782992468,0.0103350953499346,2.31746726143639,-0.000102919955240148,0
0.43,0.000813386215746697,0.000469142694964005,-0.0405832416168301,-0.0234746170851551,-0.000915629412597072,-0.000208122038698363,0.045730173802572,0.0103348125968119,2.31746724640815,-0.000102374823339288,0
0.44,0.00081337760101289,0.000469142692307308,-0.0405829133157244,-0.0234746171836972,-0.000915623090371408,-0.000208116178980747,0.0457299330306306,0.0103345890158617,2.3174672348884,-0.000101956963906107,0
0.45,0.000813371081754874,0.000469142690270585,-0.0405826582037308,-0.0234746172777639,-0.000915618305989913,-0.000208111744516206,0.0457297459452946,0.0103344152711772,2.31746722605825,-0.000101636662525036,0
0.46,0.000813365959480718,0.000469142688709425,-0.0405824487462265,-0.0234746173688454,-0.000915614546824312,-0.000208108260420405,0.0457295923449222,0.0103342726314451,2.31746721928956,-0.000101391142221755,0
0.47,0.000813362117775101,0.00046914268751274,-0.0405822847542239,-0.0234746174571921,-0.000915611727455778,-0.000208105647265323,0.0457294720959465,0.0103341609461279,2.3174672141014,-0.000101202943786373,0
0.48,0.000813359207392058,0.000469142686595375,-0.0405821531203915,-0.0234746175435473,-0.000915609591572887,-0.000208103667567618,0.045729375582512,0.0103340712952968,2.31746721012435,-0.000101058684223289,0
0.49,0.000813356995500946,0.000469142685892209,-0.0405820454777202,-0.0234746176284049,-0.000915607968303239,-0.000208102162977939,0.0457292966668749,0.0103339979827997,2.31746720707578,-0.000100948105083059,0
0.5,0.00081335524927112,0.000469142685353333,-0.0405819527751559,-0.0234746177122682,-0.000915606686771028,-0.000208100975196183,0.0457292287085584,0.010333934850892,2.31746720473905,-0.0001008633429639,0
0.51,4.69089058175861,0.0427931236481813,5.45636923221777,-2.13074772874457,-0.775564418546793,4.62653061528262,-3.04926343703388,5.00140416017454,0.175212189839375,53.9584868176887,3520.1503923549
0.52,4.67295320566617,0.0264635464863568,6.35436474400576,-1.29895780306404,-3.31727786044494,3.29133097367011,-5.44574583676911,3.52265453249623,0.794987438988402,115.403235595363,3520.1503923549
0.53,4.59907903201835,0.0542478147281582,10.0493953730623,-2.68016322278581,-4.40056664121885,-1.33771596549696,-8.77011237847559,-5.59095261416234,1.87770190161917,181.301925542004,3520.1503923549
0.54,4.6424426921467,0.0120801034416056,7.88279128244641,-0.562041777814886,1.4013254058897,-4.4259131470888,2.93434869301405,-7.33783940342313,-2.83235813503693,246.172910762823,3520.1503923549
0.55,4.56041105828979,0.0425872104184406,11.9860539486099,-2.06278584897281,3.31439560326398,3.1327215765413,7.20264694605805,9.80012508533182,-0.804231631409306,308.450491915214,3520.1503923549
0.56,4.55233629306726,0.044658617302995,12.3916602848194,-2.16108385214426,-4.52192150958467,-0.527243756181384,-12.0222820307256,-3.69976523634413,1.69667922878376,371.92864159649,3520.1503923549
0.57,4.58029552337902,0.0535833218310368,10.9957961553417,-2.60966094849267,4.57033546421143,-0.306613761001783,11.1232066959902,1.99803307134611,-1.62608562404642,435.925707002456,3520.1503923549
0.58,4.51048253577659,0.0883608223265826,14.4886913949979,-4.34755612108536,-4.41646492057889,-0.920379240185245,-13.1531928607979,-7.47107355954466,1.7958405925529,498.926525368916,3520.1503923549
0.59,4.54404890686219,0.0613741900654023,12.8127907291388,-2.98573602949622,2.63503477416404,3.7025314310763,4.83189221817525,12.2366271291755,-0.605019360460088,561.420507040212,3520.1503923549
0.6,4.52177950880116,0.0477522275812373,13.9287702691052,-2.28270702911091,2.49230963631436,-3.77321651620837,9.69043462621495,-10.2624007593407,-2.54729286251738,623.507554901232,3520.1503923549
0.61,4.47660154192443,0.108111456163053,16.1903611874367,-5.26792880929107,-3.55104867258659,-2.72794845571446,-9.28817615920532,-14.2691503935934,2.24999551510714,685.112742452962,3520.1503923549
0.62,4.38021303387662,0.0534736580419943,21.0126177623554,-2.57705507932158,-4.09464875515679,1.55659154120147,-20.6172008553002,4.80649009162806,1.21972333970137,747.936461931967,3520.1503923549
0.63,4.40639860689822,0.113067876693268,19.7062912169157,-5.50493332393815,-2.55608938985212,3.59103607037021,-16.2370998711287,12.4498510915548,0.644254039908444,809.26314630174,3520.1503923549
0.64,4.34149673044753,0.0622897009502272,22.9544926375957,-3.00024779207504,-2.10611031798522,3.79694261160308,-14.0236785698346,18.4186497451156,0.520780201569258,871.525069355213,3520.1503923549
0.65,4.38921930767601,0.0857870020078673,20.5715258003714,-4.10591959376341,-3.23788912228855,2.96457072311572,-18.1540921111841,10.5107178196563,0.848978249157201,932.609036308498,3520.1503923549
0.66,4.32800331210847,0.141291591306711,23.6356508661321,-6.86349584755132,-4.32901038278728,-0.106042864520958,-23.2052303098686,-8.20175916380152,1.62792161280567,993.72520015619,3520.1503923549
0.67,4.32529167843732,0.0823970809657433,23.7746474309338,-3.90509121292023,-1.29774862006982,-4.12683727588303,-2.95184352109601,-23.9117171627928,2.8559657662776,1054.96900147462,3520.1503923549
0.68,4.23812670795197,0.0871075765711792,28.1364646234873,-4.13041557908814,4.15384152938952,-0.845521301488513,28.4210978270617,-0.980904006167351,-1.75105416449398,1116.09574051903,3520.1503923549
0.69,4.2148912281229,0.128084084245436,29.3018621302403,-6.26478987332971,-1.41357141135486,3.97284903596205,-16.4923858617495,25.0169527529583,0.372218690272485,1177.48360817756,3520.1503923549
0.7,4.28133565176544,0.0929073414071194,25.9834368781402,-4.45311640648814,-0.941202517332366,-4.17763145317204,-0.795093678711302,-26.3502763509627,2.94169389672034,1238.02700551686,3520.1503923549
0.71,4.22773655352782,0.167928789112397,28.6672628672979,-8.1392090098549,1.52102275190485,3.94822064130614,1.53047369091023,29.760986776152,-0.328020238492322,1298.37149124799,3520.1503923549
0.72,4.23771810034247,0.0883611961820443,28.1721817249628,-4.20618907294192,-0.139994330244977,-4.23632670912669,3.86257812738231,-28.2213454652951,3.12940662052889,1359.03086676261,3520.1503923549
0.73,4.14766337078775,0.118629589363418,32.6790188356839,-5.76687793335752,-2.7276570322686,3.12683090862978,-26.4130020360431,20.0880182348884,0.745914735376442,1419.48549861772,3520.1503923549
0.74,4.09157282598512,0.185495537981991,35.4877115294874,-8.99397571215408,3.87537781221129,1.32545222379818,29.7305015656775,21.3627373097218,-1.19594431383922,1479.36800189571,3520.1503923549
0.75,4.13567609469455,0.182432883384879,33.2868695833625,-8.82343031109393,1.61280138331407,-3.8126067480332,22.2736592897652,-26.2631435848409,-2.69731854563456,1539.25379905535,3520.1503923549
0.76,4.0884435839641,0.179715284103275,35.6529317324004,-8.67911092586902,-2.51562330952169,-3.22789527202924,-13.5866604172013,-34.0860846429507,2.52350633798482,1599.1145126317,3520.1503923549
0.77,4.04309721374227,0.142140838859228,37.9247149479321,-6.92074436529257,1.77163505554853,3.6370521480718,9.07521337684281,37.467602119917,-0.418138493154525,1659.11456905468,3520.1503923549
0.78,4.05075121059395,0.111810926592974,37.5465906651388,-5.37855470099595,2.39422808759054,3.26936674572102,16.9140662229955,33.9498112667982,-0.604495129071612,1718.81582839958,3520.1503923549
0.79,4.05417914303953,0.160095368598209,37.379794404133,-7.68940391680673,1.55707112132988,3.74666899712583,5.76040430373615,37.7252396221489,-0.354403303226803,1777.95615573848,3520.1503923549
0.8,3.97110828130929,0.0977780238992936,41.5379315702452,-4.68860023769022,-1.19790340532767,3.78738550392553,-17.9315424437856,37.7603299364552,0.330949220382412,1837.5691613,3520.1503923549
0.81,3.96910357567046,0.183063612370568,41.6427778623586,-8.80666746950638,-3.91849470069118,0.657795379452701,-42.3984353068255,-3.74846949369155,1.45056713753245,1896.44586035046,3520.1503923549
0.82,3.98071171370197,0.20379166871057,41.0668950524907,-9.90342975623192,-0.750030742693722,-3.91472229881689,4.15378723471052,-42.0394319870959,3.00344443978259,1955.60583629177,3520.1503923549
0.83,3.92260914845612,0.133561641128741,43.9765099467023,-6.43566140785827,3.81079199644204,0.939449627913035,40.5630858546727,18.1655506603971,-1.29505633346124,2014.58494336465,3520.1503923549
0.84,3.96585780786468,0.22177635398429,41.8185234422862,-10.8529380872122,-3.47408294595777,1.92560655067258,-42.3738472094885,8.42806268871011,1.12053808553641,2073.19939500984,3520.1503923549
0.85,3.89220300336369,0.137551864686856,45.5056894608538,-6.62262982276475,2.76008401804033,-2.74774470215675,37.8668964382693,-26.0907100940244,-2.31862851010527,2131.53378230549,3520.1503923549
0.86,3.94138643054495,0.224979874301195,43.0508572891602,-10.9294384741879,-3.08053456747355,2.46889645739245,-41.4109934402872,16.0610884120967,0.952190992333883,2189.44048073313,3520.1503923549
0.87,3.8276323395819,0.249430482869633,48,-12.0764350242209,3.80336826783694,-0.497367783444824,48.6826827618714,8.93513749201508,-1.63575507162494,2247.1479166479,3520.1503923549
0.88,3.77693985773994,0.0854832802960707,48,-4.04252137004574,-0.532876338635468,3.74013701459148,-11.8321228638888,46.6941414693655,0.164151701568772,2304.77621505551,3520.1503923549
0.89,3.8741575676524,0.102170936009176,46.4252461809328,-4.70354901651209,3.87275548848963,-0.145947543784638,46.4754377276992,4.17858161697273,-1.5820978972419,2361.61278049039,3520.1503923549
0.9,3.79854599494842,0.293876949413464,48,-14.4305240927709,0.581559325195687,-3.76524953866449,25.0132153408173,-43.4347681461055,-2.91113736744989,2418.58207619452,3520.1503923549
0.91,3.6384144830849,0.137459272313565,48,-6.64340105197862,-2.40361817619681,-2.73488110625001,-25.1514289865478,-41.4190825281304,2.45833430097876,2475.08133147285,3520.1503923549
0.92,3.67477696374807,0.267799498716361,48,-12.9581984342697,-3.50396121571041,-1.1392796424072,-39.5564286088437,-30.1198250721242,1.95790171946627,2531.15429782134,3520.1503923549
0.93,3.68615554595812,0.273268777585332,48,-13.2247169308169,-3.60456931556853,-0.818228930717208,-42.0225482186929,-26.7020332392097,1.86800984327191,2587.02080046834,3520.1503923549
0.94,3.68598917077388,0.263558043209712,48,-12.726782029581,-3.16015965126668,-1.91555996713987,-31.8121006718751,-38.1308435740799,2.18711355543164,2642.69369572444,3520.1503923549
0.95,3.63140033231932,0.101232060425504,48,-4.79510644974653,-0.919653275064868,-3.51447779297143,-6.18163704788248,-47.841199914641,2.91352533240866,2698.26271401671,3520.1503923549
0.96,3.77723056153622,0.389040052123362,48,-19.1690723994236,2.72737747891471,-2.64201343006961,49.5732344861836,-14.62695317666,-2.23766334624322,2753.57688965868,3520.1503923549
0.97,3.75307473988463,-0.0471986015625669,48,2.81691694897603,0.506141627822276,-3.71908837804844,3.07845197678837,-47.9839364217238,-3.01890603479529,2808.51751379699,3520.1503923549
0.98,3.38951687666971,0.0249842407483438,48,-1.01750309642932,3.00839785765412,1.56172699265162,41.9620835240176,23.3284988560048,-1.08459711703575,2861.47423258342,3520.1503923549
0.99,3.10125641652685,0.334108586961171,48,-16.3090134314112,-2.80133183401467,1.3718454230219,-50.6843251075345,1.04072450710851,1.22273242975172,2910.3442590509,3520.1503923549
