t,iq,id,vq,vd,ia,ib,va,vb,theta_e,omega,r
0,0,0,0,0,0,0,0,0,0,0,0
0.01,0.000858564575181606,0.000472660673359299,-0.0423915858828461,-0.0236534751097504,0.000254606980854862,0.000946423017047456,-0.0128779969390606,-0.0468048142103763,0.240447211645482,-0.00192180745702396,0
0.02,0.000982738461739632,0.000539365758585708,-0.0486298342491541,-0.0269916120739717,0.000289837990978373,0.00108290546434245,-0.0146353024177905,-0.0536583248395977,0.240433063118678,-0.00193915571321349,0
0.03,0.00102611897113767,0.000565494659479537,-0.0508304167248947,-0.0282991866768176,0.000304900475352212,0.00113125596261788,-0.0153820031624776,-0.0561067661668836,0.240419723207271,-0.0017723685794524,0
0.04,0.000996716536767137,0.000552945796894193,-0.0494430898788683,-0.0276712177192562,0.000299725870785583,0.00109970782999388,-0.0151030437129438,-0.0546096465603032,0.240408532331793,-0.0014689445006154,0
0.05,0.00101657570743478,0.000566751255716065,-0.0504698320382336,-0.0283620645908218,0.000308416907562963,0.00112227989643028,-0.0155301057333344,-0.0557711974923698,0.240398669095442,-0.00131526866995842,0
0.06,0.00101424184937024,0.000568034689356037,-0.0503992000728177,-0.0284263073893192,0.000310228690484317,0.00112031607010083,-0.015609794758052,-0.0557177586356761,0.240390110007176,-0.00113328652392851,0
0.07,0.00103250462299091,0.000580862332483006,-0.0513334462682371,-0.0290682460308664,0.000318347597359874,0.00114110545220431,-0.0160112532946796,-0.0567778601306757,0.24038296812437,-0.00103166121094047,0
0.08,0.00100887084482905,0.000569344281603801,-0.0502048250321737,-0.0284918506913335,0.000312794444859909,0.00111540706820685,-0.0157204815369465,-0.0555443649038761,0.240376588321022,-0.000841604732931158,0
0.09,0.001003509404703,0.000568267649533543,-0.0499686017466993,-0.028437971477025,0.00031303103554205,0.00110994180821393,-0.015724681621913,-0.0553020232011253,0.240371292234308,-0.000719264812435921,0
0.1,0.00100056416777213,0.000568165124658604,-0.0498469713001306,-0.0284328419931501,0.000313637582039004,0.00110705543214447,-0.0157489031410093,-0.0551825978136096,0.240366801911093,-0.000619515622325283,0
0.11,0.000998236285428649,0.000568153756822307,-0.0497522165962497,-0.028432254366697,0.000314184931875752,0.00110479056907629,-0.0157710999268348,-0.0550903671408214,0.240362984222976,-0.000535145692891693,0
0.12,0.000996275384315433,0.000568151158133243,-0.0496725575552901,-0.0284321416138773,0.000314652791617905,0.00110288440038295,-0.0157901322890616,-0.0550129200563751,0.240359737253298,-0.000463436411301324,0
0.13,0.00104057795311802,0.000593585668303322,-0.0518658168031711,-0.0297049547132227,0.00032881339967461,0.00115196708734443,-0.0165044245475558,-0.0574460726031707,0.240356615861359,-0.000509281565967777,0
0.14,0.00107173063117232,0.000612751544307554,-0.0534768685202426,-0.0306640798595396,0.000340015697221321,0.00118678571211799,-0.0170526305408933,-0.059239083821404,0.240353882218809,-0.00053042949830427,0
0.15,0.000999947395246534,0.000572306292891936,-0.049895521741565,-0.0286400618226366,0.000317823495877816,0.00110743736238762,-0.0159394549102698,-0.0552788387019021,0.240351475549086,-0.00030249972504463,0
0.16,0.000991286422634056,0.000568533735151254,-0.0494780294119723,-0.0284512645335557,0.000316222814770448,0.00109812681923461,-0.0158555531146069,-0.0548283802740902,0.240349891581298,-0.000248371501906478,0
0.17,0.00098966023493802,0.000568181300593246,-0.049404775376021,-0.0284336394028492,0.000316269034358994,0.00109646307227696,-0.0158559431829319,-0.0547530158569004,0.240348595065769,-0.00021764269994532,0
0.18,0.000988906132902153,0.000568147911249981,-0.0493733529324216,-0.0284319738836703,0.000316417314377537,0.0010957223516527,-0.0158618654165064,-0.0547220827840079,0.240347497870447,-0.000193183675266588,0
0.19,0.000988333640507614,0.000568144353299995,-0.0493500080014134,-0.0284317978513957,0.000316551156239815,0.00109516517321769,-0.0158673024883986,-0.0546993521949196,0.240346565258124,-0.000172563792232947,0
0.2,0.000987854164115805,0.000568143643629833,-0.0493305160807878,-0.0284317583441303,0.000316665469447314,0.00109469905901925,-0.0158719473295643,-0.0546803985656965,0.240345772089831,-0.000155045651768568,0
0.21,0.000987447330901726,0.000568143255973108,-0.0493139838325194,-0.0284317331913371,0.000316762673133655,0.00109430361395816,-0.0158758950887469,-0.0546643248273357,0.240345097466524,-0.000140147774181996,0
0.22,0.000987101499319458,0.000568142946330123,-0.0492999303339201,-0.0284317107824266,0.000316845321106288,0.00109396746748541,-0.0158792499467216,-0.0546506608384059,0.240344523665433,-0.000127476601175209,0
0.23,0.000986806968555781,0.000568142684791912,-0.0492879560060541,-0.0284317117591368,0.000316915710150313,0.00109368118578164,-0.0158821278980005,-0.0546390231816137,0.240344035618072,-0.000116699140252291,0
0.24,0.00098655694677943,0.000568142462479046,-0.0492777938830126,-0.0284316861694281,0.000316975462504618,0.00109343816609833,-0.0158845446800388,-0.0546291404721086,0.240343620508511,-0.000107532355731782,0
0.25,0.000986343906740887,0.000568142273380897,-0.0492691293529243,-0.0284316869031606,0.000317026376111643,0.00109323109268663,-0.0158866271511425,-0.0546207195587455,0.240343267436471,-9.97355321365709e-05,0
0.26,0.000995835229096134,0.00057352357069767,-0.0497367866747371,-0.0287009911101587,0.000319993981404499,0.00110373046597421,-0.0160368844085184,-0.0551390349743404,0.240343029107051,-0.000118417235525313,0
0.27,0.000969859298785846,0.000558671842724506,-0.0484625546912857,-0.0279577520252614,0.000311752837229344,0.00107496579283902,-0.0156183460249732,-0.0537245043993527,0.240342573508978,-4.44852716760399e-05,0
0.28,0.000969190351708477,0.000558273553959345,-0.0483677976593457,-0.0279378255504854,0.00031152545522444,0.00107422120144894,-0.0156215590884181,-0.053627724532669,0.240342363609108,-3.85022836006664e-05,0
0.29,0.000983945383257769,0.000567221467651581,-0.0491561462528027,-0.0283856094626514,0.000316704019505101,0.00109068202269424,-0.0158688205001329,-0.0545000006874097,0.24034230772059,-7.40201459016102e-05,0
0.3,0.000974156060887127,0.000562256941561671,-0.0486727434426451,-0.0281371547881297,0.000314211907544752,0.00107999248907319,-0.0157425498286787,-0.0539713586886257,0.240342757624441,-5.89529160724635e-05,0
0.31,0.000984646808554763,0.000567593093162355,-0.0491890407707437,-0.0284041974135293,0.000316897667564261,0.00109145184286574,-0.0158790275397544,-0.0545363791156358,0.240342611724396,-8.20207010858033e-05,0
0.32,0.000985688989309455,0.000568090635594168,-0.049241242595779,-0.028429102140452,0.000317133044634937,0.0010925824389474,-0.0158908011114859,-0.0545930056044161,0.240342417983532,-8.06227209988551e-05,0
0.33,0.000985712042414375,0.000568136952748245,-0.0492432504997142,-0.028431424439111,0.000317172731407794,0.00109261579985377,-0.0158925881205583,-0.0545955058429242,0.240342245566493,-7.71308447443997e-05,0
0.34,0.000985636954798195,0.000568141201790555,-0.049240306881266,-0.0284316401013175,0.000317194892937083,0.00109254383515285,-0.0158935063198991,-0.0545926958252789,0.240342098080715,-7.39085204150057e-05,0
0.35,0.000985562681848198,0.000568141538150699,-0.0492372902314597,-0.0284316607817713,0.000317213036327947,0.00109247173730383,-0.0158942513268436,-0.0545897688116174,0.240341972544994,-7.11401240797732e-05,0
0.36,0.000985498691762481,0.000568141518569822,-0.0492346826511773,-0.0284316404742947,0.000317228365828768,0.00109240954797273,-0.0158948581269639,-0.0545872296507652,0.240341865760244,-6.87824313079822e-05,0
0.37,0.000985443976561329,0.000568141473407212,-0.0492324485235495,-0.0284316407245987,0.000317241445295037,0.00109235636590512,-0.0158953951277208,-0.0545850583552884,0.240341774933318,-6.67767599514754e-05,0
0.38,0.000985397410432688,0.000568141432334164,-0.0492305449599521,-0.0284316409495272,0.000317252574136488,0.00109231110395616,-0.0158958526768943,-0.0545832083319694,0.240341697680132,-6.5070796467745e-05,0
0.39,0.000985357712808022,0.000568141397150619,-0.0492289194130056,-0.0284316411530629,0.000317262061139952,0.00109227251815092,-0.0158962433972999,-0.0545816285125548,0.240341631972331,-6.36197823894321e-05,0
0.4,0.000985323952364758,0.000568141367201633,-0.0492275350921081,-0.0284316413381162,0.000317270129243398,0.00109223970323337,-0.0158965761434778,-0.0545802831372156,0.240341576084448,-6.23856195006747e-05,0
0.41,0.000985295314195644,0.00056814134172577,-0.0492263595529871,-0.028431641507208,0.00031727697328794,0.001092211867073,-0.0158968587209012,-0.0545791406715245,0.240341528548991,-6.13359001428595e-05,0
0.42,0.00098527098339343,0.000568141320056728,-0.0492253591396374,-0.0284316416628749,0.000317282787967196,0.00109218821763129,-0.0158970992115099,-0.0545781684076318,0.240341488117577,-6.04430595815541e-05,0
0.43,0.000985250145050863,0.000568141301625656,-0.0492244991102604,-0.0284316418076682,0.000317287767864948,0.00109216796295209,-0.0158973059454998,-0.0545773325860723,0.240341453728637,-5.96836525473886e-05,0
0.44,0.000985232566337301,0.000568141285949073,-0.0492237729442129,-0.028431641942303,0.000317291968920319,0.0010921508764956,-0.0158974805250195,-0.0545766268594476,0.240341424479069,-5.90377376245381e-05,0
0.45,0.000985217548760815,0.000568141272615069,-0.0492231500627097,-0.0284316420689528,0.000317295557837651,0.00109213627950519,-0.0158976302729201,-0.0545760215162173,0.240341399600763,-5.84883536059781e-05,0
0.46,0.000985204743075439,0.000568141261273897,-0.0492226167185006,-0.0284316421886998,0.000317298618123438,0.00109212383248293,-0.0158977584982302,-0.0545755031941495,0.240341378440564,-5.80210741097569e-05,0
0.47,0.00098519391645053,0.000568141251627265,-0.0492221644071869,-0.0284316423022622,0.000317301205516749,0.00109211330904323,-0.0158978672563223,-0.0545750636246288,0.240341360442799,-5.76236287521288e-05,0
0.48,0.000985184603221176,0.000568141243422721,-0.0492217725266111,-0.0284316395007105,0.000317303431133065,0.00109210425669584,-0.0158979586517058,-0.0545746820977316,0.240341345134701,-5.72855809387635e-05,0
0.49,0.000985176803394629,0.000568141236443873,-0.0492214433478937,-0.0284316396048312,0.000317305295199495,0.00109209667526881,-0.0158980378191918,-0.0545743621984578,0.240341332114412,-5.699805380509e-05,0
0.5,0.000985170051305976,0.000568141230508173,-0.0492211555259935,-0.0284316397056919,0.000317306908756441,0.00109209011233002,-0.0158981070329749,-0.0545740824974309,0.240341321039983,-5.67534971200473e-05,0
0.51,3.00442873134395,0.0565344929629694,2.65618938166688,-2.82547349724898,-0.0992673399001721,3.00332051999928,-2.95935139820279,2.50616875267638,0.0518553330057279,15.8780620683779,572.993682960412
0.52,2.90059146049963,0.0166727817041971,4.84399109524851,-0.82576533646838,-0.652714868792781,2.82624699954373,-1.92063324783201,4.52297535357887,0.23271616027489,33.4160152682236,572.993682960412
0.53,2.7844466846659,0.0173397915859946,7.6138137263618,-0.853631571861476,-1.42090839664831,2.39467395201382,-4.65736555707599,6.08340302692303,0.541751575180398,50.9595599678176,572.993682960412
0.54,2.78465564266682,0.0416038158058174,4.28634712454334,-2.06736279731251,-2.29266890798881,1.58104623716928,-4.71271097446996,0.661147395747067,0.982017221198554,69.4013982830293,572.993682960412
0.55,2.66620313910311,-0.0238922884509509,6.92962726051252,1.209804919552,-2.66628241767384,0.0121692076182941,-6.91263134804528,1.30341465352823,1.55727132200345,87.0996511952402,572.993682960412
0.56,2.63053518519146,-0.0315277716122436,5.91538724628142,1.60281784145129,-2.01948422657812,-1.68593974373798,-5.59844423165118,-2.49364261501824,2.25443650422931,103.006732801845,572.993682960412
0.57,2.52087411723203,0.0427160351839843,8.37205186627662,-2.12208117468075,-0.223378292447915,-2.51132098964972,1.5162569177328,-8.50267286933866,3.069820913923,119.802070103662,572.993682960412
0.58,2.45934344447345,-0.0342485174454223,8.57857340805911,1.74161710304649,1.89425264399165,-1.56886903836885,5.40049603106917,-6.88910694281117,-2.27643775747484,135.413445036846,572.993682960412
0.59,2.43754945610622,-0.00664461151642814,6.81736881878644,0.35109073175043,2.29284171220207,0.827386478383723,6.53717955676209,1.96597704867947,-1.22720879041521,151.202670384916,572.993682960412
0.6,2.38027687087834,0.0512582509280446,6.97258109155722,-2.52774586956539,0.203162687254238,2.37214466524161,-2.07730362856099,7.1197749890157,-0.0639054152705444,165.890353135365,572.993682960412
0.61,2.30875284364866,0.0223674913185905,7.74725331716072,-1.09463018060032,-2.15021793122546,0.841072437998156,-7.6307941340513,1.72891008333779,1.20762436163012,180.938072832559,572.993682960412
0.62,2.18160074767712,0.0538582094064894,11.5214217424996,-2.67523019732119,-1.19835627142991,-1.82379406066322,-3.81588146080811,-11.1954930331032,2.58494738161099,195.161860986273,572.993682960412
0.63,2.17621949334244,0.0355409069535477,9.22923863318473,-1.73153929943228,1.71653134582616,-1.33817583974115,8.4125966799991,-4.17196490797993,-2.21663224549515,208.846266843121,572.993682960412
0.64,2.11308484992813,0.00240596674076388,9.80489486167994,-0.0784806615887866,1.25393025932077,1.70082105949788,5.74612856745001,7.94506947415666,-0.634152417662151,222.519307838819,572.993682960412
0.65,2.14072959125092,0.00388845697978457,5.89904916595993,-0.157827406632956,-1.85124588212603,1.07500092412352,-5.18571171421913,2.81639566994901,1.04651240517286,235.867460898372,572.993682960412
0.66,2.05007090487363,0.0199055764348391,7.97552359780104,-0.964733660322215,-0.661352580010651,-1.94056685324053,-1.58322546688864,-7.87610848169546,2.82284320029787,248.843608687191,572.993682960412
0.67,1.99515227080008,0.00225656362429377,8.3203692411904,-0.0835592469712399,1.99472127348851,-0.0415297104553082,8.32040192021059,-0.0802392899870385,-1.59048210284472,261.463072895258,572.993682960412
0.68,1.84716228845005,0.00871116626312796,13.376256178077,-0.40818763233646,-0.660689299204498,1.72498523304009,-5.22368619432069,12.3208745236691,0.37049188188298,273.697381296356,572.993682960412
0.69,1.87906241214552,0.0528770663547651,9.4875797467593,-2.61338551398357,-1.28080161750907,-1.37594285835952,-4.30421611919978,-8.84972750399904,2.42012311466346,285.605606750321,572.993682960412
0.7,1.78093359708684,0.03413175675461,12.1548284251087,-1.6692327277423,1.75389923628412,-0.311009522384479,12.2664920260493,-0.243649990900833,-1.72713390083162,297.173778023889,572.993682960412
0.71,1.78082984597218,0.0437702357502667,9.96354666519175,-2.13984681277817,-0.804250556273326,1.58948161882325,-6.60045251848898,7.76435657880182,0.492996098170718,308.451524857676,572.993682960412
0.72,1.63923274509937,0.0785978677705752,14.9030301491164,-3.87567250588188,-0.630757265698208,-1.5150600282474,-1.41721596512577,-15.3333833157107,2.79500401742363,319.438025728131,572.993682960412
0.73,1.64648267640714,0.0320928815422856,12.4153648696583,-1.58564107744704,1.48644423815011,0.708814985468598,10.3899356253738,6.97888101158204,-1.10634810473296,330.307186467364,572.993682960412
0.74,1.6293257754743,0.0328053830933999,11.1610278079903,-1.61748520172542,-1.58386752162,0.383591383821565,-11.2471262833263,0.82882475556898,1.35331653639175,340.797308563146,572.993682960412
0.75,1.49976745910776,0.0108145977711311,15.6311392866649,-0.494696423833871,1.01080483168545,-1.10801307716329,10.9807606853246,-11.1355347748773,-2.39483014445293,350.832929473306,572.993682960412
0.76,1.5373394186254,0.0776011111505282,11.7928016698154,-3.82129001717519,-0.249675879494661,1.51891289273278,-6.23166262068945,10.7162871182544,0.213355786717669,360.698433363975,572.993682960412
0.77,1.48141746635622,0.0167540465111695,12.6047614866287,-0.81578904680287,-0.380292096130761,-1.43187161761111,-2.30679231333506,-12.4187049697954,2.89330384898075,370.435282609819,572.993682960412
0.78,1.4050882276183,0.0169883547996215,14.5404591531402,-0.793361828821353,0.853264875343972,1.11646790553718,8.05286305763686,12.1328385776172,-0.640471315857335,379.686006137148,572.993682960412
0.79,1.3183075823165,0.0173173312014762,17.0064593316319,-0.855501412554097,-1.09351833740261,-0.736513691194777,-13.4922180200174,-10.3880505661866,2.17666836964167,388.886512783036,572.993682960412
0.8,1.39344326359419,0.033665890779118,11.4257232636412,-1.63202455097889,1.32172388154934,0.44256468679744,10.1882894000261,5.42304483972107,-1.22353577878188,397.651245319265,572.993682960412
0.81,1.28770168210726,-0.0020817576571413,14.928449729723,0.114447576470432,-1.27244705124603,-0.197632126922974,-14.7726489226272,-2.15419437132008,1.72326512226452,406.318975456985,572.993682960412
0.82,1.29699424735961,0.0529545290600668,12.7174092639774,-2.593937983345,1.29779025668827,-0.0271792103800399,12.6633710054225,2.8460582263829,-1.55092995954936,414.61502383652,572.993682960412
0.83,1.26902969138886,0.025518671599852,12.4002494285871,-1.26209945006741,-1.26595028954992,0.0919642572699279,-12.4493397181488,-0.61075485684338,1.5183853606547,422.802854509388,572.993682960412
0.84,1.23242481594117,-0.00223814495602373,12.575308815562,0.176287986675931,1.22989365938863,-0.0789779895674146,12.5363601517006,-1.00456130119106,-1.6367396256659,430.623664251642,572.993682960412
0.85,1.12251583993769,0.0868171883630444,16.4255720101792,-4.31109513162602,-1.12028242919674,0.112010329609931,-16.518267466187,-3.94104009254167,1.54833146041288,438.293737991411,572.993682960412
0.86,1.14989433104933,0.0207433217123266,13.4566815355327,-1.03189440815685,1.14812902924269,0.066984999703627,13.3388441688251,2.05482852280512,-1.49448227139831,445.796518486361,572.993682960412
0.87,1.0430133766609,0.00888551852662722,17.2462760552915,-0.38425538349058,-1.01780807634176,-0.228084580948682,-16.7089409975255,-4.28870385038129,1.79976704051378,452.954288816771,572.993682960412
0.88,1.03877021988688,-0.00752096423576543,15.9110539053601,0.416419168991105,0.93935062751212,0.443531885234264,14.6117211516385,6.31131098032245,-1.13690081102067,460.020640589019,572.993682960412
0.89,1.08047828690728,0.0778074421301462,12.3188824920395,-3.88109730222597,-0.88305163827195,-0.627460859874264,-7.03404665875408,-10.8323575330809,2.26046214510605,466.919280474963,572.993682960412
0.9,0.939756883252111,0.0404207595611544,17.8929044375691,-2.02477724530835,0.545649558423936,0.766187572866453,8.04540414341164,16.109848673227,-0.575856291988772,473.54892500839,572.993682960412
0.91,0.987345812649808,0.0352909568898991,14.0793399241064,-1.70446739205943,-0.472617459176297,-0.867600105277227,-4.76421767909735,-13.3579658517046,2.67852397763249,479.93927513679,572.993682960412
0.92,0.912162272947329,-0.00575612922377944,16.4251101596805,0.337740625939796,0.0519736519787271,0.910698569622283,1.37638387383162,16.3708240452308,-0.0633185933155347,486.181374713316,572.993682960412
0.93,0.893911498417562,0.0591674274087347,15.9661283707761,-2.93009312879013,0.277795136872108,-0.851709113136349,8.66212893377121,-13.7284457689211,-2.76021718484464,492.233238087794,572.993682960412
0.94,0.869799086456208,0.0219965372854508,15.8236623373095,-1.08777898310763,-0.650513041095298,0.577812324044366,-12.7940359778834,9.37465712855153,0.869799879797675,498.140585419412,572.993682960412
0.95,0.810232938409895,-0.0360900978247312,17.4970278771282,1.80501923767326,0.804630861338067,-0.101730460667847,16.9381114978162,-4.74388636762275,-1.74107371560549,503.821914543303,572.993682960412
0.96,0.816707445224391,0.0182907661364946,15.8836049583871,-0.922267244134606,-0.758847247229155,-0.302483815407609,-14.2586470281202,-7.05906992961414,1.9724955239981,509.399591937385,572.993682960412
0.97,0.753292685709617,0.0151370611095397,17.7861919848482,-0.768062267581826,0.410984449762526,0.631483002951018,8.74843313123644,15.5049496199454,-0.556862613544532,514.797768663653,572.993682960412
