t,iq,id,vq,vd,ia,ib,va,vb,theta_e,omega,r
0,0,0,0,0,0,0,0,0,0,0,0
0.01,0.000961894085149042,0.000467484789367127,-0.04425829623969,-0.0234073196708483,0.000900980359304343,-0.000576208860988928,-0.0412348089654387,0.0283970056484344,-1.68739127426192,-0.00820807156009333,0
0.02,0.000942762170125326,0.000517061697079936,-0.0464615021124868,-0.0258896799729071,0.000876190454170232,-0.000623252433631478,-0.0431332543824371,0.0311202357643404,-1.6874242586929,-0.00280516937760573,0
0.03,0.000944003828684582,0.000535163472168047,-0.047086996271206,-0.0267960359983526,0.000875310795508313,-0.00064138458180776,-0.0436487075290201,0.0320936612762652,-1.6874343812871,-0.00129019830639663,0
0.04,0.000905684628780076,0.000524782620461972,-0.0455026315707366,-0.0262762734140725,0.000838461036797556,-0.000626613545432754,-0.0421356457514311,0.0313929829978484,-1.68743275000319,-0.000767295844111517,0
0.05,0.000933835564272978,0.000535359478305152,-0.0467479280471701,-0.0268058447760092,0.000865188173914097,-0.00064039679561299,-0.0433107698000404,0.0320639877461741,-1.68743537376737,-0.000934597628885785,0
0.06,0.000930843877664105,0.000535628047558366,-0.0466957909260661,-0.0268193145181129,0.000862184837208053,-0.00064031635650236,-0.0432573831902475,0.032071347351872,-1.68743650259381,-0.000702675420259397,0
0.07,0.000964958952019051,0.00055060552255545,-0.0480308800847024,-0.0275692264862477,0.000894325002143342,-0.000659162355639016,-0.044496124627966,0.0329715420302661,-1.68743663766033,-0.00136859389263301,0
0.08,0.000929469810626501,0.00053601544532357,-0.0466935530022921,-0.0268387069126227,0.00086077444105325,-0.000640541995595101,-0.0432528745175418,0.0320903868267322,-1.68743741090974,-0.000536837384158653,0
0.09,0.000928421822420841,0.000535644605851733,-0.0466198506456031,-0.0268201276741622,0.000859777099685344,-0.000640051219030127,-0.0431818536251086,0.0320633317073631,-1.68743683470681,-0.000603404979450434,0
0.1,0.000929098311411734,0.000535635227720717,-0.0466380678497921,-0.0268196547071591,0.000860450173933104,-0.000640120510233855,-0.0432000066210483,0.0320649758976119,-1.68743669337451,-0.000638517331657059,0
0.11,0.000929267753901515,0.000535634994943002,-0.0466437356059673,-0.0268196427480284,0.000860618501976031,-0.000640139984929304,-0.0432056377481082,0.0320656229502952,-1.6874366780847,-0.00064425314673984,0
0.12,0.000929286496768308,0.000535634988891382,-0.0466444297929466,-0.0268196427841771,0.000860637117973849,-0.000640142160434893,-0.0432063272030329,0.0320657037877612,-1.6874366784278,-0.000644576856882811,0
0.13,0.000985224232836178,0.000561309982362732,-0.0490020979211057,-0.0281052247742483,0.000913204685751489,-0.00067215540404672,-0.0453982580424133,0.0336170704701511,-1.68743984663382,-0.00128819336422397,0
0.14,0.00102919511666572,0.000592840193703941,-0.0518398591000563,-0.0296839597530336,0.000953207570109952,-0.000708588323164143,-0.0480330168302635,0.0355153171507314,-1.6874394941582,-0.00222661089350144,0
0.15,0.000926340897492704,0.000537088836691081,-0.0466812264913208,-0.0268924428764341,0.000857540635494537,-0.000641245612336952,-0.0432343162343615,0.032142406418056,-1.68743933705447,-0.000180842983948572,0
0.16,0.000926135252160914,0.000535671778093942,-0.0465495628007896,-0.0268214955956555,0.000857502689833098,-0.000639812391307395,-0.0431118734479071,0.0320565249324387,-1.68743716944016,-0.00050646523589173,0
0.17,0.000928694292070632,0.000535635910529141,-0.0466232213330925,-0.0268196911395399,0.000860048806289722,-0.000640074189116058,-0.0431852560388912,0.0320632852519866,-1.68743671534345,-0.000627038913625945,0
0.18,0.000929240279885594,0.000535635013762606,-0.0466420731292753,-0.0268196433721453,0.0008605912149208,-0.00064013680298157,-0.04320398661872,0.0320654299309269,-1.68743667422453,-0.00064428023226478,0
0.19,0.000929290862342872,0.000535634989896856,-0.0466441455402542,-0.0268196433334694,0.00086064145466761,-0.000640142668272771,-0.0432060448628978,0.0320656711924169,-1.68743667702294,-0.000644873006083824,0
0.2,0.000929287777336847,0.000535634988677597,-0.0466440632537141,-0.0268196434209379,0.000860638389722072,-0.000640142309443694,-0.043205963073035,0.0320656617735277,-1.68743667865278,-0.000644562036198011,0
0.21,0.000929285798276378,0.000535634988544618,-0.0466439457801884,-0.0268196435058066,0.000860636423950339,-0.00064014207923033,-0.0432058463791224,0.0320656481984597,-1.68743667892462,-0.000644481322371053,0
0.22,0.000929285507238074,0.000535634988535757,-0.0466438802354848,-0.0268196435867062,0.000860636134881421,-0.000640142045363991,-0.0432057812699055,0.0320656406515959,-1.68743667893897,-0.000644472133680624,0
0.23,0.000929285507238074,0.000535634988537466,-0.0466438246406355,-0.0268196436669214,0.00086063613488485,-0.000640142045360811,-0.0432057260436574,0.0320656342611122,-1.6874366789333,-0.000644472234106199,0
0.24,0.000929285507238074,0.000535634988538744,-0.0466437689239461,-0.0268196437471367,0.000860636134886855,-0.000640142045359184,-0.0432056706963233,0.0320656278565488,-1.68743667892994,-0.000644472487819516,0
0.25,0.000929285507238074,0.000535634988539862,-0.0466437132446416,-0.0268196438273519,0.000860636134888198,-0.000640142045358314,-0.0432056153860859,0.032065621456382,-1.68743667892764,-0.000644472538885142,0
0.26,0.000943739708915955,0.000540941039274091,-0.0472238854364596,-0.0270853279573179,0.000874374426312813,-0.000647094435740136,-0.0437509161570515,0.0323970319889026,-1.68743698791935,-0.00088831783600251,0
0.27,0.000900795590343728,0.00052198551519726,-0.0455835374962762,-0.0261362214970525,0.000833927738324604,-0.000623270487758939,-0.0422321504964228,0.0312634999522591,-1.68743753586385,5.91765708774825e-05,0
0.28,0.000903102895505377,0.000518526342898155,-0.0445975061966065,-0.025963014145838,0.000836622033265931,-0.000620103202381274,-0.0412729814822216,0.0309767116082636,-1.68743737479467,-1.17515762178761e-05,0
0.29,0.000928363862099598,0.000535200029234621,-0.0465848577040399,-0.0267978795967187,0.000859771626241575,-0.000639602440939009,-0.0431497053773475,0.0320371385119519,-1.68743627981652,-0.000686643355284994,0
0.3,0.000927342002907495,0.00053312901641843,-0.046394452579333,-0.0266941796824317,0.000858999411567354,-0.000637424308785527,-0.0429727465464885,0.0319118710404951,-1.68743363513275,-0.00106841513394012,0
0.31,0.000932872295590007,0.000535571507403659,-0.0467449006851993,-0.0268164772370806,0.000864206369932889,-0.000640495831047647,-0.0433065053508363,0.0320742230735835,-1.68743600689221,-0.000818879245997836,0
0.32,0.000930092731004813,0.000535633398348116,-0.0466712690520952,-0.0268195639109663,0.000861438100457772,-0.000640234351447694,-0.043232995344441,0.0320687461066848,-1.68743661387624,-0.000670602410605765,0
0.33,0.0009293652517307,0.000535634946877887,-0.046646788467837,-0.0268196413676445,0.000860715340329987,-0.000640151287089215,-0.0432086698972268,0.0320659770343067,-1.68743668213507,-0.000645581608612243,0
0.34,0.000929281898363101,0.000535634986624865,-0.0466434354505633,-0.0268196445541566,0.000860632549302789,-0.000640141625425602,-0.043205339322101,0.0320655899478597,-1.68743668120025,-0.000644045781081558,0
0.35,0.000929282713270353,0.000535634988360029,-0.0466433020887753,-0.0268196446324555,0.000860633359704224,-0.000640141720326661,-0.0432052069191386,0.0320655744222736,-1.68743667927376,-0.000644354296061409,0
0.36,0.000929284925161466,0.000535634988548715,-0.0466433099516429,-0.0268196447074699,0.000860635556790628,-0.000640141977593736,-0.0432052147322002,0.0320655753951869,-1.6874366788886,-0.000644458352120679,0
0.37,0.000929285390822752,0.000535634988566449,-0.0466432706123483,-0.0268196447865902,0.000860636019307917,-0.000640142031773416,-0.0432051756521083,0.0320655708941242,-1.68743667885403,-0.000644472535711648,0
0.38,0.000929285507238074,0.000535634988566515,-0.046643220466099,-0.0268196448665317,0.000860636134931748,-0.000640142045322066,-0.0432051258372648,0.0320655651377316,-1.68743667885476,-0.000644472900239599,0
0.39,0.000929285507238074,0.000535634988566943,-0.0466431648775975,-0.026819644946747,0.000860636134932267,-0.000640142045321726,-0.0432050706171682,0.0320655587481932,-1.68743667885387,-0.000644472618403698,0
0.4,0.000929285507238074,0.000535634988567577,-0.0466431091900247,-0.0268196450269622,0.000860636134933453,-0.000640142045320662,-0.043205015298708,0.0320655523470785,-1.6874366788519,-0.000644472549617092,0
0.41,0.000929285507238074,0.000535634988568435,-0.0466430534715987,-0.0268196451071775,0.000860636134934817,-0.000640142045319547,-0.0432049599496145,0.0320655459423596,-1.68743667884962,-0.000644472542215375,0
0.42,0.000929285507238074,0.000535634988569266,-0.0466429977450554,-0.0268196451873927,0.000860636134936071,-0.000640142045318555,-0.0432049045924532,0.0320655395367036,-1.6874366788475,-0.000644472542390784,0
0.43,0.000929285507238074,0.000535634988569871,-0.0466429420103949,-0.026819645267608,0.000860636134937505,-0.000640142045317134,-0.0432048492272374,0.0320655331300926,-1.68743667884516,-0.000644472542617664,0
0.44,0.000929285507238074,0.000535634988570592,-0.0466428862676172,-0.0268196453478232,0.000860636134938772,-0.000640142045316033,-0.0432047938539521,0.0320655267225473,-1.68743667884304,-0.000644472542662494,0
0.45,0.000929285507238074,0.000535634988571421,-0.0466428305167222,-0.0268196454280385,0.000860636134940149,-0.000640142045314875,-0.0432047384726106,0.0320655203140491,-1.68743667884074,-0.000644472542668243,0
0.46,0.000929285507238074,0.000535634988572278,-0.04664277475771,-0.0268196455082538,0.000860636134941401,-0.000640142045313909,-0.043204683083201,0.0320655139046145,-1.68743667883863,-0.000644472542667917,0
0.47,0.000929285507238074,0.000535634988573045,-0.0466427189905806,-0.026819645588469,0.000860636134942795,-0.000640142045312677,-0.043204627685736,0.0320655074942263,-1.68743667883631,-0.00064447254266887,0
0.48,0.000929285507238074,0.00053563498857389,-0.0466426632153339,-0.0268196456686843,0.00086063613494417,-0.000640142045311535,-0.0432045722802084,0.0320655010828942,-1.68743667883401,-0.00064447254266824,0
0.49,0.000929285507238074,0.000535634988574721,-0.0466426074319699,-0.0268196457488995,0.000860636134945425,-0.000640142045310544,-0.0432045168666125,0.0320654946706256,-1.6874366788319,-0.000644472542665332,0
0.5,0.000929285507238074,0.000535634988575544,-0.0466425516404887,-0.0268196458291148,0.000860636134946813,-0.000640142045309366,-0.0432044614449611,0.0320654882574035,-1.68743667882958,-0.000644472542665916,0
0.51,0.239492188466564,0.0190655950082806,2.15084414722869,-0.954235670739577,-0.000227557603162461,0.240249773084307,-1.12387009761182,2.06727169590108,0.0803880556213966,22.6990423592114,56.7249340122852
0.52,0.183830948022892,-0.0694681228616721,-0.871103310162599,3.4798545416013,-0.121429851558802,0.154513522694057,3.58088382668272,0.213259530810554,0.304771618798236,37.0474954810007,56.7249340122852
0.53,0.107943821510699,-0.0670395119816053,-0.326131501527059,3.35931297284073,-0.116752590942873,0.0501497485257062,2.94139861807792,1.65514941179146,0.609327185842303,45.2607457363756,56.7249340122852
0.54,0.0467185552598632,-0.01466481844231,0.914362366686457,0.737385962463301,-0.0466650357840258,0.014834242171085,-0.324838320042093,1.12883863376597,0.958853469444371,49.7168660276276,56.7249340122852
0.55,0.00642269874621291,-0.0166833820393047,1.97810662258422,0.835255786420907,-0.0101644279191033,-0.0147061449921913,-1.72633857869653,1.27683716689529,1.33350978236455,52.0865421490903,56.7249340122852
0.56,0.0326868078127347,0.0348420573170915,0.208506558415435,-1.74764353266205,-0.0374753649859485,0.0296309531106255,0.0519599336296178,-1.75927060665918,1.71906863541619,53.2734526746386,56.7249340122852
0.57,0.0385580839406263,-0.0669199913759121,-0.375249145954061,3.34881022244023,0.00154583204637287,-0.0772180127056436,-1.4082779849441,3.06138774815952,2.11353472567925,54.1242878422052,56.7249340122852
0.58,0.0205328792950977,0.0289751568944042,0.425215197011031,-1.45139337509093,-0.035508877123516,0.000527725903696583,0.920621332895154,-1.19991960332571,2.51023257310292,54.2115760345162,56.7249340122852
0.59,-0.0508686306124515,-0.0569969848904151,3.81160505959176,2.85517623008698,0.067154237438101,0.0364222769893838,-3.65408561092636,-3.05418119684804,2.90991265259279,54.6823929709295,56.7249340122852
0.6,-0.00934881899035916,-0.0320473897108855,1.82506471507036,1.60746632384257,0.0300233889702605,0.0145956061380236,-1.27830484033343,-2.06899635854269,-2.97293538307803,54.5131012282372,56.7249340122852
0.61,-0.0170618095566632,0.0454910859875955,2.19461594037671,-2.27470096332698,-0.0475183755264,-0.0101266103416042,3.098605490853,-0.623897115213611,-2.57280252051327,54.7174203272191,56.7249340122852
0.62,-0.0393252485692814,-0.00153934497470337,3.42351411245256,0.0739004515765299,-0.0315306410154894,0.0235512937041525,2.77900357718773,-2.0007621729938,-2.17320805813707,54.2952433498165,56.7249340122852
0.63,0.0179307330051063,-0.00794089267727264,0.595561871688052,0.394621105158806,0.0191693946502116,0.00413561015532297,0.503053323193625,-0.50730376863294,-1.77521729688043,54.3675955493302,56.7249340122852
0.64,-0.0337714829772015,0.0253612620649859,3.08581233237558,-1.27190339538294,-0.0282407625044279,-0.0314032802295685,2.7822561648204,1.84364493087654,-1.37654414073519,54.6516211023094,56.7249340122852
0.65,0.0692150710053289,0.00453518901269362,-2.1224996174415,-0.226881263770928,0.0598616927058004,0.0350410008425829,-1.88489443425478,-1.00182468805922,-0.97577698943479,54.8924669761839,56.7249340122852
0.66,-0.0342064944084833,0.014659259909282,2.86090512585767,-0.732354480225412,-0.00618953526552368,-0.0366969728179631,0.932784379344043,2.80196975813742,-0.571968769255219,55.2240167865233,56.7249340122852
0.67,0.013474470922464,-0.0255773797470273,0.661170375469346,1.28381695635253,-0.0229500295502746,0.017580098549368,1.37664935357559,0.436083478380539,-0.168806605119586,54.7740643981068,56.7249340122852
0.68,0.0296126707074182,-0.00591015912728899,-0.201940276744112,0.29906786801056,-0.0125921284581015,0.0274459204296473,0.337633395111481,-0.127378002627473,0.233152358139584,54.888236431979,56.7249340122852
0.69,0.0707257034126085,-0.0419592739771275,-2.02152644049443,2.09801115679717,-0.0756740091621609,0.0321892860004863,2.88746371767319,-0.388295303582717,0.633159640534424,54.4326694889181,56.7249340122852
0.7,0.0321782749245407,0.0570538942278614,-0.251693093093026,-2.85952896384488,0.00156400193213043,0.0654839073485968,-1.24760485216245,-2.58529252523563,1.03339052528537,54.7215604439801,56.7249340122852
0.71,0.0345804922775728,0.0365967985660755,-0.361001631149169,-1.83365604001463,-0.0293058518481433,0.0409426813838548,0.109355363872321,-1.86565217957873,1.43495515437009,54.9592104045565,56.7249340122852
0.72,0.0536715500190479,0.00662661276574341,-1.2970425323161,-0.330908349531971,-0.0535200001447545,-0.00775608552684587,1.33839605461677,0.0227083115442058,1.83755812497712,54.8195045034278,56.7249340122852
0.73,0.0769977626208728,0.0168680502469346,-2.48016622859176,-0.84202050633584,-0.0708848962989126,-0.0344748900570516,2.46835451642979,0.876041686084519,2.23912959289984,54.7805089533149,56.7249340122852
0.74,0.00455485755337801,0.0216217242137156,1.1383996632345,-1.07946800520914,-0.0211537063316853,0.00638485659497207,0.400389232051,-1.51686961548455,2.64083101265621,54.8082840602631,56.7249340122852
0.75,-0.0106451871365236,-0.064288808849959,1.96452242274476,3.21796840149211,0.0650261825467309,0.00423869507247325,-3.39638601431833,-1.63683567416264,3.04259008063953,54.6050756629734,56.7249340122852
0.76,-0.0148959107628626,-0.0100327222448966,2.2809268821236,0.49908813338793,0.00517828567135174,0.0171967738429126,0.197844280261107,-2.32649393879518,-2.84134275153324,54.4550761280195,56.7249340122852
0.77,0.0158559864111276,0.0479096451622378,0.678842551433382,-2.40115548050798,-0.026409995618472,-0.0430030061283358,2.27338225932145,1.02864374504131,-2.44115971268257,54.7309786907529,56.7249340122852
0.78,0.0234212425512944,0.0512041420588418,0.215496207591683,-2.56434402774968,-0.00221652056203279,-0.056262827899304,1.34992461628471,2.19089078652735,-2.03917004925066,54.8375930207687,56.7249340122852
0.79,0.0300579076491556,0.0178490196426558,-0.147942078343762,-0.892219905779998,0.0288071832928054,-0.0198043304654258,-0.0884078932942231,0.900070699010926,-1.63720553918348,55.0315924862636,56.7249340122852
0.8,-0.0333259433960579,-0.0290497714221606,3.04119644327852,1.4573520545892,-0.0410508672598709,0.016411399091165,3.35187956031738,-0.371017830773469,-1.23416460330521,54.9115161446487,56.7249340122852
0.81,-0.0236730418544698,-0.0402319207859675,2.50367583612667,2.01763071555846,-0.0446098529875236,0.0137470497636175,3.20934760863722,0.19827839948948,-0.830784830655438,55.1687218333865,56.7249340122852
0.82,0.052590046665025,0.0281695655278687,-1.29354044978361,-1.41371069909038,0.0474073649044302,0.0362184922805546,-1.82227910196762,-0.592556925941372,-0.426650150063397,55.0939371733806,56.7249340122852
0.83,0.0215395270795724,-0.06197794252083,0.209926613357795,3.10045779342315,-0.0614725214421225,0.0229422251203917,3.10442726755539,0.139424001709809,-0.0227238948380844,55.2608118680861,56.7249340122852
0.84,0.0122494174936876,0.0243939984982144,0.525523999503846,-1.22307107198498,0.0180212443566594,0.0205024423789733,-1.33088742822507,0.0285827670714494,0.384351216337767,55.4947696045791,56.7249340122852
0.85,0.00047436376267484,-0.0342623583250198,1.23408892617247,1.71595468530179,-0.0244037495467444,-0.0240539233188926,0.32690330139727,2.08820741097388,0.792023233184503,55.2624419003042,56.7249340122852
0.86,0.0122874893596024,-0.0257963110556375,0.686756990876779,1.2938111902412,-0.020875084435286,-0.0195105845289481,-0.165667252587177,1.45538205359682,1.19615508093309,55.1581890898841,56.7249340122852
0.87,0.0211971898621197,-0.0371755332350958,0.290958683024346,1.86463783671865,-0.0200689099289872,-0.0377965604734963,-0.346937318746743,1.85503792797099,1.60089271894253,55.1802453095143,56.7249340122852
0.88,-0.0273738867553651,-0.0699749983529062,2.76838179775588,3.50420813798969,0.0542718698564742,-0.0519653174036944,-3.98568818920118,2.01437387566496,2.00500932233883,54.9462906270864,56.7249340122852
0.89,0.0335658500182519,-0.0348564990399967,-0.189903820218076,1.74217917896882,0.00330217092627589,-0.0482777120413419,-1.16379012637047,1.31028405100898,2.40562687305627,54.8371964502257,56.7249340122852
0.9,-0.0410575798117264,0.00387282011894205,3.45823358950898,-0.196506652729958,0.00975586460815419,0.0400692737820057,-0.944302555339779,-3.33260965433308,2.80871629174206,54.9984514809397,56.7249340122852
0.91,0.0386691303058839,-0.0296926806116936,-0.606595926849243,1.48620683192719,0.0323777143639216,-0.0364505217121755,-1.52572244729687,0.498939254370299,-3.07013622118723,55.2466534242119,56.7249340122852
0.92,0.0258725842649535,-0.0289346580780593,0.0341634275038675,1.45016632349234,0.0375834881570207,-0.00969981817316231,-1.2726008851169,-0.69615838195757,-2.66458190973885,55.4714119995402,56.7249340122852
0.93,-0.00668725373866276,-0.0764939059640762,1.4455731546591,3.83303924174421,0.0432533605563639,0.0634443363334142,-1.30781233821332,-3.88220278479101,-2.25637100748525,55.9301983088899,56.7249340122852
0.94,-0.031655160994931,-0.0460061864702843,2.74889246114797,2.30676478362571,-0.0178980408219468,0.0528987575079935,2.01500816777678,-2.96939650665329,-1.84721153367727,55.6226149518911,56.7249340122852
0.95,0.0514379485304551,0.0240486964577235,-1.15983475615067,-1.2072929258596,0.0541154317715604,-0.0171965808960695,-1.3061882203707,1.04720829034655,-1.4411460089341,55.115666330976,56.7249340122852
0.96,0.0220523069264336,-0.0157125309729159,0.22151590241224,0.783744494459778,0.0109568176219915,0.0247615835105692,0.590220758252729,-0.561216699809526,-1.03566720750763,55.3315900993257,56.7249340122852
