t,iq,id,vq,vd,ia,ib,va,vb,theta_e,omega,r
0,0,0,0,0,0,0,0,0,0,0,0
0.01,0.000913961175828105,0.000514670044568416,-0.0447063879584062,-0.0257600805121919,0.000818388963904413,0.000656086724036242,-0.0405742797152628,-0.031874295252911,-0.382170839433301,-0.00272017324021701,0
0.02,0.00102545710289473,0.000576849124968118,-0.0503157527058463,-0.0288722470343825,0.00091767798187034,0.000736331653838212,-0.0455545849336136,-0.0359174248895501,-0.382191088672954,-0.00284604557868664,0
0.03,0.00106855797484215,0.00060167330778791,-0.0524763918390504,-0.0301147612394414,0.000956801173758899,0.00076704525863654,-0.0475140243259531,-0.0374578167717615,-0.382211195885452,-0.00275744647067856,0
0.04,0.00104247238478761,0.000588229630401056,-0.0512729340794848,-0.0294418798131917,0.000934611880275916,0.000747839156753406,-0.0464415017245901,-0.0365913237478301,-0.382229299668532,-0.00247268003137735,0
0.05,0.00106612681425011,0.000602382641761371,-0.0524798435989141,-0.0301502448573764,0.000956579535422229,0.000764491218765715,-0.0475495559251846,-0.0374461076808255,-0.382246472145612,-0.0023554517646166,0
0.06,0.0010661187783114,0.000603271802785942,-0.0525344240088191,-0.0301947680427097,0.000957413734574968,0.000764136806044575,-0.0476118233743043,-0.0374793809722824,-0.382262447126114,-0.00217686060717681,0
0.07,0.00109098204679196,0.000618353624674347,-0.0537906927610253,-0.0309496370030226,0.000980692829963314,0.000781565483391395,-0.0487813780561412,-0.0383626877743688,-0.382276933848179,-0.00209347319797345,0
0.08,0.00106494576402576,0.000604272606112573,-0.052574509789439,-0.0302448434281025,0.000957926257517659,0.000762648115432473,-0.0476742950062188,-0.0374965495645969,-0.382290654900446,-0.00185785140222012,0
0.09,0.00106189394231025,0.000603380822409748,-0.052469164354885,-0.0302002042161248,0.000955969820819378,0.000760137397612849,-0.0475940442374937,-0.0374148699839391,-0.382303078305359,-0.00170934280615226,0
0.1,0.0010605213853072,0.000603321660286345,-0.0524417940152114,-0.0301972469146029,0.000955411540367096,0.000758875103688313,-0.0475815161022724,-0.0373900361883289,-0.382314482440958,-0.00157753334119088,0
0.11,0.00105935832270712,0.000603315276729153,-0.0524214050461387,-0.0301969455954265,0.000954979656418093,0.000757788383951086,-0.0475740216708467,-0.0373707330991284,-0.382324961771973,-0.00145672292971461,0
0.12,0.00105829659673641,0.000603312437451455,-0.0524030104072467,-0.0301967849689135,0.00095458820310908,0.000756795181229678,-0.0475673697201073,-0.0373532683993171,-0.382334592039144,-0.00134572218429606,0
0.13,0.00110710176305883,0.000631387474892627,-0.0548034930411184,-0.0316019897079659,0.000998852140258733,0.000791592609313532,-0.0497670698158349,-0.0390556956788137,-0.382343974743146,-0.0013950193637177,0
0.14,0.00114837900301855,0.000655959048871063,-0.0569729796340103,-0.0328318293282539,0.00103705696214273,0.000820712779016508,-0.0517178852240816,-0.0406092326123712,-0.38235264275179,-0.00142852441529339,0
0.15,0.00106173331155527,0.000606628151784808,-0.0526596644239999,-0.0303627479058834,0.000958966536294576,0.000758721636485447,-0.0478180847828624,-0.0375282225177732,-0.38236072872146,-0.00106442557366603,0
0.16,0.00105510211714904,0.000603513175145129,-0.0523612024686879,-0.0302068311115873,0.000953607437317012,0.000753725073007275,-0.0475623206093262,-0.0373091654694466,-0.382367509166782,-0.000967686157955434,0
0.17,0.00105401634969325,0.000603315021448431,-0.0523297830229063,-0.0301969224166641,0.00095302313119291,0.000752785754340015,-0.0475416349738405,-0.0372834180122557,-0.382373695652315,-0.000895104977071949,0
0.18,0.00105336237678896,0.000603301075028886,-0.0523175801365971,-0.0301962262306073,0.000952770453169076,0.000752178800241997,-0.0475366476667627,-0.0372720860500904,-0.382379377865256,-0.000829523938389989,0
0.19,0.00105278500582046,0.000603298870308924,-0.0523075085293622,-0.0301961119450547,0.000952556898594041,0.000751638976063184,-0.0475329781980808,-0.0372625362632276,-0.382384599512283,-0.000769332914040468,0
0.2,0.00105225606366742,0.000603297513610194,-0.0522983302652594,-0.030196035427026,0.000952361878072036,0.000751144171679579,-0.0475296612512159,-0.037253821352836,-0.382389398102639,-0.000714023656828622,0
0.21,0.00105176990718908,0.000603296308811661,-0.05228988929244,-0.0301959839264677,0.00095218266707511,0.000750689378115897,-0.0475266280673274,-0.0372457996565123,-0.382393807924834,-0.000663195750425559,0
0.22,0.0010513232155074,0.000603295204050897,-0.0522821332845265,-0.0301959352588627,0.00095201800300017,0.000750271503296774,-0.0475238397300346,-0.0372384294009885,-0.38239786047621,-0.000616485792441247,0
0.23,0.00105091284540515,0.000603294188761176,-0.052275009464048,-0.0301958865181043,0.000951866725751791,0.000749887607069966,-0.0475212749425431,-0.0372316613236068,-0.38240158470226,-0.000573560136042945,0
0.24,0.00105053553724956,0.000603293255567516,-0.0522684507407593,-0.0301958347991467,0.000951727632838041,0.000749534642381506,-0.0475189069781224,-0.0372254329949444,-0.382405007202472,-0.000534112186975438,0
0.25,0.00105018896274167,0.000603292397835369,-0.0522624288961031,-0.0301957859256593,0.000951599868234245,0.000749210428068738,-0.0475167316307514,-0.0372197148957327,-0.382408152422086,-0.000497860191792305,0
0.26,0.00106057110260488,0.0006093224549982,-0.0527758600556678,-0.0304976133742995,0.000961070648710808,0.000756589800375442,-0.0479884531374286,-0.0375832967103805,-0.38241096351756,-0.000499235508241222,0
0.27,0.00102883298026957,0.000591301997588823,-0.0512458046631732,-0.0295956497614206,0.000932510647175144,0.000733865959523872,-0.0465807940300203,-0.0365002001078022,-0.382413882247613,-0.000366348845456314,0
0.28,0.00102708370656911,0.000590317674791394,-0.0510399493188836,-0.0295463911054262,0.000930946456477541,0.000732608075742255,-0.0464583651504786,-0.0363274821777371,-0.38241632822099,-0.000333482317077239,0
0.29,0.00104753724175515,0.000602470909425575,-0.0521688612252996,-0.0301546832104187,0.000949855858421084,0.000747047065311961,-0.0474440627275906,-0.0371477578457398,-0.382418387833226,-0.000375073326301395,0
0.3,0.00103950947346826,0.000598268695250876,-0.0517834576807526,-0.0299443472851091,0.000942962399705752,0.000741166168877543,-0.047105145613441,-0.0368686273197422,-0.382419591680418,-0.000336256666717948,0
0.31,0.0010480733620825,0.000602971910872264,-0.0522054954711615,-0.030179752180882,0.000950523045293898,0.000747354559745961,-0.0474811065527794,-0.0371722439410446,-0.382421483870474,-0.000342159495676285,0
0.32,0.00104847623474081,0.000603268271482023,-0.0522312266856655,-0.0301945852150335,0.000950949686923339,0.000747616021185728,-0.0475045373178746,-0.0371904954472504,-0.382423289297836,-0.00032325148904828,0
0.33,0.00104833414809179,0.000603286551834302,-0.0522300262615693,-0.0301954978709682,0.00095091486790576,0.000747475794708586,-0.0475049979564852,-0.0371889621274136,-0.382424953020025,-0.000304205787312013,0
0.34,0.00104816854432797,0.000603287316722901,-0.0522272218026081,-0.0301955317442111,0.000950854921799148,0.000747320414231854,-0.0475040397060961,-0.0371862749698882,-0.38242648226582,-0.000286588554920742,0
0.35,0.0010480139999422,0.000603287007678378,-0.0522245275693817,-0.0301955102929109,0.000950798013384947,0.000747175812946069,-0.0475030666469472,-0.0371837166086191,-0.38242788763801,-0.000270390757436052,0
0.36,0.00104787139117332,0.000603286659784089,-0.0522220198229554,-0.0301955108784385,0.000950745437544687,0.000747042407966853,-0.0475021793845098,-0.0371813284501898,-0.382429179152569,-0.000255504717381726,0
0.37,0.00104774071192415,0.000603286336024058,-0.0522197312806146,-0.0301954864425272,0.000950697257414658,0.00074692016132978,-0.0475013468136694,-0.0371791579706688,-0.382430366032705,-0.000241824662439013,0
0.38,0.0010476205100495,0.000603286038222459,-0.0522176198873167,-0.0301954590647765,0.000950652939187868,0.000746807717022255,-0.0475005740415895,-0.0371771575103364,-0.382431456755281,-0.000229252921793988,0
0.39,0.00104750991549405,0.000603285764517295,-0.052215670233873,-0.0301954595419785,0.000950612162332559,0.000746704261105416,-0.0474998841806529,-0.0371753009099913,-0.382432459110906,-0.000217699705529188,0
0.4,0.00104740857290541,0.000603285512973356,-0.0522138903354782,-0.0301954350148213,0.000950574797842465,0.000746609457793048,-0.0474992314482864,-0.0371736149913047,-0.382433380258673,-0.000207082496029433,0
0.41,0.00104731520781755,0.000603285281798716,-0.0522122402026083,-0.0301954354323469,0.00095054037340814,0.000746522119084216,-0.0474986475073023,-0.0371720437008909,-0.382434226777616,-0.000197325460856902,0
0.42,0.00104722929331027,0.000603285069344061,-0.0522107153107079,-0.0301954358229404,0.000950508695414493,0.000746441750977284,-0.0474981077269677,-0.0371705918724799,-0.382435004713989,-0.000188358911281265,0
0.43,0.0010471506517091,0.000603284874094346,-0.0522093268103549,-0.0301954112223143,0.00095047970033097,0.00074636818390428,-0.0474975933147426,-0.0371692789031806,-0.382435719624275,-0.000180118804541404,0
0.44,0.00104707800854848,0.000603284694657252,-0.0522080293621232,-0.0301954115666438,0.000950452915097514,0.000746300231124299,-0.0474971338697982,-0.0371680438509991,-0.382436376614785,-0.000172546286426293,0
0.45,0.00104701170697116,0.000603284529751961,-0.0522068570951987,-0.0301953869262121,0.000950428470105035,0.000746238206999956,-0.0474966959806182,-0.0371669367893951,-0.382436980377807,-0.000165587270916759,0
0.46,0.00104695047250778,0.000603284378202441,-0.0522057618013819,-0.0301953843200512,0.000950405891890504,0.000746180925464586,-0.0474963054396698,-0.0371658952411995,-0.382437535225712,-0.000159192053882161,0
0.47,0.00104689424390749,0.000603284238927404,-0.0522047547040662,-0.0301953846059425,0.000950385159566157,0.000746128326322799,-0.0474959488235471,-0.0371649365741892,-0.382438045121618,-0.000153314958066221,0
0.48,0.00104684255550474,0.000603284110932726,-0.0522038256446348,-0.0301953848751939,0.000950366101161847,0.000746079974454491,-0.0474956197782435,-0.0371640522760509,-0.382438513707041,-0.000147914006849806,0
0.49,0.00104679522962458,0.000603283993304914,-0.0522029778283096,-0.0301953601719951,0.000950348652033477,0.000746035702175743,-0.0474952964715621,-0.0371632544745197,-0.38243894432901,-0.000142950624432402,0
0.5,0.00104675157387901,0.000603283885205373,-0.0522021877113341,-0.0301953604128512,0.000950332555319287,0.000745994864504434,-0.0474950165422316,-0.0371625025524989,-0.382439340063399,-0.0001383893603077,0
0.51,4.66643849207996,-0.0143713338386188,6.67913907629555,0.72598373400037,-0.565450467051508,4.63207518342622,-0.0680095805127547,6.71813410698907,0.118392102198097,36.4233196374474,2556.44491842043
0.52,4.70771971133521,-0.0528486695225296,4.61626075408316,2.66033658694507,-2.44918398311364,4.02081032619346,-0.0696326617313221,5.3275139979119,0.535878001150213,77.5564689430676,2556.44491842043
0.53,4.63998609994497,0.0274766630932171,8.00418787085381,-1.35106904143558,-4.40691774164821,1.45234362085683,-8.03198266025476,1.17459166181948,1.25836728998916,119.960342703703,2556.44491842043
0.54,4.64241176949309,-0.013478050509304,7.88423878209795,0.699228522879952,-3.44015524896456,-3.11729057971744,-6.32576957450349,-4.75760244142281,2.30409463826963,165.91701269101,2556.44491842043
0.55,4.66589683368362,-0.0475183580117999,6.71138399331851,2.41335625073082,2.44132146042617,-3.97653125019653,1.3835262817885,-6.99662908308808,-2.60117549496058,209.084964932654,2556.44491842043
0.56,4.69212707965098,0.0277307214001365,5.40140376992275,-1.33717475979595,3.7448760096059,2.82714152408074,3.47961382609827,4.34229048374205,-0.918233703351912,250.568171824971,2556.44491842043
0.57,4.686139261331,0.0139055801301207,5.70244869150765,-0.649214032585582,-4.1368573704719,2.20147805760561,-5.34523364990224,2.08994669007037,1.08471880236531,295.239291815563,2556.44491842043
0.58,4.58601813782235,0.067464853295808,10.7101653042684,-3.30977380166907,1.10431213779044,-4.45158495023902,5.9316877401193,-9.51195689733127,-2.88371977989078,336.947563116458,2556.44491842043
0.59,4.60906786952172,-0.0347829721061793,9.55953223197288,1.80894660971863,1.11007306100724,4.47352816915598,4.12461854231518,8.81160974007194,-0.250776286879862,380.116651142702,2556.44491842043
0.6,4.61050850047235,0.0986231303045848,9.48947859321685,-4.87253535647115,-2.0900972754585,-4.11071873689746,0.270554863877012,-10.6638925743283,2.69259514977304,423.518282098758,2556.44491842043
0.61,4.57814906169904,0.069192747866774,11.1094321054356,-3.39679939294579,1.56812785264345,4.30176841604206,0.438062637529942,11.6088685472272,-0.334448367078806,466.007596475041,2556.44491842043
0.62,4.53652285547785,0.0760583135762183,13.1927532045617,-3.71525801762398,0.349042573442697,-4.52371459834299,4.93420889895576,-12.7869254238639,-3.04782262663386,508.195644358341,2556.44491842043
0.63,4.5334420180236,0.0397965450194997,13.3489429542148,-1.88500527282559,-3.33129433023429,3.07508672741538,-11.1542485765992,7.57167495108555,0.834147639838004,550.58562913214,2556.44491842043
0.64,4.58844724952847,0.0266469170709749,10.600883367196,-1.22728705236721,4.37081610900457,1.39661188637392,9.69866977373862,4.45205191948272,-1.25571141397139,593.205924439809,2556.44491842043
0.65,4.47997288764997,0.0265292219444015,16.0269225506082,-1.24045446464206,0.451867604744931,-4.45720501452175,2.94426918286039,-15.802919119609,-3.03463703670935,635.90774434682,2556.44491842043
0.66,4.43357393039044,0.0480554753739626,18.3492968193176,-2.30853915698824,-4.34673655258588,-0.874510415812743,-17.4687340890018,-6.07201582100313,1.78017232036096,678.217598529532,2556.44491842043
0.67,4.46375905986483,0.0753932233024259,16.8424437256696,-3.65066554957487,-2.5372218279302,3.67332743960021,-12.7729446862088,11.5692330623189,0.621355571113115,720.046926524394,2556.44491842043
0.68,4.43723382829012,0.0416695895886214,18.1711927828254,-1.94124921058381,1.04597776560849,4.31239039460383,2.2264811064396,18.1384530082051,-0.228565721001094,762.154414659771,2556.44491842043
0.69,4.48630214390371,0.0257858518099647,15.7203367519572,-1.17196674871217,3.13723916938641,3.20707066193064,10.0856942836218,12.1153317937373,-0.768644037452758,804.74216582664,2556.44491842043
0.7,4.39205888409045,0.0988971914756398,20.4351063311144,-4.79200261548654,3.75016435624544,2.28828083874026,14.6126067680617,15.0674677126842,-1.00041058991489,846.320812016438,2556.44491842043
0.71,4.48767419221073,0.119803737004877,15.6570917953372,-5.85922176964609,3.6525889133598,2.61001280089498,8.95906034136947,14.1141858083706,-0.923671987302216,888.676573432377,2556.44491842043
0.72,4.38194965467531,0.0324623808349265,20.9460961364862,-1.50225995356685,2.2808652665199,3.74168280567202,9.4811611668837,18.7377509657533,-0.540027786614854,930.640184430342,2556.44491842043
0.73,4.44032992851619,0.0685739785444741,18.0299067569265,-3.25080877216937,-0.601314710172211,4.39996055481643,-5.93058443361536,17.3341704045056,0.151264462595632,972.123025954023,2556.44491842043
0.74,4.45044885497971,0.176471958789921,17.5267562832296,-8.65809965708419,-3.98931313400624,1.98066102144579,-19.5348184016763,-0.735353994520174,1.14959111960812,1014.1548356442,2556.44491842043
0.75,4.41984656510871,0.106418503777762,19.0597996697073,-5.1589422112819,-2.88500683951604,-3.35009016192031,-8.09716631896829,-18.0090684320896,2.45472057424652,1056.09275672625,2556.44491842043
0.76,4.46271466935337,0.103203386289691,16.9193950790487,-4.99477286459466,3.50009958378146,-2.77051909623743,16.5141654471485,-6.20451653185287,-2.21724465687937,1097.86608731444,2556.44491842043
0.77,4.38843845621716,0.156906551985187,20.636292146595,-7.67568889262955,1.44890392992677,4.14532135689192,-1.22311304570088,21.9835563095121,-0.300514542550379,1139.46787938518,2556.44491842043
0.78,4.35002582220672,0.138265771122765,22.5599874570059,-6.72418457185157,-4.13276151714622,-1.36459676085089,-18.876781602889,-14.065376231492,1.92148961839274,1181.01314471663,2556.44491842043
0.79,4.40487953385289,0.0549002901047722,19.8204700452523,-2.52432878384256,4.23796844196364,-1.2023315826052,19.7925376434353,-2.73472526168069,-1.83477421454257,1222.48775460141,2556.44491842043
0.8,4.32754888043029,0.0786051861060402,23.6902627711198,-3.77225944120954,-3.59073903466454,2.41670256190798,-21.9395667389118,9.70123202306458,0.996557909816319,1264.24467074067,2556.44491842043
0.81,4.39168613256076,0.0696491254692346,20.4866540530719,-3.29769438524713,3.63544271685994,-2.46481527503283,18.9439853677905,-8.46777426090688,-2.15074330876629,1305.77746141314,2556.44491842043
0.82,4.40137720897023,0.142267913746671,20.0053506977717,-6.87548579988571,-4.18807623246355,1.36102129520382,-21.1283398327609,-1.03904640735432,1.28889902490832,1346.9749270448,2556.44491842043
0.83,4.26687906320493,0.0787705461468348,26.7336973365707,-3.76174548240866,4.07517857557743,1.26703643045951,24.1944560459777,11.9778795701511,-1.25089675309424,1388.63720818989,2556.44491842043
0.84,4.25290139544538,0.123562288091716,27.4359413213617,-5.93071781935596,0.0298472898673494,-4.25459129149996,6.91600625145699,-27.2042854633574,-3.10553198116482,1429.70410067753,2556.44491842043
0.85,4.33728594918935,0.0889530128616285,23.2201572370795,-4.22893772176254,-4.0791119480156,1.47675582243272,-23.3486126197885,3.44991378157401,1.24395195051114,1471.18947325797,2556.44491842043
0.86,4.25002423149495,0.181439577015858,27.5867439945202,-8.89445357659079,1.77223305691782,3.86714575370126,2.17640680702398,28.9033389430298,-0.387052155288736,1512.59470378644,2556.44491842043
0.87,4.29333105949278,0.103272821234829,25.4249996052225,-4.92253635359202,4.23319069316315,-0.723500806722476,25.8697267347495,1.19130506058897,-1.7160226065474,1553.58794682353,2556.44491842043
0.88,4.24162957619559,0.198552131026673,28.0136633116909,-9.65741833820161,1.46308013102907,-3.98625650712299,19.771952529531,-22.0703637095038,-2.74305045259394,1594.64391344017,2556.44491842043
0.89,4.22022134398914,0.183802452965681,29.0877549099036,-8.91682055430118,-1.53000155991578,-3.93740355572463,-0.90177227945532,-30.4104255355336,2.81449383020873,1635.72678190333,2556.44491842043
0.9,4.23366298210628,0.149135251247112,28.4193636227755,-7.17313149075657,-2.99959530996936,-2.99141631098571,-14.1630801124147,-25.6616680252189,2.39004077629168,1676.81792190324,2556.44491842043
0.91,4.2876142490561,0.127865366071045,25.7255351132502,-6.09546376283083,-3.37261935727889,-2.65055167304038,-15.8361184786889,-21.1701484849772,2.26669543046227,1717.89784286768,2556.44491842043
0.92,4.21822256593729,0.116564197160303,29.1989437328248,-5.62241440048999,-2.79926060032161,-3.1577094418786,-14.4497327833323,-25.988364344333,2.4439214930667,1759.02634824856,2556.44491842043
0.93,4.22604033515153,0.124794697056763,28.8118727682933,-6.01910667304892,-1.0439626230422,-4.09696627670182,-0.413060425022932,-29.4309877279568,2.92161007944196,1800.05872962449,2556.44491842043
0.94,4.24148363079279,0.188473363135701,28.0436044393958,-9.14327839441641,2.08449875084558,-3.69872553139836,22.5978224718802,-18.9573655680447,-2.58398259948677,1840.76061956005,2556.44491842043
0.95,4.15162893963623,0.211256921607814,32.5402392874443,-10.2863443139953,4.15664163655773,0.0546135934260867,31.8159950620285,12.3457891786298,-1.50681675033543,1881.69720774026,2556.44491842043
0.96,4.00107543632908,0.137436124619169,28.419471142113,-6.62642897657172,0.666593754509779,3.94754937929785,-2.80075422660178,29.0470596918365,-0.132948276358178,1921.39281870803,2556.44491842043
0.97,3.72682514760707,0.163553837764688,31.1529224539602,-7.90496614368638,-3.57373263849733,-1.06977126864716,-26.8273446441909,-17.6999052680258,1.90550753757656,1958.81458094273,2556.44491842043
0.98,3.53257509592359,0.176038813813699,30.3499404176525,-8.55871545436743,2.10682124863077,-2.84101754634258,25.8815662124203,-18.0143005408477,-2.4537150145762,1994.32348803324,2556.44491842043
