t,iq,id,vq,vd,ia,ib,va,vb,theta_e,omega,r
0,0,0,0,0,0,0,0,0,0,0,0
0.01,0.00131423261127114,0.000737132370211313,-0.0646974166788476,-0.0369014168162193,0.000549285831612777,0.00140315949304823,-0.0276482170565747,-0.0691595718722529,0.138035418619104,-0.0021625397585081,0
0.02,0.00145689502728817,0.000817961071679374,-0.0719206844977504,-0.0409477782872657,0.000609740187448541,0.00155557717234796,-0.0306633960949629,-0.0768704204828583,0.138019689224975,-0.00219183633175365,0
0.03,0.00151093352118334,0.000849715270951005,-0.0746558427709939,-0.0425374154209794,0.000633782227634445,0.00161346094934385,-0.0318628213019231,-0.0797977893755589,0.138004485988382,-0.00207082969919671,0
0.04,0.0014743012268735,0.000831618305602154,-0.0729462297051616,-0.0416314728137202,0.000620917586267877,0.0015746791625079,-0.0312017119115621,-0.0779793891398593,0.137991227743773,-0.00181614886902325,0
0.05,0.00150495126175635,0.000850259635034868,-0.0745205855840957,-0.0425646493687973,0.000635185584011765,0.00160759417176578,-0.0319104453157765,-0.0796667467104941,0.137978853238071,-0.00169391110360683,0
0.06,0.00150337989961497,0.000851017189293328,-0.0745126346714365,-0.0426025829184122,0.000636170104028884,0.00160613479439894,-0.0319500066092349,-0.0796637299821505,0.137967622509187,-0.00153063757531903,0
0.07,0.00154100895891089,0.000873866958497805,-0.0764131940592967,-0.0437464655584058,0.000653643964761345,0.00164654232861743,-0.0328224466667746,-0.0817032219071149,0.137957688175287,-0.00145569627589623,0
0.08,0.0014999621429118,0.000851973522028385,-0.0744629307981305,-0.042650476728288,0.000637618085903661,0.00160286883085752,-0.0320058056582297,-0.0796204724450002,0.137948474780782,-0.00125095036443158,0
0.09,0.00149594297261091,0.000851070727511333,-0.0743162491440865,-0.0426052637654684,0.000637289537000749,0.00159875852040263,-0.0319818381746537,-0.0794687071389823,0.137940351225213,-0.0011277154282377,0
0.1,0.00149383450685616,0.000851029227169327,-0.0742578229511521,-0.0426031744346244,0.000637549979826201,0.00159665973287805,-0.0319883808032813,-0.079410315670799,0.137933068581544,-0.00101989909808011,0
0.11,0.00149201108678736,0.000851023504231062,-0.0742087427487384,-0.0426028871052934,0.000637805445729595,0.00159484867659844,-0.0319953631164163,-0.0793614530430452,0.137926534226219,-0.000923282487494712,0
0.12,0.00149037771592938,0.000851019659377037,-0.0741648369538971,-0.0426027080521317,0.000638035550384949,0.00159322654799312,-0.0320016874124837,-0.0793177519633971,0.137920671018628,-0.00083659497664287,0
0.13,0.00156112617769562,0.000891523169148805,-0.07765873981225,-0.0446303539637148,0.000668437211810372,0.00166886793895828,-0.0335301985665547,-0.0830570535730749,0.137914953385196,-0.000880885024234003,0
0.14,0.00163139842351851,0.000933326400861633,-0.081287774687651,-0.0467230448940174,0.00070019153488679,0.00174421638602465,-0.0351045505736783,-0.0869391497937422,0.137909838765119,-0.000932943409985209,0
0.15,0.00149263159473455,0.000854385173740222,-0.0743701687156781,-0.0427711962710584,0.000641083999408667,0.00159591177964482,-0.0321415802368013,-0.0795437995392293,0.137905153018574,-0.000618872559023453,0
0.16,0.00148532784046951,0.000851145673008776,-0.0740357212889606,-0.0426090025551403,0.000638885153149434,0.00158822967842835,-0.0320271946835483,-0.079190112553416,0.13790146131499,-0.00055311477672538,0
0.17,0.00148412520002836,0.000851010797766192,-0.0739970850385932,-0.0426022505387931,0.000638922098955457,0.00158701781298769,-0.0320260782278945,-0.0791508095885296,0.137898172191827,-0.000503975007579405,0
0.18,0.00148329015027885,0.000851003445704106,-0.0739743411678446,-0.0426019090748437,0.000639034283540682,0.00158618779435922,-0.0320290998596336,-0.0791281401918403,0.137895221958604,-0.000460332662461589,0
0.19,0.00148255248113835,0.00085100150976335,-0.0739544998301465,-0.042601791023766,0.000639137961932743,0.00158545516952244,-0.0320319197055871,-0.079108386177033,0.137892574788212,-0.000421193317968842,0
0.2,0.00148189077415429,0.000850999963459524,-0.0739367041697336,-0.0426017197851059,0.00063923115024473,0.00158479801264657,-0.0320344831261176,-0.0790906735524099,0.13789019950697,-0.000386074855381539,0
0.21,0.00148129717013197,0.000850998583523484,-0.0739207417884321,-0.0426016483714194,0.00063931475290085,0.00158420849073703,-0.0320367750115196,-0.0790747845863357,0.137888068187351,-0.000354563400140516,0
0.22,0.00148076480057151,0.000850997345407544,-0.0739064306931898,-0.0426015797077007,0.000639389730204356,0.00158367978120941,-0.0320388252781562,-0.079060538615637,0.137886155772517,-0.000326288441071204,0
0.23,0.00148028650707082,0.000850996234282193,-0.0738935578644993,-0.0426015432813382,0.000639457087665405,0.00158320477728337,-0.0320406942086515,-0.079047727977808,0.13788443977907,-0.000300917560667614,0
0.24,0.00147985797997101,0.00085099523712816,-0.0738820377714562,-0.0426014714178114,0.000639517437222748,0.00158277919558817,-0.0320423281360951,-0.0790362580076024,0.137882900032712,-0.000278152485304153,0
0.25,0.00147947305156135,0.000850994342268232,-0.0738716786848254,-0.0426014376178523,0.000639571644128839,0.00158239691382887,-0.0320438276586534,-0.0790259483195512,0.137881518431384,-0.000257725576663349,0
0.26,0.00149462321708135,0.000859627943095852,-0.0746196367425958,-0.0430336456086641,0.00064604289083689,0.00159858917323649,-0.032369225440428,-0.0798261741934047,0.137880330367135,-0.000267729002591423,0
0.27,0.00144494294472045,0.000831536856233933,-0.0721988104907966,-0.0416273921535619,0.000625048674590132,0.00154551862207025,-0.0313091468715123,-0.0772350007183949,0.137879020284866,-0.000160538338343212,0
0.28,0.00144018336527366,0.000828580942329179,-0.0718202246434556,-0.0414794121107742,0.000622776536813926,0.0015403973152392,-0.0312146825736019,-0.0768396374843163,0.137878010885805,-0.000137639185224438,0
0.29,0.00147654187325082,0.000850072548961749,-0.0737543493310973,-0.0425552887934894,0.000639068178083943,0.00157936414601631,-0.0320145780246117,-0.0789032536937284,0.137877274361062,-0.000191862148022267,0
0.3,0.00146782063041586,0.000845549853475745,-0.0733286963532243,-0.0423288816342926,0.000635787243209811,0.0015701039899188,-0.0318488308302215,-0.0784505188256984,0.137877156443706,-0.000174646483803274,0
0.31,0.00147757173523248,0.000850767874703514,-0.0738100263145475,-0.0425901260308452,0.000639616736138277,0.00158047924384893,-0.0320415011147374,-0.0789631624632129,0.137876403694335,-0.000181255708740918,0
0.32,0.00147782827124125,0.000850981415479391,-0.0738269250051564,-0.042600802369287,0.000639794118569318,0.00158076223848349,-0.0320498098616182,-0.0789813453041803,0.137875691100812,-0.000171529910197587,0
0.33,0.00147767046978237,0.00085098977587757,-0.0738231281163034,-0.0426012072540058,0.000639825101075023,0.00158060667338505,-0.0320507833783077,-0.0789776195463734,0.137875050000409,-0.000162088241744578,0
0.34,0.00147751109723366,0.000850989762865027,-0.0738188509294245,-0.0426012253979943,0.000639847901414245,0.00158044844332407,-0.0320514346367299,-0.0789733670022923,0.137874474669047,-0.000153583678693293,0
0.35,0.00147736761419851,0.00085098944300504,-0.0738149885245529,-0.0426011907989497,0.000639868120443693,0.0015803059476027,-0.032051971974983,-0.0789695199484161,0.137873958425782,-0.000145951116630968,0
0.36,0.00147723839319166,0.000850989143346391,-0.0738114976203323,-0.0426011913707696,0.000639886315420133,0.00158017761525436,-0.0320524889014709,-0.0789660474025789,0.137873495204788,-0.000139102415552685,0
0.37,0.00147712284983334,0.000850988873935958,-0.0738083840689741,-0.0426011566747438,0.000639902585254604,0.00158006286534651,-0.0320529152726622,-0.0789629453061548,0.13787307956057,-0.000132957131190697,0
0.38,0.00147701877453148,0.000850988632166414,-0.0738055688766239,-0.042601154242902,0.000639917238796317,0.00157995950577419,-0.0320533292231065,-0.0789601445397914,0.137872706606733,-0.000127443019632385,0
0.39,0.00147692540944365,0.000850988415220529,-0.0738030423836858,-0.0426011546804185,0.000639930384363132,0.00157986678269679,-0.0320537033114088,-0.0789576313551594,0.137872371958365,-0.000122495254200984,0
0.4,0.00147684159041218,0.000850988220551084,-0.0738007717325391,-0.0426011550813687,0.000639942185665183,0.00157978354013895,-0.0320540394862255,-0.078955372681032,0.13787207168135,-0.000118055666339964,0
0.41,0.00147676702524668,0.000850988045871306,-0.0737987650690558,-0.0426011202393584,0.000639952686188818,0.00157970948611177,-0.0320543020349124,-0.078953371634279,0.137871802245285,-0.000114072061893239,0
0.42,0.00147669950436022,0.000850987889129008,-0.0737969323188055,-0.0426011205794697,0.000639962192594021,0.00157964242968851,-0.0320545733441351,-0.0789515485726426,0.137871560482723,-0.000110497607489261,0
0.43,0.00147663896839305,0.000850987748482589,-0.0737952888233787,-0.0426011208926712,0.000639970715715088,0.00157958231000207,-0.0320548166551779,-0.0789499137620859,0.137871343551338,-0.000107290279939482,0
0.44,0.00147658471885324,0.000850987622279106,-0.0737938160928832,-0.0426011211816577,0.000639978353949521,0.00157952843333041,-0.0320550347134716,-0.0789484488068175,0.137871148900563,-0.000104412372194372,0
0.45,0.00147653605724886,0.000850987509035875,-0.0737924939370785,-0.0426011214491065,0.000639985205447083,0.00157948010614251,-0.0320552304773497,-0.0789471336352326,0.137870974242193,-0.000101830050041007,0
0.46,0.00147649292421984,0.000850987407422488,-0.0737913326386981,-0.0426010864942301,0.000639991280297182,0.00157943726814536,-0.0320553678291155,-0.0789459735288885,0.137870817522792,-9.95129543241332e-05,0
0.47,0.00147645357583667,0.000850987316244058,-0.0737902568668131,-0.0426010838163067,0.000639996819906925,0.00157939819061508,-0.0320555241261831,-0.0789449030893695,0.137870676899871,-9.74338440351507e-05,0
0.48,0.00147641841840958,0.000850987234429989,-0.0737892975846636,-0.0426010840324941,0.00064000176998935,0.0015793632748017,-0.0320556661397148,-0.0789439488949014,0.137870550720281,-9.55682760484881e-05,0
0.49,0.00147638675344214,0.000850987161017757,-0.0737884294174741,-0.0426010842351215,0.000640006227934788,0.00157933182775539,-0.0320557945942112,-0.0789430853643257,0.137870437500216,-9.38943177538778e-05,0
0.5,0.0014763583481037,0.000850987095145011,-0.0737876493112044,-0.0426010844251091,0.000640010226991747,0.00157930361788505,-0.0320559100154183,-0.0789423094300639,0.137870335909064,-9.23922892067321e-05,0
0.51,4.61300467586008,-0.00538611858989024,9.35079359544301,0.276889720250386,-0.363701421846995,4.59864789101393,-0.450303130495378,9.3440481522959,0.0777568948126839,23.8354236089213,1583.98046602534
0.52,4.62761632038417,0.0075672553214895,8.62144807288263,-0.362119185029837,-1.58206636415423,4.34878788761315,-3.30079538770409,7.97278163416569,0.350546154821907,50.64475924758,1583.98046602534
0.53,4.5651955294086,0.00576254499449713,11.7438706803277,-0.260837406322929,-3.34172034024086,3.11029718777444,-8.78406107590407,7.79915416718922,0.82251340948792,78.4074514933863,1583.98046602534
0.54,4.59203794728121,0.0592660514599674,10.4033619430753,-2.94230385834908,-4.57871739495986,0.354502455870651,-10.5710685711243,-2.26706880752929,1.50643205974768,108.307628578248,1583.98046602534
0.55,4.67938109786089,-0.00346676649857702,6.03777845027103,0.213947093505103,-3.14869536317983,-3.46155124003352,-4.22420989542502,-4.31932781029293,2.40274726502446,135.731443473793,1583.98046602534
0.56,4.56298069087395,0.0224073232708758,11.859624181416,-1.06520312194513,1.56526089246434,-4.28616999335612,5.12163413655759,-10.7496142808324,-2.7865406459858,163.362110649678,1583.98046602534
0.57,4.55752512287765,0.0520834497740896,12.1342271633842,-2.55224648687459,4.54443446991789,0.349089214991591,11.8626272004738,3.60991785016682,-1.48270250815907,191.522109410071,1583.98046602534
0.58,4.59971303744687,-0.0526986541708785,10.0269169783816,2.68827079723824,-0.150861572360247,4.5975404251616,2.47364683270441,10.0820104799436,0.0213453269399043,219.630887988264,1583.98046602534
0.59,4.51226562820143,-0.041458168497998,14.4012810788756,2.16089149987502,-4.44808081173578,-0.759497841636957,-14.5616183938907,-0.160057919880603,1.7307250909033,246.692099170565,1583.98046602534
0.6,4.58277455819557,0.0309033673942281,10.8780833200463,-1.45866409153651,2.17856495744446,-4.03195143764851,6.51414350485752,-8.83325149918931,-2.6394643726495,274.47963666971,1583.98046602534
0.61,4.54840035542501,0.0208535696853942,12.5990372505651,-0.955841325964072,2.29494965611274,3.92703281632672,5.47953362665273,11.3852572880866,-0.524283572370986,302.342833645921,1583.98046602534
0.62,4.45106161146996,-0.0013926163755681,17.4683760966431,0.161072274841696,-4.34120335018234,-0.982804599525026,-17.0739538622,-3.69461868708541,1.79312043026513,329.958593701901,1583.98046602534
0.63,4.50440550189824,-0.00484476685575674,14.8036647613586,0.346847006369168,4.15083140524284,-1.7493687554506,13.5004010016758,-6.0834172967558,-1.97073199124301,357.396298712992,1583.98046602534
0.64,4.51316871834253,0.0534915930639608,14.3680364281469,-2.55408781617141,-3.03729800871397,3.33861858214086,-11.6628353809771,8.7716649645036,0.750025903519367,384.730696549494,1583.98046602534
0.65,4.43934081169127,0.140054696453231,18.0621254938777,-6.8721591946589,2.12394744196968,-3.90079599877983,15.062070239971,-12.1078895534896,-2.61145093643242,412.140486120584,1583.98046602534
0.66,4.3364877925949,0.0657721571336229,23.2076582641239,-3.20038632563075,-2.06369581045648,3.81452643900694,-14.1427618374668,18.6767278276023,0.511080664522841,439.803062096079,1583.98046602534
0.67,4.42392558520347,0.00889253857539651,18.8385730735388,-0.307570291102376,2.81639866382438,-3.41161182244821,12.2591282503165,-14.3073480936658,-2.44946535845507,466.816025240422,1583.98046602534
0.68,4.38882748462044,0.0926459055274533,20.596448615394,-4.53391933713722,-3.81087704392171,2.17890020645309,-20.2588231451375,5.86090478478129,1.07250811144375,494.20234696037,1583.98046602534
0.69,4.35459206385414,0.0372137767839068,22.311242674923,-1.70984590982066,4.34299886638215,0.319715114386759,22.0961204582768,3.53222075017378,-1.48876700870264,521.205349919218,1583.98046602534
0.7,4.33120379684971,0.0768032671019534,23.4837857284755,-3.72860064844083,-2.88077530104388,-3.23517522501926,-12.4755518731099,-20.2423136127728,2.43180727534781,548.597045668376,1583.98046602534
0.71,4.3493848100147,0.107085080017845,22.5779027633577,-5.17655361285139,-1.0483523150712,4.22250788790665,-10.9699024891108,20.4014617093423,0.267972289984755,575.467393545861,1583.98046602534
0.72,4.36373168813618,0.0223082470431977,21.8637433620582,-0.922967820156054,4.3261949636462,-0.571567179299368,21.8059557408962,-1.83723640968256,-1.69704117646339,602.45234968567,1583.98046602534
0.73,4.29461902431794,0.11996963387166,25.322733789539,-5.81909318753164,-1.47471269703461,-4.03526551025949,-2.50535753952851,-25.8616680765214,2.81914292117872,629.48339992405,1583.98046602534
0.74,4.25766652338532,0.144900872048081,27.1737713033851,-7.0659751576755,-3.99439011282859,1.48106992191914,-28.0150726155007,1.87017596118217,1.24974371358052,656.456125949326,1583.98046602534
0.75,4.34438347513119,0.0736209267337196,22.8414736536783,-3.47916775939421,0.604281057661548,4.30278191676008,-0.660103295876756,23.0954928635104,-0.12258247530117,683.29888195216,1583.98046602534
0.76,4.33966627398098,0.00771960460734544,23.0808606819442,-0.157850622893402,4.18115756991187,1.16218945847565,22.1842100023698,6.37274455860442,-1.29790260190529,710.149617572484,1583.98046602534
0.77,4.26675054741592,0.138335399342623,26.7302616829775,-6.74230985568789,3.15855774584876,-2.87190004748148,24.7213637826254,-12.1991722898588,-2.27628489462738,737.11395163352,1583.98046602534
0.78,4.29494092294581,0.169237383294205,25.3243923192584,-8.30792911269687,0.190183640511811,-4.29406439243528,10.3946597540278,-24.5417517932055,-3.05794817282303,764.020864681202,1583.98046602534
0.79,4.18287260764647,0.100198844581877,30.9315318993622,-4.78413892479537,-2.09961035397513,-3.61912964975492,-10.6821061072838,-29.4200656016559,2.63985232742778,790.572694566077,1583.98046602534
0.8,4.19235561336663,-0.0198209730320028,30.4611786611499,1.14787263240839,-3.24858972323341,-2.65007608758709,-24.4157626129181,-18.250248026708,2.25034678033181,817.487016850409,1583.98046602534
0.81,4.1410369694206,0.188108336258118,33.0309431607579,-9.17262027811183,-3.74949007700326,-1.76773756274285,-24.9229245419937,-23.5377994113667,2.05674724141392,843.98943201065,1583.98046602534
0.82,4.16912478207937,0.115155905987973,31.6304469959728,-5.58586967836162,-3.9562584900654,-1.32018221886894,-27.8023872984609,-16.0846006395888,1.92048611560674,870.831398589104,1583.98046602534
0.83,4.0632248975154,0.106075711022184,36.9293545962645,-5.09855918051257,-3.52584215299972,-2.0222476941236,-28.8927113358435,-23.5580934771354,2.11764076578431,897.380209213134,1583.98046602534
0.84,4.12435627655272,0.21099710632089,33.8768527029898,-10.2821199438325,-2.60607109487647,-3.20362730717307,-11.7099374192064,-33.410185651051,2.50980325088531,923.826329382608,1583.98046602534
0.85,4.22877328652855,0.163193219544062,28.6600039300697,-7.89494546135822,-0.352817979966837,-4.21718804522335,6.60071669689331,-28.9854537345336,3.09669713462013,950.444598052379,1583.98046602534
0.86,4.16882692152959,0.161866731022597,31.6614782360812,-7.83616415087641,2.6802096728583,-3.19715417986036,27.0717910310759,-18.1926579438818,-2.40511550184723,976.961742936878,1583.98046602534
0.87,4.13180126826875,0.268121361324043,33.516883995925,-13.1448296971849,4.12833094653823,0.317103107396123,31.328779726229,17.7390986645238,-1.42933413457114,1003.4642204436,1583.98046602534
0.88,4.14922121603145,0.198860044749525,32.6501180487146,-9.64839572450436,1.25683551996038,3.95928610897586,-0.947809581543222,34.0326814348909,-0.259488524216668,1029.88506834204,1583.98046602534
0.89,3.98168431389776,0.14099486890921,40.8192571506848,-6.74549290817482,-3.49242372918917,1.91746343495634,-39.4889654916296,12.3424079218302,1.1040902456502,1056.33246520596,1583.98046602534
0.9,3.87177313745249,0.209725985971567,35.9063385778153,-10.3159361061901,-1.98171479158784,-3.33277942592851,-7.51605615473746,-36.5949803619368,2.65925847330151,1082.10923363079,1583.98046602534
0.91,3.68984733604432,0.133681149404834,35.0209292718747,-6.43974482943434,3.46747780328268,-1.26863773267293,35.295145563866,-4.71046708505473,-1.88532294428702,1106.43184710359,1583.98046602534
0.92,3.37800045792352,0.097649892093734,41.2235895377305,-4.61717335298741,0.00344888802738821,3.37940981538623,-5.76450251077186,41.0788648206121,0.0278789947010647,1129.66248178185,1583.98046602534
0.93,3.26943148213692,0.123255308570034,37.6573911059746,-5.96523415226704,-2.87352116740768,-1.56436894239778,-29.3244080059546,-24.3668261884886,2.10701786166191,1151.75351268124,1583.98046602534
0.94,3.06183333460806,0.15893418786185,39.5312565676076,-7.77129060023194,2.79918559758698,-1.25085708026538,39.6776455154083,-6.98553145872749,-1.93917820162063,1172.76324642167,1583.98046602534
0.95,2.92164045360847,0.158022970432264,38.3985343459215,-7.67640430998217,-0.740654469116933,2.83061568509801,-19.0227711825835,34.227310726674,0.309955272973043,1192.68773092798,1583.98046602534
0.96,2.79910795837658,0.10368652047418,36.8357972160104,-5.05245308981774,-0.930774044198739,-2.64185842463616,-6.12174178309011,-36.6732534186022,2.83988014592112,1211.76475155523,1583.98046602534
0.97,2.5083523157365,0.0586030257442904,44.0295400950272,-2.83204385238181,1.80121171232501,1.74668314867644,28.8653159826894,33.3678648789658,-0.777407319842906,1229.83240410799,1583.98046602534
0.98,2.40538921292993,0.0860851121625286,42.1647031527095,-4.06893306051513,-2.20616193973335,-0.962370722688336,-36.2607174706224,-21.8992871281868,2.01790459715783,1247.00314644744,1583.98046602534
