t,iq,id,vq,vd,ia,ib,va,vb,theta_e,omega,r
0,0,0,0,0,0,0,0,0,0,0,0
0.01,0.000835853686596684,0.000476096191369914,-0.041257994515866,-0.0238263572797229,0.000961371214136418,3.29295834178859e-05,-0.0476245839484334,-0.00134774494280486,-1.01879590328679,-0.00167182043165035,0
0.02,0.000950393615481965,0.000540444634162857,-0.0469679314060672,-0.0270467061166421,0.00109264362678804,3.81881105029575e-05,-0.0541752095162322,-0.0015992392558294,-1.01880873027441,-0.00183768692496106,0
0.03,0.000995069610246202,0.000565809796065659,-0.0491804380192583,-0.0283161098085201,0.00114398605268775,4.00020726374229e-05,-0.056724796492802,-0.00167780252248894,-1.01882205015515,-0.00185712028647036,0
0.04,0.000972301719266342,0.000553156837088215,-0.0480756123271923,-0.0276828971120403,0.00111796506635047,3.8823061776568e-05,-0.0554520307781646,-0.00163694096649169,-1.01883466861228,-0.00174160047265333,0
0.05,0.000996016294441186,0.000566883375010761,-0.0492562895273861,-0.0283698325633532,0.00114535608818115,3.95556686494878e-05,-0.0568175957647143,-0.00167040988858905,-1.01884708465714,-0.00172282264229576,0
0.06,0.000997635919527806,0.000568046392588309,-0.0493500343283733,-0.0284280394072433,0.00114734550658158,3.94007689231348e-05,-0.0569279606160244,-0.00166931508463174,-1.01885914095121,-0.00166054101106206,0
0.07,0.00102011431983935,0.000581238876937579,-0.0504687642354527,-0.0290882547514433,0.00117340387280498,3.9940066239562e-05,-0.0582267659648868,-0.00169306030869295,-1.0188705940058,-0.0016444610387325,0
0.08,0.000998867658281891,0.000569260151854665,-0.0494371348835322,-0.0284887923394696,0.00114903165054281,3.89869888811215e-05,-0.0570340204620697,-0.00166195799772118,-1.01888185447566,-0.00153946186193715,0
0.09,0.00099656648553831,0.000568239869015786,-0.0493364837043109,-0.0284377161358577,0.00114653761101478,3.86369689000846e-05,-0.0569215512239104,-0.00165206827737261,-1.01889255307019,-0.00147650133513005,0
0.1,0.000995957046030722,0.00056815060655498,-0.0493185119339237,-0.028433250178452,0.00114597224911681,3.8381682104931e-05,-0.0569039231120673,-0.00164586437562396,-1.01890281638561,-0.00141939126443653,0
0.11,0.000995513384255563,0.000568140536210914,-0.0493082128317725,-0.0284327419004031,0.00114558955243389,3.81463559504758e-05,-0.0568949027609115,-0.00164033669249418,-1.01891267093993,-0.00136484685082955,0
0.12,0.00099509971949519,0.000568137291590724,-0.0492989292286436,-0.0284325920827551,0.0011452359587531,3.79214004793876e-05,-0.056886934342565,-0.00163505863499203,-1.01892213379286,-0.00131249622745251,0
0.13,0.0010398000607366,0.000593856364662222,-0.0515080112661766,-0.0297196998571654,0.00119678471150453,3.94449295434321e-05,-0.059442889679349,-0.00169665870619751,-1.01893152747186,-0.00135334703836645,0
0.14,0.00107408456341196,0.000613931906351685,-0.0532701605865919,-0.0307243959917591,0.00123650511549966,4.03129549854382e-05,-0.0614701991953956,-0.001764406092174,-1.01894060633453,-0.00137448064288139,0
0.15,0.00100096737716091,0.000572020352298443,-0.0496193234256752,-0.0286269260130212,0.00115226937818962,3.76597088481104e-05,-0.0572616947264677,-0.00163599120705765,-1.01894939872382,-0.00117618497421579,0
0.16,0.000994185399737015,0.000568457961280442,-0.0492952144095402,-0.0284486376609162,0.00114462680942574,3.71285595897187e-05,-0.0568922405969463,-0.00161743880991498,-1.01895744087751,-0.00111846244653838,0
0.17,0.000993281844836691,0.000568153395922903,-0.049259757947891,-0.028433385830809,0.00114369799059187,3.69054318092772e-05,-0.0568540637795815,-0.00161140145083144,-1.01896512799018,-0.00107476750826425,0
0.18,0.000992910049950181,0.000568125658481493,-0.0492500884509212,-0.0284320058745924,0.00114336711245376,3.67257032098978e-05,-0.0568451179860611,-0.00160708793387481,-1.01897250648089,-0.00103384659628182,0
0.19,0.000992596929558303,0.000568121511314055,-0.0492429599853042,-0.0284318015296358,0.00114309855349741,3.65569853579247e-05,-0.0568389518333841,-0.00160312220904053,-1.01897959147131,-0.000994643641615511,0
0.2,0.000992300223829068,0.000568119439063147,-0.0492363085345509,-0.0284316990537396,0.00114284504804434,3.63954312130117e-05,-0.0568332447947553,-0.00159933589071426,-1.01898639487772,-0.000957006735113251,0
0.21,0.000992015508883876,0.000568117611208074,-0.0492299294814884,-0.0284316053302914,0.00114260186988557,3.624026717467e-05,-0.0568277738326552,-0.0015957003585775,-1.01899292791314,-0.000920866245852715,0
0.22,0.000991742319051979,0.000568115869555147,-0.0492238127838169,-0.0284315116266162,0.00114236854016826,3.60913711687091e-05,-0.0568225258401069,-0.00159221716516738,-1.01899920132395,-0.000886162051878695,0
0.23,0.000991479684676211,0.000568114198081931,-0.0492179224462155,-0.0284314415804069,0.00114214422534503,3.59482363811683e-05,-0.0568174825768531,-0.00158884671720497,-1.01900522542751,-0.000852837016657518,0
0.24,0.000991227915257292,0.000568112592943089,-0.0492122859516757,-0.028431347905981,0.00114192918752866,3.58110166844452e-05,-0.0568126426795934,-0.00158564311913939,-1.01901101013187,-0.000820836326984736,0
0.25,0.000990985886388812,0.000568111051426628,-0.0492068585858415,-0.0284312778738167,0.00114172246829685,3.56791137927072e-05,-0.0568079928692741,-0.00158254212888215,-1.01901656495048,-0.000790107352607452,0
0.26,0.00100033358262715,0.000573583339758777,-0.0496726775989182,-0.028705140317925,0.00115255168348727,3.59129652237254e-05,-0.0573482491539723,-0.00159320415884148,-1.01902184321676,-0.000780615267999074,0
0.27,0.000973377511403297,0.000558181053432454,-0.0483532827418082,-0.0279343318086002,0.00112152232802587,3.48932064457774e-05,-0.0558206092268871,-0.00155770056217117,-1.01902712926421,-0.000696382537567193,0
0.28,0.000972375475362077,0.000557691113521915,-0.0482472917089358,-0.0279098117616052,0.00112041234295129,3.47796628697896e-05,-0.0557175016431724,-0.00152274766736194,-1.01903205037126,-0.000667538453842855,0
0.29,0.000988523983542316,0.000567220664142843,-0.0491092130579757,-0.0283867138238771,0.00113915989138398,3.51239196425102e-05,-0.0567015095300871,-0.0015681664139317,-1.01903667020509,-0.000675622734207624,0
0.3,0.000979857300627431,0.00056250820627702,-0.0486877128312962,-0.0281508855755118,0.00112930924592933,3.45895761811213e-05,-0.056218946690649,-0.00154782829225006,-1.01904068156513,-0.000635959457646776,0
0.31,0.000988855870159724,0.000567627765367791,-0.0491352400180808,-0.028407085285468,0.0011396562153238,3.49417063064628e-05,-0.0567343656580618,-0.00156398830801037,-1.01904500169645,-0.000630963121218384,0
0.32,0.000989485203289109,0.000568061606762103,-0.049171071209706,-0.0284288096146976,0.00114041971763861,3.48973383841469e-05,-0.0567762737965019,-0.001564031266746,-1.01904920077107,-0.000609405543145341,0
0.33,0.000989381362113037,0.000568097439506392,-0.0491706585905484,-0.0284305872584336,0.00114035020863056,3.48077885911627e-05,-0.0567768605099395,-0.00156207193257763,-1.01905323744979,-0.000587222644398658,0
0.34,0.0009892186903855,0.000568099502024842,-0.0491671650505995,-0.0284306979307423,0.00114021289112034,3.47163438726499e-05,-0.0567739494280197,-0.00155992637219535,-1.01905711410596,-0.000565790248114578,0
0.35,0.00098905706618115,0.000568098734701431,-0.0491635424676649,-0.0284306660174504,0.00114007497636594,3.46280348336653e-05,-0.056770853456772,-0.00155784336677944,-1.01906083673782,-0.000545197992051598,0
0.36,0.000988901262719845,0.000568097764373854,-0.0491600324669187,-0.0284306195459911,0.00113994190650245,3.45431193589071e-05,-0.0567678454868154,-0.0015558401918087,-1.01906441143421,-0.000525423052619907,0
0.37,0.000988751862100344,0.000568096812711289,-0.0491566709330232,-0.0284305730642069,0.00113981429372159,3.44617069741542e-05,-0.0567649637144226,-0.001553922931494,-1.0190678440717,-0.000506433883584211,0
0.38,0.000988608165826065,0.000568095897122031,-0.0491534297213374,-0.0284305236635056,0.00113969155255653,3.43834101879479e-05,-0.0567621826568322,-0.00155207898768768,-1.01907114029526,-0.000488199340838873,0
0.39,0.000988470290321578,0.000568095017718783,-0.0491503211822874,-0.0284304771633908,0.00113957378246349,3.43082836526301e-05,-0.0567595158920798,-0.00155030956806484,-1.01907430552593,-0.00047068944265518,0
0.4,0.000988338002751643,0.000568094173198725,-0.0491473399522614,-0.028430430653474,0.00113946078470778,3.42362004110448e-05,-0.0567569573362894,-0.00154861404222163,-1.01907734496977,-0.00045387539212563,0
0.41,0.000988210953870294,0.000568093362190969,-0.0491444746185911,-0.0284303841344649,0.00113935226136822,3.41669727925325e-05,-0.0567544972794853,-0.00154698614197785,-1.01908026362512,-0.0004377295361505,0
0.42,0.000988088639691971,0.000568092583367822,-0.0491417058488124,-0.0284303611644295,0.00113924778275338,3.41003322177956e-05,-0.0567521316140358,-0.00154539539738447,-1.01908306629244,-0.000422225320519849,0
0.43,0.000987971486111629,0.000568091835454698,-0.0491390604168783,-0.0284303146248634,0.00113914771110047,3.40364976820996e-05,-0.0567498584524295,-0.00154389570617914,-1.01908575758079,-0.000407337246287747,0
0.44,0.000987858834404333,0.000568091117225813,-0.0491365107970282,-0.0284302916283763,0.0011390514849701,3.39751198522991e-05,-0.0567476790546252,-0.00154243226568965,-1.01908834191689,-0.000393040827842633,0
0.45,0.000987750761212759,0.000568090427504722,-0.0491340659349215,-0.0284302421588525,0.00113895916919891,3.39162350005033e-05,-0.0567455748308149,-0.00154105211741717,-1.01909082355073,-0.000379312552637125,0
0.46,0.000987646957069211,0.000568089765161221,-0.0491317153340934,-0.0284302191375883,0.00113887049981563,3.38596771794697e-05,-0.0567435645872328,-0.00153970445742787,-1.0190932065638,-0.00036612984251922,0
0.47,0.000987547382199712,0.000568089129109578,-0.049129461662937,-0.0284301725593497,0.00113878544254335,3.38054219516031e-05,-0.0567416243934269,-0.0015384330468563,-1.01909549487512,-0.000353471016596737,0
0.48,0.000987451610712687,0.00056808851830742,-0.0491272882611428,-0.0284301495152377,0.0011387036342889,3.37532426451212e-05,-0.0567397647495965,-0.00153718883440945,-1.01909769224862,-0.000341315255582684,0
0.49,0.000987359564515729,0.00056808793175399,-0.0491251955616172,-0.0284301264592364,0.00113862500817041,3.37030950234608e-05,-0.056737973689216,-0.00153599189357975,-1.01909980229769,-0.000329642567551805,0
0.5,0.000987271360024159,0.000568087368486745,-0.0491231935401703,-0.0284301033906713,0.00113854966296922,3.3655036931049e-05,-0.056736259713615,-0.00153484725576126,-1.01910182849291,-0.000318433755064607,0
0.51,4.70692758088211,-0.0599982998102653,4.65454995874359,3.00704015008034,-0.383556297192602,4.69165766169408,2.6798229177347,4.85032729949423,0.0688253085978133,21.2229289392028,3574.13351912208
0.52,4.6302801914826,-0.0147604113435045,8.48796326436743,0.747701253555684,-1.43536111886437,4.40220978371449,-1.89386587176949,8.3076982131976,0.311997738436156,45.1279480814672,3574.13351912208
0.53,4.6315888393232,0.0203311821131847,8.42354426190479,-1.00334252867168,-3.0778917571993,3.46101298241916,-6.37215258648999,5.59986299623476,0.731263681636019,69.3594907256725,3574.13351912208
0.54,4.6959863486558,0.0325084347739086,5.20481918780249,-1.60691083518243,-4.55394826145198,1.14669081147081,-5.43752467847688,-0.325008585884398,1.33104538321369,94.542772453789,3574.13351912208
0.55,4.69640011877406,0.0221055784377659,5.18527569407641,-1.085570612453,-4.01097568301649,-2.4430998347324,-3.84663440805184,-3.64265717697848,2.12258967937922,121.619061025269,3574.13351912208
0.56,4.69885359755581,0.0832681231674219,5.06369642698879,-4.14127896718581,-0.234533768532805,-4.69373546581151,3.97607411288099,-5.19442466858768,3.10938586401333,147.164275318975,3574.13351912208
0.57,4.63472913723972,0.0380019321004073,8.27111821011491,-1.86786750519598,4.18428696623467,-1.99346454862405,8.28544366356011,-1.80326059143797,-2.00720079661085,171.094679235097,3574.13351912208
0.58,4.64466626008264,0.0146958021957814,7.77553844477654,-0.69983750846295,2.86270107039201,3.65760621386839,4.22049546881546,6.56781460168889,-0.660920583632777,196.854237360789,3574.13351912208
0.59,4.68849372078588,0.00760184736559522,5.58547305008248,-0.339756199050135,-3.60152128713835,3.00184536181018,-4.51344133042671,3.30783778695187,0.87758478813807,222.239389037384,3574.13351912208
0.6,4.58377325045088,0.0327724153760935,10.8229163699643,-1.58969316350139,-2.41185312933092,-3.89807846576942,-4.27082400521211,-10.0708840437088,2.59466527021654,246.643513796364,3574.13351912208
0.61,4.62389682179147,0.0497468096484101,8.81820607564831,-2.44128385389251,4.50906376840433,-1.0253001980429,9.1349043907038,0.523590508486879,-1.78362288542723,272.4275602371,3574.13351912208
0.62,4.57673872697381,0.0218604239487488,11.1775776094635,-1.03444947364516,-1.3394161520393,4.37641172934784,-4.30987856701586,10.3650023476448,0.30177755813853,297.090370566797,3574.13351912208
0.63,4.60307454614131,0.0441639465661137,9.86234103094362,-2.14902447516232,-2.51175883067213,-3.85763053026737,-3.4897085557963,-9.4713257256354,2.57402856548021,322.116876236422,3574.13351912208
0.64,4.61841232455575,0.0709298733654564,9.09701552156726,-3.49215438642778,4.4130072243903,1.36386607994447,7.56686239364473,6.13949730628881,-1.25569532295547,347.691682747912,3574.13351912208
0.65,4.60925108490678,0.0619799295082242,9.55664827451419,-3.0263396587737,-4.51526511160587,0.928126094499544,-9.95538110727242,-1.1741571368454,1.38151317597232,372.15198119481,3574.13351912208
0.66,4.60648183524792,0.0525003642449621,9.69665724364966,-2.54889251785542,3.99677280875709,-2.29090338117846,9.70933225505135,-2.50017637966248,-2.07987142460834,397.050675836313,3574.13351912208
0.67,4.62733802198621,0.0288032799651694,8.65546213019997,-1.36354063868506,-3.67761628289122,2.80859845376113,-7.73226948932581,4.12168367358688,0.924808731354192,422.339000487746,3574.13351912208
0.68,4.60919275790279,0.0581559585734264,9.56438692348402,-2.83345151938452,3.77089848351898,-2.65110630153063,9.49325972386647,-3.06332573358257,-2.17094538651538,447.526774078448,3574.13351912208
0.69,4.54945561517094,0.021878184370645,12.5530392882587,-1.01758627083181,-4.23105749422037,1.67217748159799,-12.0658801259707,3.60954484344723,1.1992306549175,472.501192172771,3574.13351912208
0.7,4.54233867415207,0.0335868280131257,12.9106577571951,-1.60086308371595,4.54007541425304,0.147254672620709,12.8366999779142,2.11352312815475,-1.53097924599075,497.417939724668,3574.13351912208
0.71,4.54518326258967,-0.00482263896812052,12.7702427386233,0.325543255798398,-3.65949403913339,-2.695703530791,-10.4826144639173,-7.30067613414181,2.20462638495029,522.294015586761,3574.13351912208
0.72,4.61503174088002,0.0361589275196512,9.27963229492017,-1.71879308081376,0.772960836064818,4.54998428384972,-0.214267209025661,9.43503655248431,-0.16044068303091,547.152448150484,3574.13351912208
0.73,4.59422874906499,0.0837602031569236,10.3216311550921,-4.0937950836738,3.23257699138335,-3.26563922764704,10.2502366692446,-4.269411682346,-2.34305274648695,571.924599534057,3574.13351912208
0.74,4.62801600070864,0.0532595897056796,8.63412167117025,-2.55504697256283,-4.33585142866689,-1.6191853121981,-7.13187404380441,-5.49660756174963,1.93970720220556,596.613800624809,3574.13351912208
0.75,4.62638091826225,0.0984071600867999,8.71777612197408,-4.80204195001929,-0.462198412126011,4.60428680664504,-5.82176845035188,8.07256090178909,0.121316864099979,621.302314262826,3574.13351912208
0.76,4.53325173209322,0.107448977559156,13.3761853688612,-5.26411525571119,4.53221662101888,0.144668757736082,13.0629380184858,5.99940786851051,-1.51518910246633,646.333402406307,3574.13351912208
0.77,4.56616423830026,0.0936968051423527,11.7325298974372,-4.58007721360156,0.690874115830822,-4.5145684066698,6.52455237267916,-10.7730952568413,-2.96922167705192,671.320035952011,3574.13351912208
0.78,4.61585146083005,0.0925491435367054,9.25016031892347,-4.49917065943615,-4.15576087360059,-2.01104490597965,-6.20341318832778,-8.20522195698559,2.04154285805492,695.798160479819,3574.13351912208
0.79,4.56420039873206,0.0578679855050817,11.8347328055598,-2.78287126291812,-3.68034304335532,2.70006464121851,-11.2477190284232,4.61455195036474,0.950522949506537,720.789559820679,3574.13351912208
0.8,4.54895696730591,0.0975611256643611,12.598949765566,-4.75216832177637,-0.0919956507783998,4.54907292356143,-5.27281289985983,12.3900800270548,0.0416638233471279,745.491382702436,3574.13351912208
0.81,4.51919904029358,0.101911225045927,14.0889873234272,-4.96239080050005,2.94327002610254,3.43084645780413,5.09191668155776,14.042694569229,-0.686506749668126,770.179621288763,3574.13351912208
0.82,4.49819234486173,0.123776241941994,15.1414386017581,-6.05522216793524,4.28476160799271,1.37472647901816,12.2770787721125,10.7332294887052,-1.2328208967776,794.898883269611,3574.13351912208
0.83,4.52304123363366,0.0688761365950339,13.9012628614988,-3.3216920946893,4.51935655546098,-0.195095484197852,13.9885611674134,2.93238878424081,-1.59871174344781,819.707146920837,3574.13351912208
0.84,4.49231414836201,0.0490303605080442,15.4397899698586,-2.29335353783111,4.38075856014506,-0.996114863628086,15.5760051216308,-1.01717708082744,-1.78346498897293,844.109553414053,3574.13351912208
0.85,4.5062481520347,0.0720529060282145,14.7454151739906,-3.45947986350207,4.38542456817382,-1.03899729828366,15.1443576023881,0.209051166748254,-1.78743937323868,868.920724802828,3574.13351912208
0.86,4.50686878859318,0.0635240360675043,14.7166596083092,-3.04290970110224,4.50065501450273,-0.244961264662589,14.8272583867192,2.44781090147253,-1.61107658585013,893.674063036723,3574.13351912208
0.87,4.48943246622873,0.0636625378059279,15.5907048635975,-3.02154416418531,4.28577206316454,1.33836266017354,13.8730758580486,7.72900857269247,-1.25393194283412,918.167045774395,3574.13351912208
0.88,4.48152966133203,0.123010482416048,15.9881832246646,-5.97730490329885,3.03462372334205,3.30004523331312,5.98599843840839,15.9849303854543,-0.716081399229244,942.660225588235,3574.13351912208
0.89,4.51785124790644,0.0518819232754684,14.1744484370709,-2.41637955625157,0.0422759903377302,4.51795134688428,-2.44651168224169,14.1692787128953,0.00212619282419562,967.282281989785,3574.13351912208
0.9,4.57097228477462,0.0999340501845722,11.5207803000131,-4.81928134458478,-3.52007415732797,2.91767927803516,-12.0221382143395,3.37965148421422,0.900557983663124,991.90173826105,3574.13351912208
0.91,4.50792116653428,0.139037882520801,14.6757859629453,-6.77621826430799,-4.19259429385022,-1.66217864973602,-10.779132772164,-12.0460003435075,1.97907693783502,1016.46130182693,3574.13351912208
0.92,4.53137328266608,0.0799662994144803,13.5056454247411,-3.812536787948,4.0330171271187,-2.06748912651779,13.8043831065695,-2.52525288740456,-2.02685993746144,1040.98665904477,3574.13351912208
0.93,4.52077960760096,0.0539110283942129,14.0377938246127,-2.49967302009424,2.55431938770304,3.73038967469721,5.71316537376169,13.0639872199023,-0.588481125366489,1065.497951387,3574.13351912208
0.94,4.48702239148616,0.0978962738565516,15.7281380946508,-4.69383298920872,-3.7955255793861,2.39519084800334,-15.8988368349536,4.07840451040761,1.02966785776529,1090.03173216416,3574.13351912208
0.95,4.40847816508197,0.108066169169458,19.6578658767946,-5.23774027117378,-1.46486603807819,-4.15939004174994,-1.09222312612295,-20.31434622677,2.82748283548907,1114.67809143221,3574.13351912208
0.96,4.49215653853359,0.130663551272021,15.476563438592,-6.36821037125016,4.48499705873567,0.285209946273768,14.8215170237282,7.77179209169902,-1.47821099297741,1139.22888265389,3574.13351912208
0.97,4.51427987508107,0.0826070062169557,14.3729821715058,-3.93639428811654,-2.76924536383473,3.56606601494111,-12.0860758658591,8.71806094602689,0.678577654327073,1163.57718792782,3574.13351912208
0.98,4.43596016437025,0.117878468331491,18.2916043036645,-5.67966837051039,-0.678984817089873,-4.38527280010461,3.31626336423125,-18.8638229979999,3.01454659843358,1187.92783437655,3574.13351912208
