t,iq,id,vq,vd,ia,ib,va,vb,theta_e,omega,r
0,0,0,0,0,0,0,0,0,0,0,0
0.01,0.00116064733007997,0.000665060431669896,-0.0576087440048131,-0.0333260325516785,-0.00121179006433077,-0.000566544298871622,0.0604054513086827,0.027938741625957,2.5284656429655,-0.00116241084002205,0
0.02,0.00130664541209289,0.000749117234047764,-0.0649341825258402,-0.0375380988790145,-0.00136455297835009,-0.000637568845354497,0.0680658326880575,0.0315055447220195,2.52845702534698,-0.00127629602517116,0
0.03,0.00133597036002616,0.000765902735832302,-0.0663926383944997,-0.0383792217197863,-0.00139516134992038,-0.000651880826004407,0.0695932755497751,0.0322137096754222,2.52844813797488,-0.00126901483477019,0
0.04,0.00132101274272711,0.000757525888007433,-0.0656642954131245,-0.0379594539485697,-0.00137970851229169,-0.000644456793399456,0.0688311167540019,0.0318590207409555,2.52843984160835,-0.00121866758450601,0
0.05,0.0013356538617196,0.000765928599722435,-0.0663972415650048,-0.0383805389560726,-0.00139501124321372,-0.000651583831526355,0.0695975389911613,0.032215555627274,2.52843146025368,-0.00119841278113805,0
0.06,0.0013355294981365,0.000765957545404965,-0.066400974615642,-0.0383819805534047,-0.00139496865611113,-0.00065145410446404,0.0696011285813244,0.0322172121903031,2.52842331563538,-0.0011639647227859,0
0.07,0.00136959546429995,0.00078550520563432,-0.0680922031744793,-0.039361492801152,-0.00143056421180994,-0.000668054039579293,0.0713756991512232,0.0330361138659466,2.52841546280523,-0.0011659202760483,0
0.08,0.00133531498086424,0.000766026227558854,-0.0664092153745644,-0.0383854194918802,-0.00139491150859278,-0.000651217446498427,0.0696091844448358,0.0322208900739525,2.52840776213405,-0.00109820450865949,0
0.09,0.00133501492804744,0.000765949555895224,-0.0664033953142112,-0.0383815877414442,-0.0013946809627322,-0.000651005831370178,0.0696029405295276,0.0322178189276156,2.52840034195869,-0.00106662868986138,0
0.1,0.00133485342758313,0.000765946646841015,-0.0664041396567334,-0.0383814143060068,-0.00139459032496537,-0.000650865396568605,0.0696034587953569,0.0322180268080364,2.52839314887126,-0.00103615187724624,0
0.11,0.00133469703259169,0.000765944097824726,-0.0664048687185308,-0.0383812872755541,-0.00139450277471573,-0.000650729237941336,0.0696039991371784,0.0322182107908801,2.5283861757515,-0.00100660757808921,0
0.12,0.00133454552704043,0.000765941627663877,-0.0664055802668354,-0.0383811631788901,-0.00139441796225443,-0.000650597331130556,0.0696045249349543,0.0322183935992942,2.5283794158724,-0.000977966755484117,0
0.13,0.00139371622887444,0.000799860032479069,-0.0693349461479636,-0.0400808365169879,-0.00145621382654255,-0.000679457349339681,0.0726805983021199,0.0336353808316244,2.52837256289262,-0.00100996300843975,0
0.14,0.0015218198628018,0.000873773781321085,-0.0757871361869634,-0.0437846335158661,-0.00159038941131309,-0.000741672323958129,0.079423061020941,0.0367799064925936,2.52836601424477,-0.00111415739472662,0
0.15,0.00133483594804718,0.000766343905552351,-0.0664438982795531,-0.0384013333466497,-0.00139492695988114,-0.000650575719169577,0.0696437101660793,0.0322367438753863,2.52835962339653,-0.000894863811995672,0
0.16,0.00133397078696654,0.000765933775407734,-0.0664083939389779,-0.0383807975733804,-0.00139409751356924,-0.000650095940189248,0.0696066745912789,0.0322191132756177,2.52835367452953,-0.000868906477021454,0
0.17,0.00133383895553006,0.000765930118729236,-0.066408870038625,-0.0383805920899018,-0.00139402239945784,-0.000649982196583816,0.069606966330475,0.0322192195319276,2.52834790854618,-0.000844473727193885,0
0.18,0.00133371351019091,0.000765928069743137,-0.0664094470174008,-0.0383804969949667,-0.00139395215961278,-0.000649872996820974,0.0696074007245349,0.032219357025112,2.52834231889249,-0.000820791000690682,0
0.19,0.00133359190655466,0.00076592608901714,-0.0664100060700621,-0.0383804019107788,-0.00139388407437241,-0.000649767138501292,0.0696078193066291,0.0322194917469888,2.52833690017243,-0.000797832511108935,0
0.2,0.00133347414462132,0.00076592416880923,-0.0664105536734015,-0.0383803068368083,-0.00139381814090619,-0.000649664618722983,0.0696082259720729,0.0322196286309468,2.52833164715873,-0.000775576099885369,0
0.21,0.00133335999156023,0.000765922307251556,-0.0664110843675248,-0.03838021177228,-0.00139375422707444,-0.000649565241027544,0.0696086177408894,0.0322197628600568,2.52832655478407,-0.000754000297188958,0
0.22,0.00133324933095608,0.000765920502554827,-0.0664115983539202,-0.0383801167170024,-0.0013936922676945,-0.000649468904334333,0.0696089948868862,0.0322198942575949,2.52832161813613,-0.000733084289787162,0
0.23,0.00133314204639355,0.000765918752983928,-0.0664120957209769,-0.0383800216701372,-0.0013936321975241,-0.000649375507744928,0.0696093576134316,0.0322200225651347,2.52831683245247,-0.000712807900923521,0
0.24,0.00133303777183984,0.000765917056857028,-0.0664125637571319,-0.0383799584134618,-0.00139357380759554,-0.000649284746409416,0.0696097247428436,0.0322201187744508,2.52831219311649,-0.000693151570850306,0
0.25,0.00133293712294612,0.000765915412543484,-0.0664130388128888,-0.0383798633797285,-0.00139351745389639,-0.000649197118436038,0.0696100653575933,0.0322202488866938,2.52830769565325,-0.000674096337966088,0
0.26,0.00134225261104758,0.000771265701264451,-0.0668781791960894,-0.0386479807542211,-0.00140325715193769,-0.000653729469541263,0.0700971773580991,0.0324460012234188,2.5283033462475,-0.00066535254483089,0
0.27,0.00129300530690755,0.000743137784412571,-0.0644521864837646,-0.0372384823542494,-0.00135191319019853,-0.000629640545454268,0.0675483757981933,0.0312730848752047,2.52829905490355,-0.000596604943379703,0
0.28,0.00125990168101845,0.000723953530723107,-0.0627154759482916,-0.03627717567897,-0.00131717442446417,-0.000613606140791513,0.0657627987087363,0.0304058991752888,2.52829491362514,-0.000545098351599449,0
0.29,0.00133227883768704,0.000765749990155585,-0.0664006951635614,-0.0383715617667692,-0.00139301410204662,-0.000648730807246925,0.0695967086764964,0.0322137736383691,2.52829104057143,-0.000603237575407196,0
0.3,0.00133086298942621,0.000764999655140276,-0.0663350170557724,-0.0383339651823246,-0.00139158784760909,-0.000648000024209798,0.0695282735534496,0.0321814628484469,2.52828756198958,-0.000587122879541341,0
0.31,0.00133239544441945,0.000765903232806911,-0.0664151959893735,-0.0383792486682792,-0.00139321121624115,-0.00064872790079789,0.0696115735613914,0.0322207047246874,2.52828381989625,-0.000572930959492916,0
0.32,0.00133232039027957,0.000765905341987359,-0.0664158808750267,-0.0383793571234491,-0.00139317209613845,-0.000648660254509761,0.0696121734101977,0.032220949686866,2.5282801901047,-0.00055755846058179,0
0.33,0.00133224137783803,0.000765904068236018,-0.0664162354340771,-0.0383792938899697,-0.00139312785887459,-0.000648591473418951,0.0696124391579383,0.0322210310699358,2.52827667130496,-0.000542649735583811,0
0.34,0.00133216492653236,0.000765902820803053,-0.0664165858980984,-0.0383792306570153,-0.00139308504703194,-0.000648524921751703,0.0696126990833126,0.0322211165933156,2.52827326011144,-0.00052819689967476,0
0.35,0.00133209091994724,0.000765901611439489,-0.0664169304573042,-0.0383791674244447,-0.00139304360538925,-0.000648460492933533,0.0696129522504841,0.0322212045481816,2.52826995323341,-0.000514186036273902,0
0.36,0.0013320190088367,0.00076590043903057,-0.0664172555696329,-0.0383791041930699,-0.00139300333412048,-0.00064839789754344,0.0696131909681463,0.0322212836382544,2.52826674748089,-0.00050060362981074,0
0.37,0.00133194906000707,0.000765899302448316,-0.0664175583366945,-0.0383790727178113,-0.00139296415767816,-0.000648337022981505,0.0696134396346286,0.032221333000408,2.52826363976138,-0.000487436577928821,0
0.38,0.00133188157267695,0.000765898200598278,-0.0664178674461824,-0.0383790094853172,-0.00139292636449121,-0.000648278273908217,0.0696136629215981,0.0322214124428281,2.52826062707722,-0.000474672178945549,0
0.39,0.00133181618082142,0.000765897132420181,-0.0664181681534417,-0.0383789462533305,-0.00139288974492829,-0.000648221347550988,0.0696138784052588,0.0322214914265733,2.52825770652195,-0.000462298119600419,0
0.4,0.00133175288444047,0.000765896096885411,-0.0664184638904357,-0.0383788830211023,-0.00139285430000487,-0.000648166240556964,0.0696140881511299,0.0322215725624818,2.52825487527834,-0.000450302463176825,0
0.41,0.00133169108468125,0.000765895092997255,-0.0664187281004339,-0.0383788515392304,-0.00139281968600406,-0.000648112459976157,0.0696143029244493,0.0322216156685642,2.52825213061528,-0.000438673637985191,0
0.42,0.0013316315135852,0.000765894119789458,-0.0664190006468938,-0.0383787853956029,-0.00139278632524196,-0.000648060601271423,0.0696144914486891,0.0322216913850625,2.52824946988486,-0.000427400426203023,0
0.43,0.00133157355553066,0.000765893176324121,-0.0664192538734005,-0.0383787539090697,-0.00139275386428637,-0.000648010157978864,0.069614694571407,0.0322217370177629,2.5282468905205,-0.000416471953053453,0
0.44,0.00133151770972663,0.000765892261693621,-0.0664195158312769,-0.0383786906739521,-0.00139272259137869,-0.00064796153535626,0.0696148742174647,0.032221813555334,2.52824439003412,-0.00040587767631305,0
0.45,0.00133146312771552,0.000765891375016998,-0.0664197470291785,-0.038378659183579,-0.00139269201900451,-0.000647914036730627,0.0696150596531336,0.0322218519896053,2.52824196601363,-0.000395607376143089,0
0.46,0.00133141029193394,0.000765890515440276,-0.0664199744752642,-0.0383786276900098,-0.00139266242569545,-0.000647868053823515,0.0696152405386697,0.032221892517453,2.52823961612044,-0.000385651145230317,0
0.47,0.00133135945198633,0.000765889682135484,-0.0664202134448415,-0.0383785644518056,-0.00139263395593896,-0.000647823788047913,0.0696153997841167,0.0322219657429106,2.5282373380879,-0.000375999379231369,0
0.48,0.00133130987583285,0.000765888874300427,-0.0664204300063459,-0.038378532953805,-0.00139260618914919,-0.000647780638187513,0.0696155698417203,0.0322220072237401,2.52823512971846,-0.000366642767506372,0
0.49,0.00133126181307825,0.000765888091156634,-0.066420639287768,-0.0383785014531535,-0.00139257926976221,-0.000647738805819513,0.069615733531088,0.0322220474537862,2.52823298888179,-0.000357572284138167,0
0.5,0.00133121514730721,0.000765887331949815,-0.0664208380020206,-0.038378469950249,-0.00139255313150431,-0.000647698193295995,0.0696158890269358,0.0322220836011917,2.52823091351258,-0.000348779179225254,0
0.51,4.55821395018766,-0.00265300733156931,12.0911728240567,0.137383154536132,-0.351411369492189,4.54464866667655,-0.788160812117689,12.0662395520145,0.0765886250853337,23.5485466376763,2161.06446629721
0.52,4.45663274782782,0.0545312109345438,17.1723051586887,-2.72313857487765,-1.46139543786126,4.21056676424631,-8.39017219200777,15.2285442097914,0.346304763174484,50.0313818827688,2161.06446629721
0.53,4.58540056756074,-0.0445859785267754,10.7360236658287,2.25018234186666,-3.35547736381079,3.12548523199534,-6.23482710172106,9.02510142527645,0.811147461129698,76.8981176795799,2161.06446629721
0.54,4.59314338613543,0.0570369947195115,10.3510137279511,-2.83558599929033,-4.56756002666839,0.487457472142308,-10.5712878284397,-1.85254063488101,1.47689433277936,105.080759937744,2161.06446629721
0.55,4.51440991567759,-0.0277273185849749,14.289941426931,1.40944987212151,-3.16939337958444,-3.21490455479014,-11.0921547297921,-9.11883097647349,2.3571810989238,135.06355274783,2161.06446629721
0.56,4.51085418757187,-0.0508058791559831,14.470043691256,2.57338023261139,1.41762782459443,-4.28260645983578,1.94025305321355,-14.5684545624424,-2.83318821339632,162.627193642885,2161.06446629721
0.57,4.46429418164361,0.0377091829411758,16.8003533365659,-1.85104371667314,4.46372281399616,0.0807660977470594,16.745319226863,2.29619665206393,-1.54425777356319,189.210983488295,2161.06446629721
0.58,4.50243095745686,-0.00980696341638654,14.8959422183862,0.523515714568574,0.222207347389245,4.49695503623992,1.29037842812837,14.8491779836165,-0.0515508341151293,218.414911214689,2161.06446629721
0.59,4.44788326794266,0.0402424529698573,17.6256284781029,-1.9707547322836,-4.43707179053822,-0.312536311290874,-17.4138902693796,-3.36200522738077,1.65016500152148,245.432917895127,2161.06446629721
0.6,4.54662564389206,-0.0194185540783591,12.690953204794,1.01363263856728,1.82615655241642,-4.16381244438387,4.11759289487348,-12.0471230227107,-2.73254870904086,273.853658383769,2161.06446629721
0.61,4.45550209106987,0.0537317321604208,17.2495428695952,-2.63453858764033,2.64645128832967,3.58478473008731,7.9386960303526,15.5391321545778,-0.623876652628871,300.968514824285,2161.06446629721
0.62,4.42287446916747,0.114316940340528,18.88356246368,-5.68007325472177,-4.40680697156406,-0.393623231322368,-18.1076389594296,-7.80804551815989,1.68572255093495,329.457256026601,2161.06446629721
0.63,4.45346177361159,0.0407069218006038,17.3567961960584,-1.96627882168981,3.85810080635187,-2.22486785911641,16.0811149940281,-6.82073068996126,-2.08474777336063,356.406642337706,2161.06446629721
0.64,4.48209974927734,-0.00950132885240818,15.9275407811152,0.549655659191415,-2.65681809813558,3.60979584341569,-8.97063414343918,13.1725623833153,0.632362401014479,384.128425436446,2161.06446629721
0.65,4.4525331251243,0.0864046090707115,17.4085543003228,-4.26331271401108,1.69463183982931,-4.11834188894445,10.8459077541835,-14.2688430894897,-2.73182235174941,412.233531642045,2161.06446629721
0.66,4.48267376104599,0.0948494584945432,15.9042673957133,-4.6887472175618,-1.61334652319878,4.18335672203905,-10.3734301219927,12.9353012863511,0.389238062905903,439.993671755182,2161.06446629721
0.67,4.4770217023464,-0.0219171977763492,16.189644379916,1.16522477098118,2.43947671178399,-3.7540853825536,7.77472730832283,-14.2483665448455,-2.57023999976085,467.457391176302,2161.06446629721
0.68,4.37699149249462,-0.0433396162983337,21.1939165391185,2.24958191205947,-3.6007658858107,2.48885875117353,-16.0169513448446,14.0605827284315,0.956097723135307,494.887424185047,2161.06446629721
0.69,4.3647504542302,0.0808645151897336,21.8088314871696,-3.96347691114312,4.36080638489725,-0.20236914527417,21.9107378107457,3.35467564001126,-1.59864481362485,522.380530849142,2161.06446629721
0.7,4.33874491524471,0.0535832622654717,23.1120910557751,-2.60587369252944,-3.18008059373785,-2.95206131760313,-14.9468947731769,-17.8199233250717,2.33137665224414,549.930040965005,2161.06446629721
0.71,4.38701843430789,-0.00811101347862886,20.7014520973438,0.486117660961962,-0.791917156939137,4.31495813977869,-3.22094520174372,20.4551201738412,0.179659580166016,577.509883872062,2161.06446629721
0.72,4.35654599105533,0.0761773085290662,22.2280932989525,-3.73132231868329,4.25449135256159,-0.94053138464044,22.5262462426326,-0.76100471031472,-1.77088105385978,604.985064121071,2161.06446629721
0.73,4.40138105016661,0.0958585043662001,19.9893569199077,-4.69980850970163,-1.71647521817042,-4.05401736886164,-3.02432281358758,-20.3104914174556,2.76285285400476,632.24992630259,2161.06446629721
0.74,4.42151513830433,0.0983040941339646,18.9856592140899,-4.79865864112451,-4.10924034080883,1.63511578631215,-19.4666846397519,2.1285134916282,1.21432076016369,659.438979042348,2161.06446629721
0.75,4.32856421667757,0.0355245668856022,23.6364025660038,-1.66519169284615,0.611464633233034,4.28530526042884,1.49631496585288,23.6476939924188,-0.133525150846403,686.976271470745,2161.06446629721
0.76,4.36551441802216,0.039141765604348,21.7920887007523,-1.85432138143177,4.19388434156653,1.21267569503848,20.3483452205631,8.01738638908457,-1.28035416577866,714.476099710572,2161.06446629721
0.77,4.26175806795784,0.0938984837740189,26.9831124084344,-4.56418859945621,3.3187683992074,-2.67528971655055,24.1609203018985,-12.8518521226679,-2.22722206085992,741.450889941426,2161.06446629721
0.78,4.27854030119866,0.0488530544549881,26.1473327504435,-2.34483872483441,0.665934240946606,-4.2266801767635,6.6760217314231,-25.3892105519149,-2.97390468565043,769.105768902046,2161.06446629721
0.79,4.41750807547717,0.121550874598077,19.202201055397,-5.93701115492018,-1.74739753183973,-4.05903363840976,-1.58911743599433,-20.0361506432786,2.76258488400941,796.031107121762,2161.06446629721
0.8,4.31557226059469,0.0740682564857514,24.3023534957294,-3.59641169902004,-2.92013445639956,-3.17843747768951,-13.4425053890835,-20.5630156203972,2.4156851995501,823.617126811873,2161.06446629721
0.81,4.30614558324774,0.112631606612692,24.7770771542275,-5.47792664368424,-3.37244113999633,-2.67996574981704,-15.4692856282481,-20.1149803572314,2.26842667054797,850.532436110183,2161.06446629721
0.82,4.33326025993029,0.0833434169755397,23.4246992069923,-4.02490518677127,-3.22682821617083,-2.89338387856988,-14.3922672792736,-18.9150479053719,2.32099687061245,877.847802183448,2161.06446629721
0.83,4.21824639833548,0.0659825375478673,29.1788796565485,-3.18386506806054,-2.32806245312911,-3.51824979025964,-13.0370333753885,-26.2979043946844,2.57267006644071,905.219806342468,2161.06446629721
0.84,4.22973731891174,0.0407432825633658,28.6078390180547,-1.92128520701063,-0.539381154414207,-4.19540293325105,-1.46658987686549,-28.634749942381,3.02336153417174,932.286108868508,2161.06446629721
0.85,4.27522174958091,0.0966126418405184,26.3371466122447,-4.65607045030975,2.08424153612527,-3.73400485132829,17.3661004585629,-20.3406695704989,-2.60989756210739,959.220822400604,2161.06446629721
0.86,4.25189060191701,0.164458451710417,27.5073008470783,-8.05626398926912,4.14376203496007,-0.966879760173288,28.5353341196719,2.69994370962805,-1.76136907807115,986.28879591195,2161.06446629721
0.87,4.22887265829511,0.133272400493843,28.661771212001,-6.49557363129809,2.87079067912932,3.10800359868414,13.8666728752995,25.9114837316997,-0.714238800936978,1013.42104477882,2161.06446629721
0.88,4.29383525305134,0.10682134445075,25.4172532744308,-5.16474625103054,-2.08409328825391,3.75566068033731,-17.3341347744064,19.2934999281315,0.531485842157739,1040.52035351113,2161.06446629721
0.89,4.19993603286984,0.0612037656336271,30.1158826426718,-2.87471425239887,-3.8845821430619,-1.59788302291839,-26.5495700075204,-14.5034720600241,1.97561147654401,1067.55768715827,2161.06446629721
0.9,4.26165481831862,0.141362152052787,27.033692799563,-6.8775092167143,-3.71183759604402,2.09855824534976,-27.1456260527408,6.42150026176861,1.08938861214249,1094.54456929833,2161.06446629721
0.91,4.15960244483096,0.158434871015011,32.1400868793428,-7.73063812377385,-1.03061091678057,-4.03301813107875,0.790873722057295,-33.0472762745768,2.92947411624909,1121.58727696712,2161.06446629721
0.92,4.12156081366519,0.0967732145018155,34.0460208030973,-4.7101207989122,4.01281006129831,0.945507275344039,31.7585952354283,13.1418567614135,-1.31591934178412,1148.70698694514,2161.06446629721
0.93,4.25978690403667,0.182170580436898,27.1384820825207,-8.96286924932492,-3.27794018312476,2.72655070446802,-27.0186060534123,9.31800203124584,0.919709997320014,1175.68613537801,2161.06446629721
0.94,4.21577351510349,0.156892543721808,29.3430480968712,-7.65262592761267,0.72993107144519,-4.15506464833731,13.631068178476,-27.0882102678823,-2.93049599995476,1202.41749852876,2161.06446629721
0.95,4.17323211970769,0.0925142323528809,31.4740123813533,-4.44152194501039,1.3228873762644,3.95909007195695,5.06781306063934,31.3792581708364,-0.300310847178847,1229.41057272397,2161.06446629721
0.96,4.29457169083463,0.103522107022977,25.4109988929399,-5.00437917714704,-2.56051301833179,-3.44932397975518,-10.5610955314323,-23.6479584078968,2.52712353655831,1256.3526566625,2161.06446629721
0.97,4.16054493771427,0.101331577307025,32.1162175294967,-4.84081113760324,2.85484988363115,3.02823949007184,17.8530705708332,27.1321350443482,-0.731583601421427,1283.09454088884,2161.06446629721
0.98,4.27605088296254,0.0749607799351559,26.3448747556595,-3.57404041638712,-2.65260270013245,-3.35468764379983,-13.1335965230689,-23.1156837051943,2.49006741780356,1310.16438532208,2161.06446629721
