t,iq,id,vq,vd,ia,ib,va,vb,theta_e,omega,r
0,0,0,0,0,0,0,0,0,0,0,0
0.01,0.00118832170472419,0.000679764751464009,-0.0589849382433081,-0.0340581088548868,0.000825414717566272,0.00109219006371443,-0.0412851908642418,-0.0541729705078217,-0.127561203472492,-0.000978910267338973,0
0.02,0.00133146655892316,0.000762207218920212,-0.066170559507582,-0.0381886781862017,0.000925406443350675,0.00122367722733972,-0.046296761722782,-0.0607744020220658,-0.127568431898855,-0.00106190106371497,0
0.03,0.00136402018033678,0.000780846553737405,-0.0677918918563623,-0.0391225673811862,0.000948045148907941,0.00125358796599269,-0.0474297930551729,-0.0622633970379359,-0.127575827213122,-0.00104974737120414,0
0.04,0.00134665897063491,0.000771223323484416,-0.066946912365691,-0.0386404073669798,0.000936299728106489,0.00123758580188427,-0.0468444655341906,-0.0614863090907374,-0.127582672172464,-0.000998025817517797,0
0.05,0.00136346204710293,0.00078088627479183,-0.0677893336812876,-0.0391245723898746,0.000948030705321029,0.00125301632464102,-0.0474323094111223,-0.0622599546223016,-0.127589529660884,-0.000975351237327856,0
0.06,0.00136324579924332,0.000780933915357029,-0.067790708027483,-0.0391269410924949,0.000948058722780454,0.00125278950644923,-0.0474352452483095,-0.0622607028739296,-0.127596139138783,-0.000939510659299879,0
0.07,0.00139927298795588,0.000801629588408163,-0.0695815944332625,-0.0401638599727451,0.000973178736435238,0.00128588414671958,-0.0486920286476519,-0.0639047750795005,-0.127602450903106,-0.000936162483416248,0
0.08,0.00136286098707842,0.000781037269749858,-0.0677943949712223,-0.0391321277946249,0.000948127872721817,0.00125238285831717,-0.0474416346732475,-0.0622631087786264,-0.127608597869945,-0.00087197152538776,0
0.09,0.00136238312643777,0.000780923216480687,-0.0677814880978372,-0.0391264040713065,0.000947961275641581,0.0012519178380089,-0.0474346800329501,-0.0622507570594931,-0.127614462933042,-0.000839923879052741,0
0.1,0.00136211583995604,0.000780919065033143,-0.0677785624044413,-0.0391262130490883,0.000947930194832873,0.00125164791108183,-0.0474344690288325,-0.0622476121399698,-0.127620098687223,-0.000809293102100726,0
0.11,0.00136186080099685,0.000780915640616099,-0.0677758399338894,-0.0391260216149896,0.00094790111553122,0.00125139024857368,-0.0474342697469981,-0.0622446792885131,-0.127625514320456,-0.000779859612249268,0
0.12,0.00136161516776443,0.000780912352712362,-0.0677731951967137,-0.0391258597899267,0.000947873101430463,0.00125114209875997,-0.0474340965317402,-0.0622418298067338,-0.127630718431609,-0.000751575730989223,0
0.13,0.00142338672011076,0.000816298360183225,-0.0708336804659601,-0.0408988000429559,0.000990840713461876,0.00130790192612896,-0.0495825098832037,-0.0650514938105916,-0.127635967174637,-0.000775901370709714,0
0.14,0.00154518662340417,0.000886675394265616,-0.0769722022621723,-0.0444248801184847,0.00107615620060448,0.00141974743804798,-0.0538616292802952,-0.0706909809374756,-0.127640937344681,-0.000852885629194251,0
0.15,0.00136193147754978,0.000781469751323739,-0.0678162226918718,-0.0391538091360692,0.000948485040481624,0.00125137062845405,-0.04746823158612,-0.0622802361921,-0.127645752141697,-0.000670742802743098,0
0.16,0.00136070339151297,0.000780903101506854,-0.0677636123177922,-0.0391253966905487,0.000947772185668528,0.0012502204836312,-0.0474336277687989,-0.0622314613137106,-0.127650166996339,-0.000645879205566585,0
0.17,0.00136049754825418,0.000780897398816827,-0.0677611737252988,-0.0391251161525575,0.000947745626364803,0.00125001302152854,-0.0474333029992864,-0.0622288771002589,-0.127654408235956,-0.000622823597142338,0
0.18,0.00136030532571825,0.000780894806614932,-0.0677591053311064,-0.0391249869555538,0.000947723677535152,0.00124981883055699,-0.0474331651405048,-0.0622266486667716,-0.12765848381599,-0.000600673151150759,0
0.19,0.00136012067017331,0.000780892330986418,-0.0677571198922837,-0.039124857776111,0.000947702607242714,0.00124963228121374,-0.0474330279382451,-0.0622245100640244,-0.127662400213219,-0.000579387876145219,0
0.2,0.0013599428592365,0.000780889951994632,-0.0677551927890128,-0.0391247610369083,0.000947682311684843,0.00124945265361845,-0.0474329208055781,-0.0622224324494248,-0.127666163644918,-0.000558933954731465,0
0.21,0.00135977240635221,0.000780887665793199,-0.0677533608050119,-0.039124631884919,0.000947662860042917,0.00124928045184422,-0.0474327844740296,-0.0622204602807211,-0.127669780085811,-0.000539278916043167,0
0.22,0.00135960833241692,0.000780885468767496,-0.0677515856866055,-0.0391245351626089,0.000947644131391416,0.00124911469975706,-0.0474326787466998,-0.0622185470872797,-0.127673255276519,-0.000520391557591672,0
0.23,0.00135945103445539,0.000780883357442967,-0.0677498974408207,-0.0391244060340328,0.000947626179864381,0.00124895578634669,-0.0474325434808104,-0.0622167306252797,-0.12767659473451,-0.00050224189558351,0
0.24,0.00135929964978371,0.000780881328481251,-0.0677482628381768,-0.0391243093250209,0.000947608899054063,0.00124880285133655,-0.047432439074734,-0.0622149694299712,-0.127679803760686,-0.000484801117319315,0
0.25,0.00135915420229068,0.000780879378673183,-0.0677466925226451,-0.0391242126199983,0.000947592295297068,0.00124865591398714,-0.0474323350502543,-0.0622132779442867,-0.127682887449753,-0.000468041535455594,0
0.26,0.00136949010758767,0.000786814752314541,-0.0682625635161799,-0.0394215863076846,0.000954799203388302,0.00125814907322199,-0.0477931621910297,-0.0626869419623947,-0.12768584054419,-0.000460918594401349,0
0.27,0.00131855478312863,0.000757786550713309,-0.0657521285303782,-0.0379672220085775,0.000919524772520282,0.001211322155859,-0.0460311363325356,-0.0603820075954709,-0.12768874694238,-0.00040183287698559,0
0.28,0.00129011070898895,0.000741254444322994,-0.0642498978972948,-0.0371389085375569,0.000899508411853842,0.00118521239011442,-0.0450184325323008,-0.0589973612927604,-0.127691516251781,-0.000362653295205265,0
0.29,0.00135824443257921,0.00078065996062412,-0.0677220942163968,-0.0391132166029762,0.000947272761354741,0.00124777090379181,-0.0474189912981751,-0.0621897501389855,-0.127694063018562,-0.000406977275023849,0
0.3,0.00135635999981299,0.000779669630343845,-0.0676330600315603,-0.0390636049533896,0.000946053274794824,0.001246025835536,-0.0473585827888641,-0.0621076539358671,-0.127696276533177,-0.000393430147982186,0
0.31,0.00135839529937957,0.000780862931359528,-0.0677380178945831,-0.0391234036436884,0.000947499096359269,0.00124789028738358,-0.0474314125664452,-0.0622040262596039,-0.127698714329832,-0.000382013526072894,0
0.32,0.00135829700050844,0.000780867852234517,-0.0677374270338076,-0.0391236299451467,0.000947494384774286,0.00124778994028032,-0.0474317076493157,-0.0622033001593568,-0.127701059401275,-0.000369278477437688,0
0.33,0.00135819064466455,0.000780866461231008,-0.0677362706453105,-0.0391235656289416,0.000947482271872608,0.00124768249247029,-0.0474316367577791,-0.0622020544912702,-0.127703312893428,-0.00035703099768518,0
0.34,0.00135808836335569,0.000780865091711376,-0.067735154666694,-0.0391235013087282,0.000947470588920949,0.00124757916673265,-0.0474315655287676,-0.0622008530798834,-0.12770547836947,-0.000345261821380443,0
0.35,0.00135799027299718,0.000780863775463717,-0.0677340913051327,-0.0391234369833965,0.00094745938661698,0.0012474800712227,-0.0474314957302823,-0.0621997078700058,-0.127707559266878,-0.000333952321592508,0
0.36,0.00135789590792774,0.000780862510585702,-0.067733063368759,-0.0391233726536967,0.000947448607937663,0.00124738474117735,-0.0474314253795485,-0.0621986016529364,-0.127709558889059,-0.00032308454472606,0
0.37,0.00135780526814737,0.000780861295074814,-0.0677320767775454,-0.0391233083193971,0.000947438254901926,0.00124729317383808,-0.0474313554282695,-0.062197540149841,-0.127711480410702,-0.000312641238110064,0
0.38,0.00135771823724075,0.000780860127005588,-0.0677311313464002,-0.0391232439802592,0.000947428314619653,0.00124720525108752,-0.0474312860428377,-0.062196523032439,-0.127713326882107,-0.000302605822919933,0
0.39,0.00135763432567041,0.00078085900452775,-0.0677302080516776,-0.0391232120049114,0.000947418726599114,0.00124712048482892,-0.0474312470880019,-0.062195527170221,-0.127715101234333,-0.000292962367861524,0
0.4,0.00135755393043088,0.000780857925862526,-0.0677293319689094,-0.0391231447450714,0.00094740954318918,0.00124703926637645,-0.0474311748358516,-0.0621945859170187,-0.127716806284641,-0.000283695563880185,0
0.41,0.00135747679482347,0.000780856889301612,-0.0677284952954803,-0.0391230803905992,0.000947400733408776,0.00124696133877138,-0.0474311063401389,-0.0621936865412368,-0.127718444739381,-0.000274790699856799,0
0.42,0.00135740231289263,0.00078085589320196,-0.0677276725604158,-0.0391230483948528,0.000947392221720779,0.00124688609873455,-0.0474310677321567,-0.0621927999043656,-0.127720019199853,-0.000266233639254145,0
0.43,0.0013573312308801,0.000780854935985073,-0.0677269056753291,-0.0391229840294977,0.000947384104754913,0.00124681428425908,-0.0474310003049354,-0.0621919757026618,-0.127721532165461,-0.0002580107976757,0
0.44,0.0013572624532991,0.00078085401613466,-0.0677261443519597,-0.0391229520201341,0.00094737624449145,0.00124674480669558,-0.047430962001127,-0.0621911556991816,-0.127722986037989,-0.000250109121300044,0
0.45,0.00135719646968551,0.000780853132192126,-0.0677254173702561,-0.0391229200029869,0.000947368704739456,0.00124667814958848,-0.0474309245302018,-0.0621903724522197,-0.127724383125739,-0.000242516066156929,0
0.46,0.00135713330391241,0.000780852282756875,-0.0677247300225513,-0.0391228556229489,0.000947361489938011,0.00124661433469107,-0.0474308566129258,-0.0621896352271473,-0.127725725646232,-0.000235219578214401,0
0.47,0.00135707244257205,0.000780851466482267,-0.067724060577856,-0.039122823592955,0.000947354536032337,0.00124655285092728,-0.0474308197998426,-0.0621889141258588,-0.127727015731016,-0.000228208074243859,0
0.48,0.00135701379312249,0.000780850682074357,-0.0677234082113153,-0.0391227915569127,0.000947347832521916,0.00124649360473157,-0.0474307820208781,-0.0621882123545132,-0.127728255427829,-0.000221470423430592,0
0.49,0.00135695758839438,0.000780849928289682,-0.0677227882533181,-0.0391227595136981,0.000947341410302451,0.00124643682532941,-0.0474307453503146,-0.0621875450253829,-0.127729446705006,-0.000214995929702859,0
0.5,0.00135690347914176,0.000780849203933664,-0.0677221867024775,-0.0391227274645063,0.000947335226074812,0.00124638216467849,-0.0474307081236031,-0.0621868981612753,-0.127730591453626,-0.000208774314753182,0
0.51,4.53506521980609,0.00532262814809126,13.2484746695985,-0.260815275161153,-0.265876937098718,4.5272678662284,-1.05258728332272,13.2091697577758,0.0598341833273563,18.3620356928042,4284.00417424442
0.52,4.59682583464706,-0.00896265592058287,10.1623915493954,0.462308391350655,-1.2353002053659,4.42774451452461,-2.26628904195443,9.91725088067522,0.270122927151279,39.0320755340058,4284.00417424442
0.53,4.57646109474235,0.007039975186796,11.1826336494563,-0.331207318453656,-2.70279002019627,3.69309786218405,-6.88513875906657,8.81792820872051,0.63332121336212,60.2249347955845,4284.00417424442
0.54,4.50219444442149,-0.0520005208128931,14.8979937861265,2.62944460246299,-4.14373728077288,1.76122122899921,-12.5862790314867,8.39343659715404,1.15734899180638,83.1016962160285,4284.00417424442
0.55,4.5963319653239,0.0207301715707766,10.1932147780843,-1.0090520187197,-4.42380041000496,-1.24767271666553,-9.51963423237006,-3.78105508694683,1.85020250239166,105.438593471864,4284.00417424442
0.56,4.47210924462241,0.0435444842881112,16.4064923310376,-2.13912668462938,-1.95504353802808,-4.0223701945947,-5.09504535669831,-15.741326703759,2.6989097203508,126.125830351718,4284.00417424442
0.57,4.43260827600528,-0.016949853531455,18.3838084722149,0.886618557026295,2.3821674381887,-3.73812542893878,9.07086066832985,-16.0146805508099,-2.57804774543539,148.726642899468,4284.00417424442
0.58,4.52325330936202,0.0380283944315996,13.8539114821671,-1.84838622682778,4.47125114084758,0.684967075783035,13.3807875918298,4.03756342632314,-1.41037741072588,169.609679945345,4284.00417424442
0.59,4.48063007603245,0.0253396298672195,15.9875279427191,-1.21936021469516,0.409944774890427,4.46190914930239,0.157802381918293,16.0331839464489,-0.0859640107906882,191.890181724201,4284.00417424442
0.6,4.47497993865732,0.0248844156488894,16.2724608006654,-1.1726516918322,-4.40312143656304,0.799115949288146,-16.229806347641,1.66176966443008,1.396822698623,212.943379231747,4284.00417424442
0.61,4.54504438746161,0.0652979155885645,12.7718061935555,-3.19343119446561,-0.530848582307736,-4.51440938378858,1.86742176863737,-13.0318752364174,3.03890621726829,234.453777643584,4284.00417424442
0.62,4.5511958221396,0.0163091403958344,12.4669428619335,-0.740811890019171,4.51737049294121,0.554087744879378,12.2758641105417,2.2970909687304,-1.44516534022524,256.212953306284,4284.00417424442
0.63,4.50943499904724,0.0644702447863962,14.5576895185415,-3.15473098873505,-2.14974860661149,3.96456067572019,-9.87298203746794,11.1536037861031,0.511162712369993,277.826880728354,4284.00417424442
0.64,4.37131488556554,0.0334632794038354,21.4663775770605,-1.60077497251033,-2.18785333899695,-3.78454903348803,-9.20912664087032,-19.4566141274877,2.62508571282644,299.334043268059,4284.00417424442
0.65,4.4372858075213,0.118102004214404,18.1705851128689,-5.8343095066809,4.383915077949,0.696234163454213,16.7953999542625,9.06222219657627,-1.38668656171809,320.764539903225,4284.00417424442
0.66,4.41393053349318,0.144361483310531,19.3411366924644,-7.14083465684675,-3.73802663624457,2.35176101232526,-20.3016362290487,3.59369650588271,1.04191606783805,342.128142396649,4284.00417424442
0.67,4.34544195128035,0.0861677396619418,22.7683396198205,-4.21068752769845,1.95372930479016,-3.88242610166759,14.3589641730989,-18.1644522729166,-2.65554245828578,363.412722125514,4284.00417424442
0.68,4.35377127000667,0.0835338051271872,22.3547868595411,-4.05868315204328,-0.294753063450606,4.34458545775325,-5.98408431033838,21.9180322892123,0.0869241540242538,384.637709060612,4284.00417424442
0.69,4.27134763140764,0.0624673785192242,26.4789158094284,-3.03422914464007,-0.723585005070556,-4.21007571216335,-1.10549466765578,-26.6292585417763,2.98600945257262,406.244283559671,4284.00417424442
0.7,4.39077592870982,0.0294833445713234,20.5105697208386,-1.36065074227642,1.07767871164179,4.25657034691297,3.57916401125288,20.2416507651029,-0.241254672623722,427.556711530885,4284.00417424442
0.71,4.28792577885955,0.0836070904423329,25.6560971593797,-4.04099941475833,-0.812454951093905,-4.21108235291398,-0.386248777129697,-25.9695169305048,2.97049763005588,448.660635576785,4284.00417424442
0.72,4.30063114466094,0.112767796672373,25.02397943545,-5.53063481050008,-0.12581862733641,4.30026911848656,-6.90937787571486,24.6788971707311,0.0554651834657535,470.181927838121,4284.00417424442
0.73,4.32596298093807,0.126217362706585,23.7605430942749,-6.16127791572542,1.71895134998521,-3.97178710299019,15.6499997074537,-18.9103744766305,-2.70397357685022,491.243752447184,4284.00417424442
0.74,4.44670809186044,0.0827571008048316,17.7265125987435,-3.99126833221552,-3.63595209916957,2.56123289149876,-16.9168169879873,6.63180026901456,0.975719620345412,512.515174504519,4284.00417424442
0.75,4.35910847395096,0.0652626526767848,22.1097384247445,-3.13864971135209,4.3443970037855,0.363731460015576,21.6939112256063,5.29772318611555,-1.4722964274795,533.898862846922,4284.00417424442
0.76,4.32863034956456,0.133386128381352,23.636932731471,-6.55286663342279,-2.63522067470913,-3.4366327353969,-8.47811733601475,-23.0166499843977,2.51822911015908,555.025237496381,4284.00417424442
0.77,4.32096905003684,0.0736796834818753,24.0233625716369,-3.50199012508687,-1.53792701291734,4.03868576768154,-12.1817290303826,20.9997943302992,0.380894906370298,576.046059687837,4284.00417424442
0.78,4.3515278506002,0.119728312431542,22.4987484148486,-5.80205872523268,4.34586491643438,-0.252165880823945,22.6649753669917,5.11433840289837,-1.60124851799093,597.197207081599,4284.00417424442
0.79,4.29879556975257,0.166468792422352,25.1387988880688,-8.13998856486256,-1.37575504293613,-4.07610761281037,0.695975523851033,-26.414659593511,2.854786842258,618.325656586227,4284.00417424442
0.8,4.23970392168601,0.086360520540511,28.0968745418277,-4.12084106594316,-3.89129560134291,1.6853385493832,-27.5650578665563,6.82519413081926,1.18244762610897,639.44400692829,4284.00417424442
0.81,4.21095356678219,0.0966960107996435,29.5379403718312,-4.6627174463836,1.47696918472771,3.94462191945755,5.31672263263448,29.4272546433115,-0.335308444379684,660.606625814903,4284.00417424442
0.82,4.28912583788056,0.148331917021246,25.632974711764,-7.27540872746131,4.23515017225332,-0.694338411183265,26.3517170798913,3.94562690417084,-1.69872780329684,681.737861890862,4284.00417424442
0.83,4.23335126798283,0.151141138079751,28.4253051102393,-7.38777127040927,0.83320174922778,-4.15329765931069,13.7688909735524,-25.9421428627727,-2.90792128733395,702.708924418813,4284.00417424442
0.84,4.25058861040008,0.125953929857618,27.5670568058115,-6.08113015583047,-3.19752591273881,-2.80342575515623,-16.0383207109481,-23.2313373200891,2.32023916434713,723.626583579955,4284.00417424442
0.85,4.1829769629722,0.108479735473927,30.9513288026549,-5.27077205329169,-4.17921488999657,0.207911108398806,-31.067905298319,-4.5333269309079,1.54701627271332,744.820010455282,4284.00417424442
0.86,4.26372948809429,0.087020534315547,26.9173791170137,-4.12918740232629,-2.99862226011111,3.03236314814099,-22.1894986634875,15.7867550875936,0.800210286717202,765.674018864441,4284.00417424442
0.87,4.21275880501079,0.128702657396295,29.4696690652911,-6.27336924310674,-0.740877384205241,4.14909650704705,-12.2028727449024,27.5482568096395,0.207242400110437,786.804111449022,4284.00417424442
0.88,4.17953933346837,0.201299466105002,31.1343987884181,-9.83392560958534,1.15689938362374,4.02127521207321,-2.41178082327492,32.5613297343888,-0.232003721191264,807.608444893954,4284.00417424442
0.89,4.2719550915771,0.154715560032921,26.5173773110481,-7.52919168174183,2.24728938839322,3.63637561505725,6.57108439244424,26.7708960766029,-0.517350858456578,828.672167123251,4284.00417424442
0.9,4.19987672547119,0.0982421025307395,30.1251563944724,-4.73277336071287,2.61746063437554,3.28595737150661,14.443570318055,26.8571679062163,-0.649252168038411,849.67198006442,4284.00417424442
0.91,4.0982248852015,0.151218999964718,35.2116420605762,-7.39129530787861,2.52946075968758,3.22802457562453,14.6993536787815,32.8393054792043,-0.627775008534951,870.525260553906,4284.00417424442
0.92,4.10903004452449,0.189870174658505,34.6752717260787,-9.23959846446028,1.96909867365613,3.61148570583291,6.8684828182472,35.2217062737922,-0.453000241960624,891.364835405763,4284.00417424442
0.93,4.1995123855463,0.117685621752929,30.1551643280649,-5.61043604336509,0.641025159797715,4.15196831953598,-1.80202528623303,30.6196608916079,-0.12516490123406,912.204284395958,4284.00417424442
0.94,4.1007637580539,0.1579591918914,35.0966449744659,-7.62861592654218,-1.27925570021268,3.8993229359909,-19.3675574971034,30.2467847219302,0.355507638055758,933.04833092601,4284.00417424442
0.95,4.19135134806395,0.111707859806915,30.5713185361896,-5.32405006744025,-3.44005987010984,2.39705921055781,-28.4656258683212,12.355531962912,0.988861938569488,953.927177066873,4284.00417424442
0.96,4.08312541433777,0.0991120342420981,35.9866738793371,-4.76422649503531,-4.01838626582017,-0.73096385903163,-34.2728155872653,-11.9629704804058,1.77500250317717,974.83258744226,4284.00417424442
0.97,4.12021257928272,0.106999868920256,34.1365087174743,-5.13070185516357,-1.8071617833518,-3.70429034488676,-9.49793698409922,-33.1875657738084,2.71367069378969,995.588424769565,4284.00417424442
0.98,4.16493000349827,0.127721471154032,31.9047734252584,-6.10733673056157,2.46295760849673,-3.36107044362089,24.451474713066,-21.3854977406147,-2.47854113921151,1016.28981191804,4284.00417424442
