t,iq,id,vq,vd,ia,ib,va,vb,theta_e,omega,r
0,0,0,0,0,0,0,0,0,0,0,0
0.01,0.000419204302654149,0.000213271847385834,-0.0201516841390342,-0.0106657520565039,0.000183123797334749,0.000433223733307421,-0.00921546377339405,-0.0208548284100225,0.0707050637480895,-0.00410190127627249,0
0.02,0.000610258695748232,0.000294982210731233,-0.0295430159621172,-0.0147520918845523,0.000251153993023865,0.000629564811732984,-0.0126291619463264,-0.0305109533715623,0.0706713084509348,-0.00484837391732468,0
0.03,0.000695127842157026,0.000334326532101061,-0.0338411806692527,-0.0167197154877079,0.000284431506143084,0.000716990701000914,-0.0142895502584298,-0.0349368451422093,0.0706375224298495,-0.00434710589673239,0
0.04,0.00069402137138267,0.000340401998561525,-0.0340055911661279,-0.0170235455704373,0.000290589101875306,0.00071630800528255,-0.0145819595240834,-0.0351218990201923,0.0706107368186768,-0.00314694048592903,0
0.05,0.000690812271169892,0.000350965523164681,-0.0340092972682495,-0.017551819904428,0.000301366458020109,0.000713846377331689,-0.0151093330825768,-0.0351625757935534,0.0705914804646041,-0.00225580277036568,0
0.06,0.00067521466181129,0.00035483526975531,-0.033375698898028,-0.0177453496715229,0.000306335864314484,0.000698556544899521,-0.0153475230041109,-0.0345440045381935,0.0705783772368656,-0.00149196697664781,0
0.07,0.000662495781752452,0.000359141659590783,-0.0328357832202058,-0.0179607201390516,0.000311533832021618,0.000686170579374649,-0.0156006980877933,-0.0340204989200806,0.0705705565809452,-0.000996053962370462,0
0.08,0.000646428696936068,0.000357830260201645,-0.0321154507454036,-0.0178951299106668,0.000311362063581943,0.000670049416610771,-0.0155862343719679,-0.0332972543793354,0.0705654158035889,-0.000579614386364646,0
0.09,0.000635012976806646,0.000357349499923713,-0.0315960612809786,-0.0178710861150836,0.000311689175359445,0.00065862736336438,-0.0155989599662354,-0.0327774199011434,0.0705626996701177,-0.000325236221351306,0
0.1,0.000627586189435581,0.000357173241684462,-0.0312542427162758,-0.0178622701049484,0.00031203781167882,0.000651206229875263,-0.0156143071923909,-0.0324358103332052,0.0705614150570529,-0.000181126306370961,0
0.11,0.000623106873593866,0.000357108629255437,-0.0310458719091973,-0.0178590437072923,0.000312289490200798,0.00064673334792536,-0.0156257957856388,-0.0322277227058751,0.0705609117328652,-0.000106241880583788,0
0.12,0.000620603593643904,0.000357084957421464,-0.0309280760665035,-0.0178578619135656,0.000312442439522154,0.000644234591779937,-0.0156329255609577,-0.0321101348440794,0.070560795206313,-7.16951076783158e-05,0
0.13,0.000638941077885235,0.000367371964950805,-0.031801870715153,-0.0183723222562907,0.000321411364118312,0.00066325153347472,-0.0160845186137975,-0.0330180173092617,0.0705602688596425,-0.000263608683806948,0
0.14,0.000649997835444169,0.0003733725517602,-0.0323930887136043,-0.0186724070786843,0.000326618152400079,0.000674703513413697,-0.016342207403799,-0.0336289048244327,0.070559300195135,-0.000350457154871894,0
0.15,0.000632246843015351,0.000363044421801361,-0.0315003122300609,-0.0181558908855997,0.000317567835110001,0.000656268232361974,-0.0158899505036366,-0.0327019191704876,0.0705583023340304,-9.78723546939235e-05,0
0.16,0.000623054946088727,0.000359259821774198,-0.0310625659814086,-0.0179666205145906,0.00031444053301708,0.000646832464076123,-0.0157320048288299,-0.0322519221462899,0.0705585273645943,4.68129075041734e-08,0
0.17,0.000618836913548264,0.000357873075057767,-0.0308574284478922,-0.0178972772680377,0.000313354204851084,0.000642527357957145,-0.0156772762086262,-0.0320424161808102,0.0705591549766892,2.17391323191571e-05,0
0.18,0.00061728454564623,0.00035736499409105,-0.0307785260220833,-0.0178718615496386,0.000312956414870222,0.000640943235931971,-0.0156574656488626,-0.031961928427368,0.0705598042646395,1.11837106295677e-05,0
0.19,0.000617018647106925,0.000357178873086161,-0.0307616182779328,-0.0178625642417092,0.000312789165425131,0.000640665042162759,-0.0156493666522018,-0.0319444155331005,0.0705603314538371,-9.06229825379069e-06,0
0.2,0.000617277143629069,0.000357110711760073,-0.0307707954418741,-0.017859150422073,0.000312702707668391,0.000640918207821798,-0.0156453022771539,-0.0319533350775842,0.0705607083674418,-2.88009404663211e-05,0
0.21,0.000617675748337371,0.000357085760085658,-0.0307876732705491,-0.0178579011169533,0.00031264955755348,0.000641314138548104,-0.0156428582791591,-0.0319700866838848,0.0705609547866109,-4.44007892233446e-05,0
0.22,0.000618045832149744,0.000357076631317707,-0.0308039849528765,-0.0178574433554479,0.000312614263894671,0.000641682704520282,-0.0156412468681404,-0.0319863278383118,0.0705611040869251,-5.53614118298534e-05,0
0.23,0.000618331282337092,0.000357073293790073,-0.0308168129037598,-0.017857275348511,0.000312590755873259,0.000641967235298897,-0.0156401721927299,-0.0319991133345853,0.0705611879356717,-6.24287213514499e-05,0
0.24,0.000618528606241066,0.000357072074341554,-0.0308257917123548,-0.0178572137881748,0.000312575599925727,0.000642163995677248,-0.0156394763763285,-0.0320080661340907,0.0705612310327367,-6.66554806767892e-05,0
0.25,0.000618654218349478,0.000357071628840373,-0.0308315606805306,-0.0178571917043627,0.000312566286985344,0.000642289269912332,-0.0156390469938514,-0.0320138194954571,0.0705612505813923,-6.89959400111395e-05,0
0.26,0.000621058798695931,0.000358548956621541,-0.0309438860549486,-0.0179310709916155,0.000313870275799946,0.000644792087188804,-0.0157048165513834,-0.0321310772955933,0.0705614573602594,-0.000106384790087164,0
0.27,0.000617326543379736,0.000355694670170641,-0.0307705656586226,-0.0177883320595624,0.000311286519693189,0.000640867741586574,-0.0155746670034102,-0.0319481175681095,0.0705610005295957,-4.23294224558253e-05,0
0.28,0.000616359170386614,0.000355328012695936,-0.0306670283109783,-0.017769995725661,0.000310988996136992,0.000639876916139209,-0.0155636768985844,-0.0318435446348679,0.0705609702872249,-2.9634132710434e-05,0
0.29,0.000617429436311764,0.000356432526241069,-0.0307739129534639,-0.0178252311542905,0.000312015168864499,0.00064102245591345,-0.0156112324729111,-0.0319540608506648,0.0705611824528084,-5.1599991413396e-05,0
0.3,0.000605685301523327,0.00035125657224948,-0.0302063636588384,-0.0175663821170501,0.000307679262042195,0.000628943030598979,-0.0153930001216793,-0.0313696945064212,0.070562494610973,2.80926048595297e-05,0
0.31,0.000613454243151948,0.000354940778747374,-0.0305724273162003,-0.0177506260759082,0.000310806376558592,0.00063695247950647,-0.0155509675462764,-0.0317478416032605,0.0705627815016216,-7.58118042491109e-05,0
0.32,0.000617367616739303,0.000356290788419776,-0.0307596094694887,-0.0178181434504552,0.000311877246569915,0.000640951233077152,-0.0156051262099674,-0.0319393150632171,0.0705625797796952,-0.000112806274273683,0
0.33,0.000619085933472218,0.000356785441469584,-0.0308438195301482,-0.0178428838827948,0.000312249739039818,0.000642700042583925,-0.0156238788206446,-0.0320250545520388,0.0705622395963348,-0.000117898957894008,0
0.34,0.000619656727537123,0.000356966663324538,-0.0308734713002222,-0.017851950832006,0.000312390474447049,0.000643282092228455,-0.0156308429929448,-0.0320552667429849,0.0705619168569072,-0.000110293838228495,0
0.35,0.00061969299447838,0.000357033041876243,-0.0308771995563879,-0.0178552723548882,0.000312454292813244,0.000643322870182275,-0.0156339014656191,-0.0320592159647666,0.0705616651378348,-9.95636732834453e-05,0
0.36,0.00061952651758035,0.000357057346936809,-0.0308706950745588,-0.0178564758644358,0.000312490387285567,0.000643158466352504,-0.0156355661857664,-0.0320528097790831,0.0705614898283579,-8.98384975900306e-05,0
0.37,0.000619319065959715,0.00035706624194302,-0.0308617366474018,-0.0178569217062801,0.000312513958267137,0.000642952123011295,-0.0156366461100025,-0.0320439033226032,0.0705613775983815,-8.24288716506158e-05,0
0.38,0.000619138156726483,0.000357069495076945,-0.0308536678197822,-0.0178570852253623,0.000312530000769574,0.00064277187247743,-0.0156373802330434,-0.0320358650597504,0.0705613109353507,-7.73507996638993e-05,0
0.39,0.000619003173225679,0.000357070683910439,-0.0308475336248276,-0.0178571453220677,0.000312540726897078,0.000642637297238789,-0.0156378738312775,-0.0320297497933618,0.0705612743030788,-7.41431985888969e-05,0
0.4,0.000618912078260138,0.000357071118092782,-0.0308433324295736,-0.0178571674723651,0.000312547594203772,0.000642546453845749,-0.0156381927083766,-0.0320255603278531,0.0705612560001736,-7.22626853527204e-05,0
0.41,0.000618855267591054,0.000357071276689233,-0.0308406729924564,-0.0178571749806019,0.000312551762805755,0.000642489793248647,-0.0156383879493498,-0.032022907913884,0.0705612480722402,-7.12445739367181e-05,0
0.42,0.000618822438473501,0.000357071334748678,-0.0308391073104685,-0.0178571780592925,0.000312554136895831,0.000642457049122192,-0.0156385014866121,-0.0320213463052555,0.0705612455298803,-7.07460488793333e-05,0
0.43,0.000618804859761508,0.000357071356143522,-0.0308382444914,-0.0178571796418428,0.000312555397623913,0.000642439515642361,-0.0156385638982829,-0.0320204857438442,0.0705612454680999,-7.05375621792006e-05,0
0.44,0.000618796477858349,0.0003570713641435,-0.0308378105592504,-0.0178571797444121,0.000312555995999334,0.000642431155429173,-0.0156385945664997,-0.0320200529121534,0.0705612463265801,-7.04769999373957e-05,0
0.45,0.000618793101814021,0.000357071367217879,-0.0308376126072989,-0.0178571798334802,0.000312556236428834,0.000642427788322474,-0.0156386085787239,-0.0320198554750729,0.0705612473500355,-7.04827153872942e-05,0
0.46,0.000618792228699109,0.000357071368452385,-0.0308375344711503,-0.0178571799157818,0.000312556298652732,0.000642426917741912,-0.015638614141495,-0.0320197775529034,0.0705612482287387,-7.05115476469355e-05,0
0.47,0.000618792461529752,0.000357071368978213,-0.0308375106838877,-0.0178571799950905,0.000312556282344547,0.000642427150233379,-0.0156386158768632,-0.0320197538405883,0.0705612488786388,-7.05430677340481e-05,0
0.48,0.00061879304360636,0.000357071369217227,-0.0308375051680906,-0.017857180073456,0.000312556241265031,0.000642427731014597,-0.0156386163299587,-0.0320197483508568,0.0705612493144189,-7.05692591787842e-05,0
0.49,0.000618793625682969,0.000357071369331637,-0.0308375009634999,-0.0178571801518236,0.000312556200167734,0.00064242831173521,-0.0156386166959217,-0.0320197441664761,0.0705612495843984,-7.05882546588905e-05,0
0.5,0.000618794149551916,0.000357071369388331,-0.0308374950797766,-0.0178571802303485,0.000312556163190362,0.000642428834353079,-0.0156386171840982,-0.0320197383053582,0.0705612497396588,-7.06008117677594e-05,0
0.51,4.75642032977015,-0.0100962615099573,2.17944053522818,0.51675790700398,-0.766046936909996,4.69433790628647,0.163744201489313,2.2338727845438,0.159636844355762,49.4330440444493,3093.62346091693
0.52,4.77285234285373,-0.00436121361678543,1.35840320329828,0.245304944308587,-3.18244766466943,3.55698824407794,-0.721867917693606,1.17657999636147,0.728967047932868,106.198914117756,3093.62346091693
0.53,4.73830801079764,0.00920581193985059,3.08634431672858,-0.426659497676682,-4.68086996216752,-0.735597681780181,-2.98093376847408,-0.90641791483369,1.72861412908049,167.755787562164,3093.62346091693
0.54,4.69244303026091,0.0236999154166722,5.38047514238431,-1.13382876006664,0.147621905852861,-4.69018027917343,1.32949682102632,-5.33549609856952,-3.10507775165425,226.259755494483,3093.62346091693
0.55,4.69607081788312,0.0219738541170649,5.20014260672687,-1.04284300039336,4.44119650988102,1.52621674000085,4.56636490649358,2.6976501245546,-1.23511060813383,285.617561231596,3093.62346091693
0.56,4.66518125507481,0.040708487023501,6.74576617671868,-1.94921008467161,-4.07152915110029,2.2777672610163,-6.85242876323335,1.53264520028592,1.06946190422225,342.785514852442,3093.62346091693
0.57,4.65067572207972,0.0490101079378441,7.47234689659966,-2.35295673990045,2.81588676657792,-3.70161699537285,6.44408773487622,-4.45489694922154,-2.48072933794041,401.327242897251,3093.62346091693
0.58,4.6430061086605,0.0483430109298244,7.85724730006477,-2.30554074477703,-2.87827470847199,3.64353914132056,-6.72866663537078,4.66657246490936,0.679004714167691,459.642598528769,3093.62346091693
0.59,4.61014806220791,0.0587948350744893,9.50171401152004,-2.81146676777699,4.13004971513193,-2.04929532733803,9.78211260045987,-1.58024922558276,-2.01863979151416,517.766971557883,3093.62346091693
0.6,4.56174046723681,0.0431143538243357,11.9237790113761,-2.0481653233226,-4.17972703707895,-1.82789956875174,-10.0407517852771,-6.74942891586009,1.99251097589843,576.544727169194,3093.62346091693
0.61,4.6046211371016,0.0957597108822692,9.78151645093622,-4.64782119168915,-0.571673392095075,4.56999948263034,-6.01456017727777,9.00585208538065,0.145239667237936,633.873138786304,3093.62346091693
0.62,4.54253173076956,0.0812131225387054,12.8879631057005,-3.93343181583973,4.37547850136032,1.22326529438811,11.2213907423707,7.46001800740424,-1.28030722156522,691.757859544881,3093.62346091693
0.63,4.53139843889352,0.100599603093574,13.4466382367307,-4.85180841011109,3.36321630120602,-3.038497688571,13.3471273628118,-5.11921047416627,-2.28331730828758,748.661844102031,3093.62346091693
0.64,4.57085410794538,0.0695015031139798,11.4760262004256,-3.29469412996426,1.17801313307843,-4.41699250546693,6.29567967749725,-10.1448806873824,-2.86575468850399,806.186543421624,3093.62346091693
0.65,4.53857794179748,0.131263857022427,13.0921084674721,-6.3781420542304,0.381083493430826,-4.52445524952625,7.81302416382271,-12.2898597877893,-3.02864975811047,863.454667128223,3093.62346091693
0.66,4.49355633683434,0.111781737668442,15.3455916266376,-5.38540925203948,1.5138025345324,-4.23236879248767,10.549939866806,-12.3769375852939,-2.77322805879617,920.358059823546,3093.62346091693
0.67,4.50804411648914,0.131059109525205,14.6236918211366,-6.32075755141144,3.82434027538473,-2.39040994485718,15.8136062875043,-1.9324064497684,-2.10036864396485,977.153109788243,3093.62346091693
0.68,4.44793104032958,0.112936139812289,17.631975052057,-5.46355344694022,3.82835992778292,2.26726826259026,12.0356136728783,13.9957480693658,-1.01072465105937,1034.38729097789,3093.62346091693
0.69,4.4569138292991,0.166282659442801,17.1855393897512,-8.07261107540495,-1.96866083107876,4.00201266075024,-15.2611379550218,11.2963481713886,0.494452509806608,1090.61998586191,3093.62346091693
0.7,4.41218370577673,0.119289397144294,19.4248741959978,-5.75913100512784,-3.02295143582223,-3.21610939342135,-8.6149971662836,-18.3378066106471,2.41417384262943,1147.485274034,3093.62346091693
0.71,4.35732818705439,0.145503214803044,22.1705344039114,-7.03050158179118,4.3597508596832,0.0072496005644497,21.9106019317011,7.80295272554709,-1.53575312432022,1203.66275398347,3093.62346091693
0.72,4.35567479162771,0.157558331278057,22.2562354091698,-7.5891538923172,-4.02057331462197,1.68277085187673,-23.5028339057117,0.74301399057136,1.21056738721103,1259.72310546274,3093.62346091693
0.73,4.34136518624611,0.158052822004062,22.974833523065,-7.60226925232791,4.0339560151087,-1.6123371989325,24.1928060793685,-0.587883664949364,-1.91464639362327,1315.85301602268,3093.62346091693
0.74,4.31079597673925,0.158745930834357,24.5065229392941,-7.67279745082151,-4.30903375221363,-0.200973495544781,-23.7820306035855,-9.68795683648527,1.65421115867742,1372.00691251873,3093.62346091693
0.75,4.35124856482635,0.177007637133452,22.4872122061052,-8.60090979085033,2.77481326194775,3.35635324985703,6.76592946501972,23.1056824289422,-0.650173947250132,1428.03938171743,3093.62346091693
0.76,4.33504289148618,0.198351949411336,23.3009164883296,-9.59857141637942,2.00253369237648,-3.84990898304845,19.9901469659411,-15.3446833369581,-2.61623098813043,1483.47257590483,3093.62346091693
0.77,4.32893497761093,0.195326266664533,23.6098533431921,-9.50756833890298,-3.66261803479681,-2.31582804241023,-13.9283532934237,-21.3030515452487,2.17970952925268,1539.35597503048,3093.62346091693
0.78,4.27402044166784,0.218709120913738,26.3591583216931,-10.5810792083444,-3.70926946863112,2.13457359312028,-28.2903444163927,2.53394503555555,1.09973600051181,1594.58120787233,3093.62346091693
0.79,4.28378690796051,0.180089500344494,25.874604646842,-8.6609960574644,-1.60621776189755,3.97533985997588,-18.5792116702074,19.9830155895306,0.426003963615786,1649.93027503823,3093.62346091693
0.8,4.31446736707929,0.187729562350525,24.3444224938888,-9.04627684640436,-0.489542675002514,4.29071311316939,-12.7433648855851,22.6294649237578,0.157086526733266,1705.20300549639,3093.62346091693
0.81,4.25831118089519,0.159190986745509,27.1562244209391,-7.6050297595333,-1.0741970911497,4.1236702696704,-15.1052418683516,23.8144634737463,0.292198219844586,1760.19481566856,3093.62346091693
0.82,4.26013404386517,0.27761482321028,27.0691219194167,-13.4897624172267,-2.95761314269987,3.07869072170202,-29.0825269239894,8.30166725886435,0.830416360463642,1815.07540692889,3093.62346091693
0.83,4.17663988001162,0.276416806818409,31.2480139179944,-13.5257202635249,-4.14829386254906,-0.55891409745412,-27.9377502807171,-19.4644699829867,1.77080855384449,1870.03824145655,3093.62346091693
0.84,4.1621893155512,0.263291491587571,28.6696495133183,-12.8146412756412,-0.386938970069585,-4.15251978218918,11.9564744258021,-29.0380191050461,3.11185298054075,1924.34857166275,3093.62346091693
0.85,3.9244172236636,0.194098223288182,35.9210044620509,-9.38981627260668,3.91510490300918,0.332683429260704,34.3418406339493,14.1111726326488,-1.4366067845579,1977.41318489275,3093.62346091693
0.86,3.9430911910885,0.242385223516324,30.2911198909127,-11.7243359980174,-2.06581138515906,3.36736425988725,-26.9927643882298,18.0666175451181,0.611666125915771,2029.07391486594,3093.62346091693
0.87,3.81667448234584,0.224389677320295,31.9548480928252,-10.874582978593,-0.361952764746853,-3.80609314488885,9.71454134019267,-32.3264065145436,3.10550388277702,2079.64620807471,3093.62346091693
0.88,3.66775389098486,0.126987389666062,34.7475612781606,-6.0329347564699,1.26989054154449,3.44324300833743,5.15912548730474,34.8880028199034,-0.318720928779896,2128.86614485233,3093.62346091693
0.89,3.57152977477996,0.243384389910183,34.8887499524203,-11.854029162863,-1.10447745061103,-3.40517113439009,3.01529179424053,-36.7239825731374,2.89598656632297,2176.75414384757,3093.62346091693
0.9,3.52199763771263,0.121657296381736,32.6961105831165,-5.7310011742262,-0.48957335110821,3.48992633041171,-11.3018262949878,31.2113560121999,0.173900771537759,2223.31990754236,3093.62346091693
0.91,3.38176162760152,0.225574065704356,35.0587869599575,-10.8886723115703,2.5768263739096,-2.20162694472983,34.6178524698675,-12.2182657602024,-2.21123178766473,2268.56845384772,3093.62346091693
0.92,3.22836964192577,0.289753327793439,38.1274505825159,-14.2403721063051,-3.04001640526702,-1.12455670892255,-28.3188728705787,-29.2323814457226,2.01461647015983,2312.82172773708,3093.62346091693
0.93,3.19083542242955,0.0873238405921608,35.3927576881755,-4.02661953044121,-0.785405395314205,3.09389633167924,-13.517929606125,32.9564339815564,0.275965161365669,2355.58867342173,3093.62346091693
0.94,2.97480843499057,0.132331431584332,41.6264022371885,-6.38814253013122,2.84244886822197,0.887401410985958,36.9716195600165,20.1659384930851,-1.22373364727594,2397.29138426734,3093.62346091693
0.95,2.9349356215072,0.208094228248304,39.0607180439374,-10.0464384186563,1.9368705215722,-2.21487762481062,34.8042084396223,-20.3798354728186,-2.3522721046413,2437.56491139499,3093.62346091693
0.96,2.86673469927764,0.263039439927152,37.9930794576759,-12.8658766543576,-0.398596272387351,-2.85104868331612,11.0509589516648,-38.5600982235657,3.09418566572376,2476.78132074671,3093.62346091693
0.97,2.79999391465399,0.265989077533619,36.8809503444069,-13.0653848365998,-1.8046013073215,-2.15734332758606,-10.1125905038113,-37.7974111882981,2.53970498638101,2514.73664515532,3093.62346091693
