t,iq,id,vq,vd,ia,ib,va,vb,theta_e,omega,r
0,0,0,0,0,0,0,0,0,0,0,0
0.01,0.00122902058001492,0.000704215286401067,-0.0612164080676746,-0.0352881799537338,-0.00105606519453975,0.000944000561749235,0.0525576792474693,-0.0472270538280263,1.36169176826895,-0.000996291438620636,0
0.02,0.00138373712215767,0.000793291746821478,-0.0689645751160117,-0.0397518066164203,-0.00118891287061482,0.00106326215248108,0.0592100988248455,-0.0532022832907886,1.36168438313334,-0.00109379776526013,0
0.03,0.00141473720435898,0.000811035661151662,-0.0705086860353863,-0.0406409375999684,-0.00121554587684055,0.00108706412982543,0.0605355822767999,-0.0543930500509945,1.36167676836954,-0.00108728956311719,0
0.04,0.00139893125138669,0.000802186202924749,-0.0697276128981059,-0.0401974977192147,-0.00120191376710943,0.00107513471095579,0.0598632007886281,-0.0537975465490275,1.3616696619691,-0.00104395680607006,0
0.05,0.00141439695702443,0.000811062293873295,-0.0704998653187709,-0.0406422857227927,-0.00121519198573168,0.00108703690571961,0.0605258968925095,-0.0543934022110703,1.36166248404939,-0.00102636542836253,0
0.06,0.00141426222396791,0.000811092396239117,-0.0704971099499912,-0.0406437965245161,-0.00121504635821955,0.00108704685306429,0.0605225085776289,-0.0543947301004266,1.36165551053573,-0.000996648696226324,0
0.07,0.00145030658157106,0.000831774829287667,-0.072291243512707,-0.0416801891617335,-0.00124600372662428,0.00111477049674956,0.0620619970511166,-0.0557814537207357,1.36164878836964,-0.000998131249665869,0
0.08,0.00141403012784608,0.00081116407343099,-0.0704930697793386,-0.0406473769623783,-0.00121478996626255,0.00108708495268282,0.060517088904524,-0.0543981993393009,1.36164219804105,-0.000939939881842669,0
0.09,0.0014137118058846,0.000811083260004224,-0.0704808407205522,-0.0406433148728467,-0.0012144884602266,0.00108694751700944,0.0605056244533305,-0.0543920707644207,1.36163584923434,-0.000912722108358415,0
0.1,0.00141353838412151,0.000811079975502176,-0.0704756977702184,-0.0406431657869436,-0.00121431281222587,0.00108691576679592,0.0605002898742954,-0.0543912293160431,1.36162969615604,-0.000886456311123834,0
0.11,0.00141337101595636,0.000811077075061761,-0.0704707479700901,-0.0406430312781748,-0.00121414321257802,0.00108688541704588,0.0604951515307707,-0.0543904307044148,1.36162373262767,-0.000861000088473439,0
0.12,0.00141320904125953,0.000811074264895742,-0.0704659618257769,-0.0406428631009763,-0.00121397907015613,0.0010868560505866,0.0604901902707223,-0.0543896219704491,1.36161795280927,-0.000836328061133986,0
0.13,0.00147583845292614,0.000846973774642919,-0.0735801265797393,-0.0424417953239475,-0.00126778186974224,0.00113498583463458,0.0631625797387173,-0.0567963866681718,1.36161209392732,-0.000863617449143115,0
0.14,0.00161166339241029,0.000925342428364168,-0.0803958593359549,-0.0463688453341101,-0.00138436478331141,0.00123985952708099,0.0690138875950483,-0.0620535843848147,1.3616064969,-0.000952980665794771,0
0.15,0.0014135076558478,0.000811497054592065,-0.0704903320626725,-0.0406640586124568,-0.00121416498620291,0.00108735217341523,0.060508707356462,-0.0544164397144208,1.36160103598257,-0.000764759909217267,0
0.16,0.00141259498227532,0.000811065193684839,-0.0704478613388027,-0.040642409827342,-0.00121335637394599,0.00108674635594562,0.0604713820651699,-0.0543867501778976,1.36159595452387,-0.000742427417029182,0
0.17,0.00141245365269008,0.000811061179443449,-0.0704436147343582,-0.0406422276471548,-0.00121321360829895,0.00108671905220991,0.0604669980816884,-0.0543859877905599,1.36159103042427,-0.00072140565715811,0
0.18,0.00141231992851718,0.000811058852331665,-0.0704396598764281,-0.0406420932890953,-0.00121307809697679,0.00108669479296972,0.0604628978100517,-0.0543853235610274,1.36158625801761,-0.000701033907380935,0
0.19,0.00141219000768477,0.00081105660271387,-0.070435810352565,-0.0406419926173523,-0.00121294644998407,0.00108667121986437,0.0604589015824173,-0.0543847052339075,1.36158163262797,-0.000681289730562802,0
0.2,0.00141206427780106,0.000811054422333129,-0.0704320881825299,-0.0406418919555541,-0.00121281904324744,0.00108664841092431,0.0604550376854721,-0.0543841047175253,1.36157714972615,-0.000662153784573892,0
0.21,0.00141194227320477,0.000811052309039698,-0.0704284725742532,-0.0406417913037955,-0.00121269541691505,0.00108662627276103,0.0604512855412274,-0.0543835179621234,1.36157280492274,-0.000643607332480249,0
0.22,0.00141182411031123,0.00081105026077161,-0.0704249718384687,-0.0406416906607882,-0.00121257568064889,0.00108660483279465,0.0604476530475512,-0.0543829469526908,1.36156859396351,-0.000625632214585642,0
0.23,0.0014117096727051,0.000811048275530082,-0.0704215825184402,-0.040641590026275,-0.0012124597164883,0.00108658406998381,0.0604441365984032,-0.0543823912230685,1.36156451272551,-0.000608210830613493,0
0.24,0.00141159872755576,0.000811046351378553,-0.070418295279564,-0.0406414893998656,-0.00121234729272241,0.00108656393900688,0.0604407268450226,-0.0543818490782046,1.36156055721243,-0.000591326122474293,0
0.25,0.00141149127486319,0.000811044486438626,-0.0704151123595815,-0.0406413887811965,-0.00121223840551623,0.00108654444280429,0.0604374257653417,-0.0543813212191067,1.36155672355122,-0.000574961557561049,0
0.26,0.0014213391311946,0.000816700077611366,-0.0709063489546358,-0.0409247795388962,-0.00122069265859182,0.00109412676408882,0.0608588802580231,-0.0547607943342994,1.36155301696425,-0.000567427927934837,0
0.27,0.0013692011962145,0.000786923590410769,-0.0683186514730553,-0.0394327021335298,-0.00117587324733535,0.00105417397001691,0.0586373657151652,-0.0527639600355627,1.36154936045566,-0.000508481054109959,0
0.28,0.00133403904684457,0.00076654590511261,-0.0665150693101133,-0.0384115646574432,-0.00114570736645141,0.0010269408130997,0.0570850567787987,-0.0513906512638578,1.36154583256203,-0.000464218572098605,0
0.29,0.00141079292459593,0.000810869764394787,-0.070388391259711,-0.0406326437573612,-0.00121157616711296,0.00108624566382724,0.060412332549433,-0.0543680737085609,1.36154253480423,-0.000514144748715567,0
0.3,0.00140930055137047,0.000810079183124207,-0.070315935941453,-0.0405929992710566,-0.00121027736404362,0.00108516589934808,0.0603495323589063,-0.054314421484573,1.36153957520708,-0.000500337136532689,0
0.31,0.00141091419711156,0.000811030984272332,-0.0703978738538252,-0.0406407027611928,-0.00121165462780082,0.00108643600455321,0.0604196000376632,-0.0543782980181572,1.36153638973333,-0.000488158014321121,0
0.32,0.00141083406385591,0.000811033077033306,-0.0703956251775664,-0.0406408162321307,-0.00121157245178108,0.00108642514784199,0.0604172088619892,-0.0543781285213183,1.3615333005731,-0.00047497698084953,0
0.33,0.00141075008869431,0.000811031633780999,-0.0703931316751904,-0.040640752195022,-0.00121148735570789,0.00108640991835696,0.0604146202533095,-0.0543777287652425,1.36153030656912,-0.000462196639729695,0
0.34,0.0014106686746652,0.000811030221859129,-0.0703907130136328,-0.0406406852481873,-0.00121140485868492,0.00108639513935083,0.0604121104754024,-0.0543773361237714,1.36152740479726,-0.000449809983608836,0
0.35,0.00141058958893777,0.000811028853349352,-0.0703883591922346,-0.0406406153917761,-0.00121132472735549,0.00108638077775794,0.0604096695910476,-0.0543769486924171,1.36152459241624,-0.000437804905551917,0
0.36,0.00141051318076488,0.000811027526965301,-0.070386089257612,-0.0406405484450089,-0.00121124730061985,0.00108636690825339,0.0604073148724255,-0.0543765762879135,1.36152186667235,-0.000426169650907047,0
0.37,0.00141043910089716,0.000811026241411437,-0.0703838873080698,-0.0406404814983633,-0.00121117223420999,0.00108635346028644,0.0604050312238641,-0.054376212923096,1.36151922489662,-0.000414892827050367,0
0.38,0.00141036734933459,0.000811024995431529,-0.0703817548012581,-0.0406404145516897,-0.00121109952556947,0.00108634043579773,0.0604028199303905,-0.0543758590579903,1.36151666450247,-0.000403963392314328,0
0.39,0.00141029780966186,0.000811023787808579,-0.0703796873852269,-0.0406403476047123,-0.00121102905834529,0.00108632781248191,0.0604006765985513,-0.0543755139406638,1.36151418298289,-0.00039337064517556,0
0.4,0.00141023048187896,0.000811022617362618,-0.0703776864485528,-0.0406402806573625,-0.00121096083013603,0.00108631559216027,0.0603986024543172,-0.054375178007298,1.36151177790772,-0.000383104213777681,0
0.41,0.00141016474556594,0.000811021482949702,-0.0703757223474554,-0.0406402473307702,-0.00121089423173347,0.00108630364769599,0.0603965613873545,-0.0543748781296641,1.36150944692263,-0.000373154045774913,0
0.42,0.00141010149231739,0.000811020383460879,-0.0703738409811223,-0.0406401803810443,-0.00121083013302206,0.0010862921660357,0.0603946121417065,-0.0543745582059564,1.36150718774489,-0.000363510398491193,0
0.43,0.00141004033454335,0.000811019317822166,-0.0703720242100655,-0.0406401134303572,-0.0012107681526837,0.0010862810683091,0.0603927298679061,-0.0543742474904845,1.36150499816243,-0.000354163829377177,0
0.44,0.00140998053541014,0.000811018284991951,-0.0703702364660822,-0.0406400800962534,-0.00121070756784614,0.00108627020302815,0.060390872672522,-0.0543739716075022,1.36150287603141,-0.000345105186768127,0
0.45,0.00140992298650917,0.000811017283960551,-0.0703685235111144,-0.0406400131432902,-0.00121064924859256,0.00108625975698815,0.0603890991751367,-0.0543736744227992,1.36150081927398,-0.000336325600919966,0
0.46,0.00140986702908062,0.000811016313749537,-0.0703668535774613,-0.0406399798028575,-0.0012105925485497,0.00108624959482268,0.0603873642230033,-0.054373415222578,1.36149882587618,-0.000327816475327867,0
0.47,0.00140981297263738,0.000811015373410568,-0.0703652432653774,-0.0406399128474354,-0.00121053776854875,0.00108623978229576,0.0603856979158582,-0.0543731318139539,1.36149689388628,-0.000319569478307054,0
0.48,0.0014097603912522,0.000811014462023914,-0.07036367235713,-0.0406398795019091,-0.00121048449008975,0.00108623023232078,0.0603840664066508,-0.0543728858688631,1.36149502141255,-0.000311576534834015,0
0.49,0.00140970932326589,0.000811013578699245,-0.0703621438373762,-0.0406398461534412,-0.00121043274886646,0.00108622095423026,0.0603824794989463,-0.0543726452393693,1.36149320662141,-0.00030382981864223,0
0.5,0.00140965988509376,0.000811012722572925,-0.0703606645597461,-0.0406398128016348,-0.00121038265699963,0.00108621197353565,0.0603809438001881,-0.0543724114569103,1.36149144773614,-0.000296321744556794,0
0.51,4.58962401955426,0.0691387091542142,10.5205132005958,-3.46008360066503,-0.21726991514803,4.58499973674421,-4.10955455315959,10.2842081806091,0.0624146882190752,19.1701088299681,4254.50967453195
0.52,4.58503517024114,0.046682225597152,10.7520905774369,-2.32927627310908,-1.22868671717965,4.41758482584785,-5.22410498885869,9.68203009741542,0.281459903767485,40.6098832750855,4254.50967453195
0.53,4.48790040909711,0.0325325685882826,15.6108465049376,-1.61412781533027,-2.72169697791406,3.56856750116996,-10.8330265753413,11.3555921211927,0.658819746842045,62.4471693601186,4254.50967453195
0.54,4.56264176546513,0.0555377693371331,11.8760432273615,-2.76004018483116,-4.23103756899325,1.70853897045323,-12.0676362884584,1.74079837130058,1.19918072080475,85.2825849924136,4254.50967453195
0.55,4.58871970224437,-0.0396155651723231,10.5743302940115,2.00621955279967,-4.30816154893539,-1.58039930620214,-10.6331559684561,-1.66654499230319,1.91375950202042,109.609699093045,4254.50967453195
0.56,4.50778215014732,0.039791064557388,14.6234098184845,-1.96558858545252,-1.54698360871638,-4.23420889380392,-3.04473117320449,-14.4373565894012,2.80013273758956,131.897746495587,4254.50967453195
0.57,4.48698413565938,0.0752451248989723,15.6655903575604,-3.73074175939271,2.84730932022836,-3.46864787740421,12.9846961118645,-9.5250628453935,-2.43748688525598,153.521180333465,4254.50967453195
0.58,4.51616364657339,0.00699202245099972,14.2090032037698,-0.317263111552386,4.25221648973546,1.52132767523335,13.2637791289065,5.10574099874612,-1.22566553765497,177.262008358663,4254.50967453195
0.59,4.51382420565093,0.00768354609268229,14.3283468614801,-0.336410065500396,-0.685495375758891,4.46147555033242,-2.53250687975587,14.1067751247068,0.154157663255657,198.993357453999,4254.50967453195
0.6,4.41571532005282,0.0253785166974341,19.2363240502599,-1.23165082205578,-4.38432119477034,-0.52622572908069,-18.9319546512892,-3.62411641584659,1.69599660714065,222.173900256207,4254.50967453195
0.61,4.47807198398797,0.0750378777396079,16.1209587234397,-3.69893456936628,1.09432161476641,-4.34295056158007,7.77151083617751,-14.6003782976495,-2.87799942369987,243.946734148258,4254.50967453195
0.62,4.39129890956861,0.0357346364709623,20.4622304203338,-1.73935663967064,3.72578534506278,2.32450137447531,16.3391732685652,12.4402432530319,-1.00485410376544,267.066084491358,4254.50967453195
0.63,4.43238020307201,0.0783513932875373,18.4107304143385,-3.86186236515282,-3.76445800935982,2.34115123415414,-17.7845594371441,6.13012405612812,1.03209787179932,289.209204203649,4254.50967453195
0.64,4.48692818743065,0.0189653857947372,15.6859477008604,-0.871482947854646,0.400534634896639,-4.46905540928575,2.33391599734332,-15.5358061882824,-3.04798068467425,311.37299996949,4254.50967453195
0.65,4.38484092046057,0.014804462953445,20.7929897089722,-0.66905065719974,2.77153616039827,3.39788704660317,12.5682401124956,16.5781600394609,-0.680843537740593,334.082565646137,4254.50967453195
0.66,4.51938426689097,0.0150526131791109,14.0685899564939,-0.682854438253909,-4.348498658449,-1.23110525563513,-13.3355186412229,-4.53381253664079,1.85001764600411,356.671589483683,4254.50967453195
0.67,4.36834676651041,0.051302001184412,21.6231998581625,-2.50238809041778,4.29869709437483,-0.778645399794323,21.7378264367315,-1.13649464039151,-1.73824513880308,379.112275014081,4254.50967453195
0.68,4.40192448566303,-0.0110225675192746,19.9471498287806,0.623957465797779,-3.96818261009969,1.90541004704417,-17.6884402019305,9.24106013581102,1.12063256783475,401.43247321031,4254.50967453195
0.69,4.33118001409791,0.0222647992296063,23.4873080218601,-1.04183531101713,3.63650638511689,-2.35275101674826,20.3466924574855,-11.7792684394879,-2.13990585204673,423.709641501152,4254.50967453195
0.7,4.35657752098162,0.0699053570918241,22.2203822928632,-3.42356512543609,-3.73554596338908,2.24284435721252,-20.9464324873757,8.1678120363352,1.04612287903928,445.984552311667,4254.50967453195
0.71,4.40245039779549,0.0465419876296739,19.9297173889213,-2.2425902628281,4.16864323900026,-1.41638596703003,19.6359249644308,-4.08084514291422,-1.88775851085448,468.193516775631,4254.50967453195
0.72,4.40334685711633,0.0660723568744526,19.8878891844536,-3.20556742960313,-4.40050254764122,-0.171483027213666,-19.6860833410209,-4.2733969449628,1.62474948853394,490.292115127331,4254.50967453195
0.73,4.32286897739487,0.0372118364348935,23.914739199908,-1.74157925174327,3.61794328987259,2.36623482937762,18.9350554834856,14.7109320957933,-0.982987027934077,512.393042378344,4254.50967453195
0.74,4.33521606290263,0.0729436216152832,23.3005233002388,-3.53642668873141,-1.29382495839195,-4.13828902579622,-3.18524548854933,-23.3511222635534,2.85539782633937,534.736582217386,4254.50967453195
0.75,4.45551622025199,0.0582350773286653,17.2886911006528,-2.81314470971392,-2.36895262566586,3.77400047304063,-11.7449159361534,12.9949826003836,0.57361050221505,557.08355351906,4254.50967453195
0.76,4.30461579129302,0.0753380877331278,24.8368896869092,-3.63933149608174,4.30515422834199,0.0322491597041842,24.738194797957,4.25881922560707,-1.54580572940486,578.959619808536,4254.50967453195
0.77,4.35184445936933,0.0137126167467316,22.4786953543026,-0.584705359250423,-1.55168249488121,-4.06583566680711,-7.40176266742196,-21.2331706206078,2.78016498870757,601.372304369213,4254.50967453195
0.78,4.33499794481097,0.0484258129878503,23.3242356892983,-2.28685568316758,-3.58699496726139,2.43475241979967,-20.706673922278,10.976490080259,0.985630167345816,623.315001760136,4254.50967453195
0.79,4.40057399281409,-0.0084635762120161,20.0486866045093,0.535430236795276,2.64580162327345,3.51636984241385,12.5120675834099,15.674332039755,-0.64697405325202,645.660478662326,4254.50967453195
0.8,4.33989782004619,0.124802201390986,23.0858484154862,-6.09391232628208,3.64322891370505,-2.36160364165056,22.8912419207295,-6.78846137426258,-2.11716821743285,667.46990377178,4254.50967453195
0.81,4.26261115360438,0.0446688467088214,26.9536045616602,-2.11074155703988,-1.23834338166691,-4.0790139521434,-5.53321964472105,-26.4638528780342,2.85732538412966,689.743326288899,4254.50967453195
0.82,4.31240505262221,0.00712036063350618,24.4672992024157,-0.237730499200198,-4.27153667999216,-0.592336415306961,-24.1967666438876,-3.63616969241392,1.71023928736258,711.793323302772,4254.50967453195
0.83,4.26199347951413,-0.00612818923165603,26.9912630520414,0.484348487029172,-2.83091365014034,3.18599338975669,-17.5366363481357,20.5238704974142,0.725014994085915,733.651384663494,4254.50967453195
0.84,4.26962247490205,0.105296378308973,26.6132813456575,-5.10824583002587,0.525165391881566,4.23850972827049,-2.46312185927642,26.9869218353901,-0.0986182771453098,755.722919509624,4254.50967453195
0.85,4.28663117584072,0.0992730956472949,25.766448289204,-4.81772478791534,3.02847209087267,3.03536139199508,14.2833475439787,21.9796795361133,-0.761107405415147,777.772332050982,4254.50967453195
0.86,4.32991304918278,0.163725807123629,23.6058002660305,-8.052449702541,4.17524040994778,1.15858563453062,20.0467949728504,14.8391968693787,-1.26232234797238,799.864826765723,4254.50967453195
0.87,4.30962742568623,-0.000255485514349729,24.6235961476694,0.163917236315566,4.30753128527113,-0.134398065128371,24.6064524168262,-0.933196422167584,-1.60204620785896,821.883333139896,4254.50967453195
0.88,4.28603858224561,0.0854278054332674,25.8065547873248,-4.12487133906134,4.17423870659824,-0.976297013606075,26.0997107109039,-1.34087074773659,-1.78062355055893,843.87441662657,4254.50967453195
0.89,4.25242374882051,0.132448740348885,27.4909151176831,-6.46966796741529,4.11322906205349,-1.08719689634915,28.241726638207,0.109060116669403,-1.79806730570003,865.783415505919,4254.50967453195
0.9,4.24494313263694,0.10723962493172,27.8686305416997,-5.18562605315655,0.423724762181177,-4.22510353274231,8.62537161204557,-27.0028563375627,-3.01638188829982,887.629830428461,4254.50967453195
0.91,4.24667731593246,0.101008706007045,27.7856635177943,-4.8491887726222,1.67497592078319,-3.90370678319223,15.9697787123008,-23.249169807904,-2.71249617676677,909.45836417454,4254.50967453195
0.92,4.257127195617,0.0478685786969173,27.2669512633218,-2.20376749642648,3.28707915462109,-2.70564853440794,22.6272692799094,-15.3736757904264,-2.24823065572966,931.423455374937,4254.50967453195
0.93,4.25459729854465,0.0512034694395602,27.3971787937552,-2.40571442372451,4.24598333074185,-0.275400659273821,27.4859000623875,0.958209531340217,-1.62353277787089,953.42567557762,4254.50967453195
0.94,4.19873135467476,0.145623049604123,30.1943217188904,-7.08983759237212,3.21986509014531,2.69870707239012,17.7150875848942,25.458565022593,-0.838557587499609,975.11178371502,4254.50967453195
0.95,4.23534935377243,0.0842059377299278,28.367240879289,-4.02284221952806,-0.366143715619432,4.22033334796695,-7.01321548385042,27.7794604555939,0.106419450152042,997.016981934766,4254.50967453195
0.96,4.2456085522888,0.205042922579511,27.8581015523295,-10.082501754994,-3.90290838541345,1.68360943049068,-29.6244775665225,0.347839977529237,1.21179787017881,1018.89697490011,4254.50967453195
0.97,4.14359481310767,0.162249089754376,32.9626474146938,-7.89076941427047,-2.68289770592954,-3.16192388299543,-14.1147160915811,-30.8151773674705,2.47710569600958,1040.6551939323,4254.50967453195
0.98,4.15266931998918,0.13924869595817,32.5129081555994,-6.77564216119739,2.7623161713551,-3.1038141133089,27.3245821842179,-18.8776516518596,-2.38082428397607,1062.47786883361,4254.50967453195
