t,iq,id,vq,vd,ia,ib,va,vb,theta_e,omega,r
0,0,0,0,0,0,0,0,0,0,0,0
0.01,0.000848082974845627,0.000473858338788798,-0.0408069054396018,-0.023728206787675,0.000298880332354621,-0.000924368435416462,-0.0137497285038403,0.0451572396741204,-2.31933873349595,-0.0033042137514808,0
0.02,0.000934563585572933,0.00052422757857416,-0.0453585785494929,-0.0262504198317277,0.000327939331737377,-0.00102013697331109,-0.0153669363022148,0.0501033178348116,-2.31936214802872,-0.00324334452128783,0
0.03,0.00096369557187981,0.000541884361834403,-0.0469082005688331,-0.0271345788800971,0.000337243271897566,-0.00105290777963754,-0.0158994079376778,0.0518061142997368,-2.31938404962333,-0.0029617055424324,0
0.04,0.000941975070166566,0.000531805630841701,-0.0460353280643917,-0.0266298870925648,0.000328170528321135,-0.00103074650916298,-0.0156024638807974,0.0508425553784163,-2.31940232051172,-0.00252695856067526,0
0.05,0.00095833044054052,0.000542039012760191,-0.0469412383242866,-0.0271423186574676,0.000333170554401129,-0.00104938120161392,-0.01591653284503,0.0518348270925453,-2.31941901667905,-0.00228684972399121,0
0.06,0.000956409341521292,0.00054225386111253,-0.0469702913270432,-0.027153082695112,0.000331601534795128,-0.00104823589929088,-0.0159297326488725,0.0518627205700814,-2.319433649183,-0.00200585257078481,0
0.07,0.000981683920546942,0.000557514278014173,-0.0482616838427269,-0.0279172477091349,0.000339717782620561,-0.00107662310871607,-0.0163550396956648,0.0533017403425231,-2.31944616335147,-0.00188239028097962,0
0.08,0.00095321040261477,0.000542578452569788,-0.0470137059357072,-0.0271693370382263,0.000329012139966913,-0.00104630419123715,-0.0159492419479931,0.051904557624454,-2.31945741615369,-0.00154909953321947,0
0.09,0.00095099703555469,0.000542259152881532,-0.0469876307670857,-0.0271533509243101,0.000327597968025009,-0.00104456685849374,-0.0159405241503634,0.0518752503737032,-2.31946698124091,-0.00136125800074525,0
0.1,0.000949627106171722,0.000542250824823023,-0.0469908800733639,-0.0271529219916428,0.000326591376399192,-0.00104363100311317,-0.01594276617189,0.0518772800900543,-2.31947527701363,-0.00120072988547805,0
0.11,0.000948451680853209,0.000542249310502352,-0.0469943266409715,-0.0271528473714648,0.000325723796464622,-0.00104283216006711,-0.015944968397156,0.0518796861944064,-2.31948247604512,-0.00106148282569712,0
0.12,0.00094743219386191,0.000542248117135349,-0.0469973414406586,-0.0271527813801917,0.0003249712384588,-0.00104213937488101,-0.0159468977840943,0.0518817895820295,-2.31948872343065,-0.000940644373381178,0
0.13,0.000993166115859108,0.000568211039617802,-0.0491998844388814,-0.0284528737131221,0.000340795730274737,-0.00109229162290147,-0.0166751505255797,0.0543335440246945,-2.31949491734621,-0.00102376994336504,0
0.14,0.00105048044370456,0.000602134799500286,-0.0522539915230071,-0.030151595718053,0.000359685300608974,-0.00115615827804882,-0.0177559153438461,0.0576569668360518,-2.31950016399037,-0.00117481966496549,0
0.15,0.000947366740220343,0.000543518243550872,-0.0471259613341027,-0.0272164006630782,0.000324041904297538,-0.00104303052007483,-0.0159969781731238,0.0520162031106188,-2.31950486174392,-0.000639644963699736,0
0.16,0.000944321204475214,0.000542271475551036,-0.0470096356812709,-0.0271539573249599,0.000322656067114015,-0.00104004516862122,-0.0159540947826928,0.0518913297667001,-2.31950816926103,-0.000564791231112028,0
0.17,0.000943794333836578,0.00054224443892952,-0.047008102093155,-0.0271526059408184,0.000322285538571298,-0.00103966764293202,-0.015953743248716,0.0518893413730787,-2.31951102072072,-0.00050937123785852,0
0.18,0.000943389001793482,0.000542243403242397,-0.0470092063393637,-0.0271525552157968,0.000321986740224984,-0.00103939177223225,-0.0159544583292381,0.0518900953441442,-2.31951349478387,-0.000461510791762814,0
0.19,0.000943038501389381,0.000542242981168687,-0.0470102202574804,-0.0271525335031905,0.000321728032943198,-0.00103915356831795,-0.0159551044578326,0.0518908038677216,-2.31951564178842,-0.000419982754132121,0
0.2,0.000942734567113772,0.000542242624963557,-0.0470111086044611,-0.0271525117132675,0.000321503689188654,-0.00103894701799305,-0.0159556733752205,0.0518914223326249,-2.3195175049793,-0.000383944462930015,0
0.21,0.000942470420746412,0.000542242316013908,-0.0470118569774327,-0.0271525094159209,0.000321308716860823,-0.00103876750609908,-0.015956139263311,0.0518919558684974,-2.31951912187379,-0.000352670089987419,0
0.22,0.000942241457937772,0.000542242047874295,-0.0470125166285816,-0.0271524874936929,0.00032113971331423,-0.00103861190445328,-0.0159565646059686,0.0518924112257598,-2.31952052503071,-0.000325529887871706,0
0.23,0.000942042879527897,0.000542241815153437,-0.047013091867578,-0.0271524655196387,0.000320993137019,-0.00103847695157707,-0.0159569377712513,0.0518928061267543,-2.31952174270331,-0.000301977358957518,0
0.24,0.000941870293813436,0.00054224161317638,-0.0470135751208106,-0.0271524659560811,0.000320865748375614,-0.00103835966261584,-0.0159572366488171,0.0518931522618341,-2.31952279941174,-0.000281538247415981,0
0.25,0.000941720525502033,0.000542241437883869,-0.0470139915563352,-0.0271524663453868,0.00032075520186483,-0.0010382578800986,-0.0159574938589199,0.0518934506507233,-2.31952371643292,-0.000263800989472629,0
0.26,0.000951227887972847,0.000547518764756246,-0.0474674016058324,-0.0274167109890736,0.000324126782932012,-0.00104859578542145,-0.0161097299129648,0.0523956759551692,-2.31952445859326,-0.00029124443822637,0
0.27,0.000916418016295347,0.0005279897587595,-0.0458372371435167,-0.026438814956277,0.000311919200077158,-0.00101059466581258,-0.0155811570284111,0.0505696627524768,-2.3195254203998,-0.000122206079562461,0
0.28,0.000909745844199629,0.000523756451299645,-0.0452374253582686,-0.026226838962356,0.000309912474260328,-0.00100295193285338,-0.0152860239123513,0.0500060917084439,-2.31952606164959,-8.12920232167427e-05,0
0.29,0.000940523669258429,0.000541847970162586,-0.046978755894882,-0.0271327648163916,0.000320143584290623,-0.00103715576488887,-0.0159449582537683,0.0518550743736629,-2.3195263099886,-0.000210277577533054,0
0.3,0.000936946381617878,0.000539993210290454,-0.046805497294485,-0.0270398835921482,0.000318786205037777,-0.00103336176853232,-0.0158812933277017,0.0516690855725207,-2.31952570481517,-0.000206023986090085,0
0.31,0.000941205470038054,0.000542193174138404,-0.0470099653641331,-0.0271500503287296,0.000320408166388049,-0.00103787271947175,-0.0159560599541942,0.0518889798235396,-2.31952620432458,-0.00021520636458626,0
0.32,0.000941235882523121,0.000542239857168357,-0.0470151794215897,-0.0271523706415214,0.000320398183842029,-0.00103792776870154,-0.0159582758874525,0.0518942362714664,-2.31952667042841,-0.000206652255128765,0
0.33,0.000941172378006943,0.000542240774024162,-0.0470154771191357,-0.0271524203295906,0.000320350618617257,-0.00103788534207258,-0.0159584391115534,0.0518944817838812,-2.31952707571659,-0.000198824358043454,0
0.34,0.000941114985253333,0.000542240727905346,-0.0470156248645164,-0.0271524205307297,0.000320308241707144,-0.00103784635315743,-0.0159585289530274,0.0518945881160445,-2.3195274274488,-0.000192021327886156,0
0.35,0.000941065043080314,0.000542240669985398,-0.0470157433420074,-0.0271524207161755,0.000320271379055667,-0.00103781241236157,-0.0159585997776737,0.0518946737718404,-2.31952773268602,-0.000186117350223396,0
0.36,0.000941021736580633,0.000542240619340425,-0.0470158447436917,-0.0271524208875938,0.000320239414327889,-0.00103778298092176,-0.0159586601968162,0.0518947471498081,-2.31952799757372,-0.000180993815579443,0
0.37,0.000940984250847038,0.000542240575380959,-0.0470159344664426,-0.0271524210467074,0.000320211745420456,-0.00103775750540597,-0.0159587138860087,0.0518948120100171,-2.31952822744549,-0.000176547562700505,0
0.38,0.000940951654556956,0.000542240537231745,-0.0470160059420662,-0.027152421195493,0.000320187685877379,-0.00103773535269997,-0.0159587557921503,0.0518948639567382,-2.3195284269303,-0.000172689061605461,0
0.39,0.000940923365633777,0.000542240504125152,-0.0470160647958941,-0.027152421335174,0.000320166805647021,-0.00103771612730615,-0.0159587898268075,0.0518949068841857,-2.3195286000452,-0.000169340617176038,0
0.4,0.000940899060959886,0.000542240475394397,-0.0470161250139991,-0.0271523990340788,0.000320148864862424,-0.0010376996099057,-0.015958841324101,0.051894933936079,-2.31952875027599,-0.00016643480483422,0
0.41,0.000940877873371333,0.000542240450461346,-0.0470161694013555,-0.0271523991589492,0.000320133225533243,-0.00103768521075804,-0.0159588669895433,0.0518949663230831,-2.31952888064736,-0.00016391311288525,0
0.42,0.00094085936333518,0.000542240428823869,-0.0470161986600065,-0.0271523992783917,0.000320119563294183,-0.00103767263114285,-0.0159588824704513,0.0518949881328123,-2.31952899378499,-0.000161724764312569,0
0.43,0.000940843298020782,0.000542240410046493,-0.0470162208493141,-0.0271523993926118,0.000320107705516336,-0.0010376617129812,-0.01595889355239,0.0518950048878586,-2.31952909196661,-0.000159825694335702,0
0.44,0.000940829444597498,0.000542240393751424,-0.0470162414307232,-0.0271523995021066,0.000320097479843794,-0.00103765229813989,-0.0159589041332143,0.0518950203378024,-2.3195291771693,-0.00015817766310998,0
0.45,0.000940817337404039,0.000542240379610183,-0.0470162519279898,-0.0271523996078637,0.000320088543597405,-0.00103764406994764,-0.0159589079138964,0.0518950287408832,-2.31952925110936,-0.000156747485733153,0
0.46,0.000940806860025084,0.000542240367338273,-0.0470162594226534,-0.0271523997101325,0.000320080810146053,-0.00103763694942771,-0.0159589100046457,0.0518950349415112,-2.31952931527477,-0.000155506364025169,0
0.47,0.00094079777962999,0.000542240356688611,-0.0470162634252825,-0.0271523998094175,0.000320074107755711,-0.00103763077832286,-0.0159589099795045,0.0518950386275228,-2.31952937095813,-0.00015442930664712,0
0.48,0.000940789863388113,0.000542240347446646,-0.0470162620026197,-0.0271523999062181,0.000320068264848216,-0.00103762539834467,-0.0159589063637379,0.0518950385011864,-2.31952941928065,-0.0001534946258762,0
0.49,0.000940782994884131,0.000542240339426237,-0.0470162577401283,-0.0271524000007801,0.000320063195260353,-0.0010376207304232,-0.0159589010006797,0.0518950363381609,-2.31952946121516,-0.000152683500896921,0
0.5,0.000940777057702723,0.000542240332466334,-0.047016252115537,-0.0271524000933483,0.000320058812944905,-0.00103761669546576,-0.0159588949288437,0.0518950331580116,-2.3195294976063,-0.000151979598825639,0
0.51,4.63997114074852,0.00579575014094091,8.00288709083748,-0.280361699895891,-1.02769381740391,4.52473327339508,-2.05560233182048,7.73946403343771,0.224588110892529,69.0284540183965,4874.39642936194
0.52,4.5840859397726,-0.020639099781586,10.798919817201,1.05696665778839,-3.90901011833944,2.39455836645936,-8.62686492997475,6.58111306801399,1.0166801215666,147.323465827094,4874.39642936194
0.53,4.56495702346558,0.0491630180290914,11.7573526429865,-2.42437760647986,-3.131900550969,-3.32151299369271,-6.19165246787027,-10.2847648328709,2.39633700774759,230.627665034756,4874.39642936194
0.54,4.51156298183537,-0.0194198011774636,14.4292160097992,1.00820796815219,4.30317047376084,-1.35547096667466,13.4367610043692,-5.35464393549686,-1.88025571274862,314.764532467009,4874.39642936194
0.55,4.57150117079681,0.0412869731469333,11.434606791175,-2.00190048095296,-2.95121698303675,3.49151054527746,-8.97725385923877,7.35980646153197,0.710764064959376,393.017374071351,4874.39642936194
0.56,4.46563350452059,0.0388329031769978,16.730416030403,-1.88481564830612,3.05237171095643,-3.25981863440574,12.9055550614692,-10.8123077617062,-2.38035143114376,475.774689589297,4874.39642936194
0.57,4.44004409593556,0.0112233974876759,18.0125262844404,-0.507720609315733,-4.37233549952852,0.772528198880824,-17.8327268519525,2.58896434669036,1.39844349490941,557.196515536176,4874.39642936194
0.58,4.4630703996607,0.0199501010986671,16.8639802261777,-0.935464198524529,2.21105791733675,3.87693413473119,7.4743024664336,15.146079524943,-0.51383317022405,636.782365097184,4874.39642936194
0.59,4.35955183067893,0.0862010808919927,22.0428154394306,-4.22443172846078,4.18347191175208,-1.22950622377618,22.3779335045103,-1.72035693765652,-1.8368735337725,716.598849505272,4874.39642936194
0.6,4.42245346226333,0.023261289695377,18.9007411263309,-1.0890102387167,2.36083285501938,-3.73966628780487,11.0913371500633,-15.3429527356448,-2.57321958804123,796.990972888145,4874.39642936194
0.61,4.34838782619198,0.0323247289829971,22.6072058059203,-1.53351021917579,1.73268978226588,-3.98839663191988,10.5638011095485,-20.046034871302,-2.72432606824481,876.931436205095,4874.39642936194
0.62,4.3290368160157,0.119606315348035,23.5780920613563,-5.86440572519424,3.17052206394064,-2.95002631634974,21.5733355982643,-11.1762637284625,-2.29256274971823,955.486807075164,4874.39642936194
0.63,4.32130012317829,0.0714577884644392,23.9683708226781,-3.41705009439562,4.16176515880932,1.16552637594941,21.9945306095278,10.1192714415396,-1.281201231202,1034.59856902721,4874.39642936194
0.64,4.31188010126307,0.0712124293040128,24.4429379100465,-3.43201461788971,-1.2541204421685,4.12608326797835,-10.7602861378349,22.2137835643484,0.311590026667764,1113.85733704986,4874.39642936194
0.65,4.26279145926232,0.0220935010449717,26.9010649515838,-1.00103291879829,-2.63262557069924,-3.3527841792231,-15.713005364822,-21.8579693667761,2.48112071648205,1192.88675568994,4874.39642936194
0.66,4.22115002701478,0.124200408179882,28.9868711743812,-6.02408459952103,3.73296189726879,1.97446923640211,22.2417031259721,19.5405971709792,-1.05485991453949,1270.74756531437,4874.39642936194
0.67,4.2194299221593,0.147229464262124,29.0767359580093,-7.17745420476112,-3.32905444242875,-2.59666360980886,-17.6804701609497,-24.1738163664946,2.26810189584923,1349.23022635149,4874.39642936194
0.68,4.21957529632517,0.105481278217067,29.0734660528659,-5.08081401365111,0.602705054356566,4.17764151153076,-1.61428985854511,29.4699027419681,-0.118287735048754,1427.49035423543,4874.39642936194
0.69,4.10674701741363,0.109175903441354,34.7190412865295,-5.24966915550929,3.8023149949267,-1.55553563838427,34.3299041757762,-7.37756961201127,-1.93254650302447,1505.33191345878,4874.39642936194
0.7,4.08328175213551,0.15588932102625,35.8964894477964,-7.57141597183679,-0.296715234012957,-4.07546947205319,6.32807642120168,-36.1364046814535,3.10707464315369,1583.37095106198,4874.39642936194
0.71,4.14862196156498,0.058849461672875,32.6338296877846,-2.80210427842142,-2.7427362597761,-3.11318570734672,-19.0946292584655,-26.6122859213603,2.43355530958263,1661.50069998576,4874.39642936194
0.72,4.10916755801271,0.0989037232325137,34.610947924624,-4.7219937670659,-3.0531709817913,-2.75194239079254,-21.8990435426281,-27.2148274529772,2.32841516640699,1738.40382053415,4874.39642936194
0.73,4.00415884732566,0.155210980238309,39.8658987269032,-7.62866333751784,-1.52448661109496,-3.70584930826863,-6.56502618601801,-40.0547976751573,2.79006356225496,1816.17154479585,4874.39642936194
0.74,4.06692063763269,0.140569117952335,36.7323448448341,-6.76647063914543,2.43588778137858,-3.25976285429709,28.268210774549,-24.4122621302472,-2.46529770236862,1892.75829732077,4874.39642936194
0.75,4.04380822825252,0.0974911878749831,37.8925190253054,-4.65781964369345,3.16000508472994,2.52512522126666,26.0289641982407,27.9290405256431,-0.872507047904611,1969.98052817198,4874.39642936194
0.76,4.0235942935548,0.140102009185782,38.9077559460676,-6.82530289194835,-3.81871889718979,1.27527471407154,-39.2461587872391,4.48745504405492,1.28329373665595,2046.93199650206,4874.39642936194
0.77,3.99228275160558,0.0670803271283058,40.4778188184921,-3.17465372655036,2.98006088810795,-2.65745337536227,32.7317531409349,-24.0242498094544,-2.282230780398,2123.53219337331,4874.39642936194
0.78,3.97258777173366,0.0569177186374636,41.4669843824568,-2.64744901770647,0.632155912088999,-3.92238092663546,9.79117865599854,-40.3813397574002,-2.96747370111271,2199.88656503845,4874.39642936194
0.79,3.91489826412381,0.163507126330294,44.3558104043004,-7.93419861608831,-2.88784840248357,2.64830032342888,-39.0272198894898,22.5225560716184,0.870382093614049,2275.85867746841,4874.39642936194
0.8,3.93998166630409,0.134630032188396,43.1058638101558,-6.41109951831748,3.42300946889126,1.95565512099147,33.3073186999273,28.1040960159715,-1.01757043179308,2351.61006658476,4874.39642936194
0.81,3.84906692378418,0.100398774791853,47.6556710196084,-4.84833121999453,2.66949861256795,-2.7747384120394,37.329404598821,-30.0180753587807,-2.34944456622698,2427.76074166025,4874.39642936194
0.82,3.89999444689631,0.19083039395318,45.1133474282633,-9.23521239913763,-0.13425566193533,-3.90235164257614,9.88843978301262,-44.9746820210895,-3.1270909281105,2502.87633241364,4874.39642936194
0.83,3.85610573904769,0.179239150422412,47.3117430005169,-8.77326763882819,-0.982995254387089,-3.73301466292501,-1.33168069234682,-48.0998739846904,2.93056134611771,2578.38434840217,4874.39642936194
0.84,3.76460356776795,0.311081823425044,48,-15.2204187729584,0.116346094713533,-3.77564239693877,20.5473607963089,-45.9724603641194,-3.02834144690709,2652.95060424196,4874.39642936194
0.85,3.77221770396705,0.180741219902778,48,-8.6883642377989,3.04179253312047,-2.23825645986937,44.7870170241953,-19.3290139221613,-2.15729265837728,2727.22859522441,4874.39642936194
0.86,3.80613124548358,0.152237288149527,48,-7.27058923166428,2.68649045812523,2.70047778516165,27.1105985093629,40.2725330248759,-0.742825058689896,2801.13555545012,4874.39642936194
0.87,3.80615895590505,0.11292449739787,48,-5.28881707441138,-3.52406695307122,1.4424111931069,-46.8000004341848,11.9051058545016,1.2119561186815,2874.66471691358,4874.39642936194
0.88,3.75999300796416,0.111440529896435,48,-5.18414775548308,1.91209667517429,-3.23942166388236,29.9973864267421,-37.8289861814375,-2.57873687866196,2947.84755411406,4874.39642936194
0.89,3.73143339850662,0.322464283296451,48,-15.9213641406928,-1.65830255771375,-3.35821545594868,-2.63861583062675,-50.5027478717634,2.76911773260373,3021.02582233499,4874.39642936194
0.9,3.78109372487452,0.248335959947347,48,-12.1733663018659,0.0641055921800946,3.78869779453834,-14.4939779522723,47.3509815129364,0.0486655427492658,3093.88968253916,4874.39642936194
0.91,3.62597937297867,0.215705615848024,48,-10.3941128482637,2.93984456127035,-2.13344071432611,46.0485323007416,-17.075428394333,-2.13914329764923,3166.11664148322,4874.39642936194
0.92,3.73648401239081,0.0175740634050068,48,-0.624919049805516,-2.29302600110564,-2.95019548179611,-28.7827953542305,-38.4179803661683,2.48558458877671,3238.53346741478,4874.39642936194
0.93,3.68971799379142,0.256850510010621,48,-12.4286385360302,-3.54924455914856,1.0406027664557,-49.547798496258,-1.8672760999665,1.35509933801181,3310.21765843188,4874.39642936194
0.94,3.6822052787671,0.371724209029771,48,-18.2026464551355,-2.24303123366394,2.94374344795315,-46.0764661525988,22.6339480616854,0.75172587094085,3382.10821026249,4874.39642936194
0.95,3.74488530961063,0.0588158274550832,48,-2.58657687834074,-2.29297030479271,2.96140379972667,-31.9989188515399,35.8714311434619,0.674567513964639,3453.85880617808,4874.39642936194
0.96,3.68744837636144,0.357963259105396,48,-17.5955164721859,-3.16758516133763,1.92141028124491,-50.8825246725311,4.95690254818806,1.12232174372482,3525.38804070448,4874.39642936194
0.97,3.72287886070564,0.00833132549013538,48,-0.0587136842897292,-3.23100176567787,-1.84946587226145,-41.5752529883334,-23.9896183015237,2.09292174272436,3596.5566741378,4874.39642936194
0.98,3.68910460569475,0.362938290426631,48,-17.7489186639623,1.70144834111156,3.29337069534311,1.2597920076838,51.1608936379861,-0.378795987231208,3667.6089334898,4874.39642936194
0.99,3.55899080572807,0.205084574073644,48,-9.79164012197536,-3.56484077494532,-0.0196338245672768,-47.2874364394324,-12.7974439348223,1.63386460805569,3738.41463248123,4874.39642936194
