t,iq,id,vq,vd,ia,ib,va,vb,theta_e,omega,r
0,0,0,0,0,0,0,0,0,0,0,0
0.01,0.000511608444173193,0.000276973097995092,-0.0237063139316603,-0.0138572301115878,0.000394841027225011,-0.000427267902354263,-0.0179654630953908,0.0207666627641535,-1.89941873041418,-0.00359912167602815,0
0.02,0.000619185875514601,0.00033132406627384,-0.0290794222721548,-0.016576464647251,0.000479106543789258,-0.000513442991019769,-0.0221727562156211,0.025075104420251,-1.89944602248961,-0.00375993217142241,0
0.03,0.000654977868273692,0.000352190761335982,-0.0310134742113794,-0.0176204364024825,0.000506233778601412,-0.000544758388372042,-0.0236656476519428,0.026688058807038,-1.89947188968279,-0.00338746443540387,0
0.04,0.000636628124982363,0.000345854791501169,-0.0304492259486375,-0.0173034514803658,0.000490900130102613,-0.000532848917225243,-0.0232333649514257,0.0262064027870751,-1.89949317282488,-0.00270184468362748,0
0.05,0.000646122019201759,0.000354535386444603,-0.0310983754285448,-0.0177377436725808,0.00049707385223539,-0.00054413839173748,-0.0237070882459821,0.0268274201477912,-1.89951104181608,-0.00232372536770467,0
0.06,0.00064331047378146,0.000355937216454248,-0.0311559947736672,-0.0178078765081255,0.000493952174224333,-0.000544564888064938,-0.0237385804882623,0.0269127529708077,-1.89952595268727,-0.0019230566214422,0
0.07,0.000649678726099054,0.000362384254204723,-0.0315896441605133,-0.0181304290329066,0.000497891510613226,-0.000552728539610977,-0.0240445520436361,0.0273583185178839,-1.89953780106131,-0.00167291828690586,0
0.08,0.000637086785287667,0.000357203521623763,-0.0311480602085068,-0.0178712329773025,0.000487640933958187,-0.000543764882441831,-0.0237100217804971,0.0269706783387097,-1.89954801207413,-0.00131392722967843,0
0.09,0.000632077725351236,0.000356364505515183,-0.0310218875085381,-0.0178292530769171,0.000483166649253922,-0.000541357461133594,-0.0236039429741123,0.026890400628254,-1.89955607638376,-0.00106955962742977,0
0.1,0.000629053812831613,0.000356227892876788,-0.0309658136713188,-0.017822416488332,0.000480345286558302,-0.000540254955352238,-0.0235529051153173,0.0268659786056504,-1.89956257030518,-0.000880787943970004,0
0.11,0.000626809368680107,0.000356205052972439,-0.0309295648442611,-0.0178212754490019,0.000478225591032815,-0.000539511175518698,-0.0235188250264207,0.0268533184068777,-1.89956782521823,-0.00072963998326576,0
0.12,0.00062503134800055,0.000356200753634358,-0.0309020113901188,-0.0178210680708404,0.000476541895341859,-0.000538935046974177,-0.0234927000137795,0.0268443256797991,-1.89957208265036,-0.000607503592028917,0
0.13,0.000649979858496315,0.000370639331409016,-0.0320772318742924,-0.0185434353884573,0.000495489853194205,-0.00056065777067637,-0.0243716192339883,0.0279075612807086,-1.89957613979828,-0.000702454786309055,0
0.14,0.000664337999142945,0.000379676580779517,-0.0329599892599031,-0.0189955801940551,0.000506158846834908,-0.000573848851936146,-0.0250609984895145,0.0286206099451123,-1.89957972792748,-0.000725300641464397,0
0.15,0.000629051449735435,0.000359995286976559,-0.0312158421817366,-0.0180109036164666,0.000479115646147088,-0.000543829505154553,-0.0237281356784971,0.0271255788771331,-1.89958280525211,-0.000367303953351401,0
0.16,0.000621594820796226,0.000356811985899119,-0.0308997344708924,-0.0178516404165669,0.000473085424529978,-0.000538409784104316,-0.0234803416887051,0.0268728154482503,-1.8995844380218,-0.000266722607319461,0
0.17,0.000619765792739912,0.000356296984037985,-0.0308314624936147,-0.0178258839405428,0.00047152004292061,-0.000537332325297149,-0.0234240125201719,0.0268264208423655,-1.89958558966768,-0.000222991882508498,0
0.18,0.000619123753240184,0.00035621356378065,-0.0308135983539977,-0.0178217037272811,0.000470938848202771,-0.00053704648411564,-0.0234084309582893,0.0268167173109513,-1.89958648884704,-0.00019508138572296,0
0.19,0.000618770664857173,0.000356199968722958,-0.0308065718572365,-0.0178210296039093,0.000470608675645928,-0.000536919945441413,-0.0234019791597234,0.0268138273498275,-1.89958721080873,-0.000173961621916672,0
0.2,0.000618518097050819,0.000356197686281656,-0.0308023705637084,-0.0178209064767448,0.000470370060621862,-0.000536836505988888,-0.0233980270198051,0.0268123678845671,-1.89958779459867,-0.000157143398748975,0
0.21,0.00061831995815321,0.000356197249313195,-0.030799251516978,-0.0178208881687966,0.000470182422639362,-0.000536772335827634,-0.0233950682829905,0.026811354482104,-1.89958826748976,-0.000143571895752397,0
0.22,0.000618160585574756,0.000356197123662176,-0.0307967710202337,-0.0178208857631537,0.00047003142204163,-0.000536720935642403,-0.023392711161058,0.0268105602177835,-1.89958865071385,-0.000132584082257249,0
0.23,0.000618031772019788,0.000356197058773202,-0.0307947707397953,-0.0178208847310941,0.000469909362907341,-0.00053667942624682,-0.0233908100359467,0.0268099206149096,-1.89958896130647,-0.000123680825901306,0
0.24,0.000617927347476257,0.000356197012152247,-0.0307931418730354,-0.0178208850892644,0.000469810412046912,-0.000536645781645157,-0.0233892615583961,0.0268094008797397,-1.89958921303978,-0.000116465205414422,0
0.25,0.000617842941716855,0.000356196975328628,-0.0307918268444607,-0.0178208706640365,0.000469730430071066,-0.000536618587944782,-0.0233880161602999,0.0268089673752854,-1.89958941706942,-0.000110617036066788,0
0.26,0.000622818743507545,0.000359038462000824,-0.0310165061053368,-0.0179630328971794,0.000473522158978507,-0.000540914567576588,-0.023554754945835,0.0270160641339409,-1.89958944283754,-0.000149433568923138,0
0.27,0.000611022413109782,0.000352093347657717,-0.0304910525750865,-0.0176155667020648,0.000464600028969308,-0.000530532683129925,-0.0231696316541699,0.0265175535519714,-1.89958997309198,-4.24047457984673e-05,0
0.28,0.000610567686044364,0.000351929273923165,-0.0302875921233435,-0.0176073587140736,0.000464222591537704,-0.000530230608878508,-0.0229797180054792,0.0264440896592176,-1.89959006472865,-3.64719863882106e-05,0
0.29,0.000616233521000807,0.000355506676130172,-0.0307254570933384,-0.0177863386723214,0.000468429845316247,-0.000535445822838475,-0.023336338348647,0.026754866275849,-1.89958992990091,-8.48378697122551e-05,0
0.3,0.000607930682936372,0.000351401407778857,-0.0303378438115794,-0.0175809541621491,0.000461897929783465,-0.000528878972077918,-0.0230358356479932,0.0264352982276732,-1.8995888641662,-4.60195665469978e-05,0
0.31,0.000616044928610204,0.000355421456102353,-0.0307039035173882,-0.017782080597398,0.000468279436385641,-0.000535303778225611,-0.0233173424273516,0.0267438520730105,-1.89958887745577,-0.000110047739811891,0
0.32,0.000617573787461019,0.000356071590667047,-0.0307754941559431,-0.017814609662874,0.00046951635386833,-0.000536412857870967,-0.0233745887135052,0.0267977603627155,-1.8995890938758,-0.00011668394540248,0
0.33,0.000617806910083757,0.000356176706218611,-0.0307886517676684,-0.0178198557879152,0.000469702930771913,-0.000536587719785175,-0.0233853417308959,0.0268069791304814,-1.89958931027929,-0.000113040594567,0
0.34,0.000617795094843023,0.000356193680233982,-0.0307903561830042,-0.0178207070932769,0.000469686169013885,-0.000536600055616647,-0.0233866750370459,0.0268083394840532,-1.89958949384618,-0.000108289184481676,0
0.35,0.000617745560270589,0.000356196403848868,-0.0307899496050725,-0.0178208440791662,0.000469638327707438,-0.00053658670920649,-0.0233862419732481,0.0268083413650592,-1.89958964425641,-0.000104079651510395,0
0.36,0.000617697422558529,0.000356196826790845,-0.0307892574108463,-0.0178208661139539,0.000469592566449228,-0.000536571623165952,-0.0233855764661411,0.0268081415676113,-1.89958976648855,-0.000100596356113117,0
0.37,0.00061765685182362,0.000356196880960897,-0.0307886209030529,-0.0178208706682818,0.000469554098298943,-0.000536558620638606,-0.0233849699262143,0.026807942667008,-1.89958986562268,-9.77588971969374e-05,0
0.38,0.000617623615249287,0.000356196878184528,-0.0307880827212995,-0.0178208708376633,0.000469522599900357,-0.000536547923604977,-0.023384458364461,0.0268077709268609,-1.89958994598383,-9.54562955635973e-05,0
0.39,0.000617596606894662,0.000356196868383847,-0.0307876370765367,-0.0178208709903652,0.000469497006530833,-0.0005365392238717,-0.0233840347963134,0.0268076286951417,-1.89959001111902,-9.35894698062211e-05,0
0.4,0.00061757472081419,0.000356196859219071,-0.0307872698550564,-0.017820871129315,0.000469476267466197,-0.000536532172933053,-0.0233836857858445,0.0268075114847427,-1.89959006391164,-9.20762938561905e-05,0
0.41,0.000617557025685298,0.000356196851593404,-0.0307869681334503,-0.0178208712570136,0.000469459499725686,-0.000536526472017583,-0.0233833990384178,0.0268074151797456,-1.89959010670008,-9.08498415868506e-05,0
0.42,0.000617542590185412,0.000356196845380743,-0.0307867126080841,-0.0178208713759619,0.000469445820898457,-0.000536521821171399,-0.023383156232806,0.0268073335936928,-1.89959014138039,-8.9855796999951e-05,0
0.43,0.000617530948653246,0.000356196840340011,-0.0307865021232276,-0.0178208714874137,0.000469434789521045,-0.000536518070525231,-0.023382956233603,0.0268072663905109,-1.89959016948857,-8.90501225320382e-05,0
0.44,0.000617521519012192,0.000356196836253638,-0.0307863255396659,-0.0178208715929257,0.000469425854099052,-0.000536515032504777,-0.0233827884643976,0.0268072100039348,-1.89959019227025,-8.839712284307e-05,0
0.45,0.000617513893808623,0.000356196832941495,-0.0307861769969635,-0.0178208716935929,0.000469418628521531,-0.000536512575846274,-0.0233826473512636,0.0268071625662679,-1.89959021073502,-8.78678662720682e-05,0
0.46,0.000617507665588914,0.000356196830256997,-0.0307860478831264,-0.0178208717905108,0.000469412726769707,-0.000536510569227513,-0.0233825247212552,0.0268071213168416,-1.89959022570057,-8.74389035823142e-05,0
0.47,0.000617502659730083,0.000356196828081162,-0.0307859390492907,-0.0178208718841474,0.000469407983257284,-0.000536508956461248,-0.0233824213619852,0.0268070865464417,-1.89959023783009,-8.70912291315357e-05,0
0.48,0.000617498585193825,0.000356196826317517,-0.0307858436771538,-0.0178208719752821,0.000469404122278813,-0.000536507643731852,-0.0233823308057249,0.0268070560667373,-1.89959024766126,-8.68094388360576e-05,0
0.49,0.000617495267357158,0.00035619682488834,-0.03078575934268,-0.0178208720643842,0.00046940097835703,-0.000536506574784024,-0.0233822507464699,0.0268070291056239,-1.89959025562927,-8.65810476790239e-05,0
0.5,0.000617492589804759,0.000356196823729706,-0.0307856852349143,-0.0178208721517655,0.000469398441143749,-0.000536505712132441,-0.0233821804071331,0.0268070054098005,-1.89959026208748,-8.63959365442211e-05,0
0.51,4.67033380720746,-0.00729057601669197,6.48408813027339,0.376757497153591,-0.908691106616852,4.58108627903896,-0.881984230092195,6.43486199624222,0.194254336708526,60.1698311752712,5336.79852288216
0.52,4.73096641394061,0.0118663381372659,3.4533952021031,-0.565856553670354,-3.66106021147711,2.99646827911694,-3.03517851633229,1.74178742538673,0.887402384715814,129.347242850457,5336.79852288216
0.53,4.65544177951893,0.0390957450490714,7.23068494121782,-1.92199140463678,-4.02338423935517,-2.34244442885626,-5.23704710631336,-5.34323808985775,2.10642801610266,204.611737048999,5336.79852288216
0.54,4.68069092148988,0.00408981161899713,5.96938798771968,-0.150336812143377,3.11922578672403,-3.48988749396205,4.09390538820391,-4.34696822825431,-2.41134546281741,275.430853639917,5336.79852288216
0.55,4.65041150511528,0.013807321089904,7.48472489631289,-0.632943461415413,0.62514424732514,4.608222268843,0.356676541150652,7.50296648292043,-0.131866281915994,348.271244233253,5336.79852288216
0.56,4.64629908594063,0.0409186738257494,7.69182091855474,-1.95758176480404,-2.12556868697045,-4.13179468159432,-1.70975226187179,-7.75067626804487,2.67526481192051,418.066324642492,5336.79852288216
0.57,4.63982534477442,0.0585305148655306,8.01716466852939,-2.82408873418777,1.32739897386148,4.44628125689019,-0.519695568544349,8.48412181766137,-0.277503940017621,488.97882795651,5336.79852288216
0.58,4.58347809366334,0.0313807623828829,10.8362458442536,-1.45153576329618,1.88711103509945,-4.17708847506793,5.84758583541795,-9.2377984372171,-2.71041585856462,560.164633219849,5336.79852288216
0.59,4.55397813883598,0.0309409097054281,12.3131493670203,-1.44617207553554,-4.53878228151045,-0.373000844417591,-12.1364061081829,-2.53233247893539,1.65958703894439,631.731853577983,5336.79852288216
0.6,4.58092566443192,0.0705755877386656,10.9678005617388,-3.40903729728434,-1.13259067598708,4.43926786951439,-6.16460410535658,9.6908121785831,0.265206280444625,702.380150655647,5336.79852288216
0.61,4.50593470207098,0.116433602552455,14.7194884767811,-5.66602236774021,2.69183978516239,3.61538419730846,3.85199422621309,15.2947471692423,-0.614170643312485,771.930073596591,5336.79852288216
0.62,4.56433202736457,0.108305390086913,11.8018276995308,-5.26870023116269,3.84441874244534,2.46278327229232,6.8372814287147,10.9678585804075,-0.977324443115841,842.824176569762,5336.79852288216
0.63,4.49825080206458,0.0517306982993702,15.1082017952869,-2.44476085174655,3.34410010609816,3.00897504539593,9.45804701088392,12.032454606158,-0.826599698545528,913.179379673734,5336.79852288216
0.64,4.47930465340629,0.0802272109274558,16.0580061195917,-3.86092184500642,0.805206163036569,4.40706814315463,-1.20706238539473,16.4714686178209,-0.162805886683057,982.773167738502,5336.79852288216
0.65,4.47531265191459,0.106842319519039,16.2602074492304,-5.18283972099892,-3.73886863973987,2.46184888008927,-16.5362778453124,4.21991574420664,1.01237466578295,1052.46263195405,5336.79852288216
0.66,4.4574682374762,0.12548575771755,17.1551535691398,-6.10310038707516,-2.02805434687657,-3.97136819365999,-1.85776968012112,-18.1134154739273,2.69759074191247,1122.04910802183,5336.79852288216
0.67,4.45799791468679,0.117224138816696,17.1314826101383,-5.6496244193202,4.40762663150611,0.678464725178226,15.8516952912981,8.60986114247427,-1.39177618215897,1191.00144849271,5336.79852288216
0.68,4.4096233796552,0.14769238344199,19.5531107141886,-7.14122115670555,-4.22138661524217,1.2831548757585,-20.7347903241785,-1.84109978617421,1.3091863429125,1260.14684603715,5336.79852288216
0.69,4.40078182464577,0.102403941248046,19.9981995787158,-4.88715668376117,4.29764231666149,-0.952700243180486,20.5660501410535,0.921883093158789,-1.76568297251674,1329.22634783095,5336.79852288216
0.7,4.36412449827358,0.123638767853703,21.8341754871755,-5.97487167370497,-4.10331262120032,-1.49120579198384,-18.1026620023318,-13.5913185214442,1.94769503840439,1398.4133749733,5336.79852288216
0.71,4.30629819333923,0.1396064460081,24.7286922375781,-6.77160694812756,0.644613351883799,4.26006663284706,-3.8191734811666,25.3530430986408,-0.117768295835994,1467.02738094807,5336.79852288216
0.72,4.28821818795703,0.122013435726952,25.6360292062417,-5.88210659752532,4.24932080247691,-0.589046028473491,26.1246798431893,3.05061872065106,-1.68009423301153,1535.50972593629,5336.79852288216
0.73,4.31699352373472,0.180453102428802,24.2007040500535,-8.79544750844876,1.51885713939787,-4.04500548778908,17.5437473788543,-18.8481007345328,-2.74061656873117,1603.98856382935,5336.79852288216
0.74,4.35303381196212,0.152726746992009,22.402185021702,-7.36835589292668,-0.837883665487895,-4.27436308593933,3.74009290320876,-23.2843781833822,2.98309248665979,1672.13921360644,5336.79852288216
0.75,4.26120623204739,0.172408206024041,26.9971808004394,-8.29466044044044,4.25436922414938,0.296556311945226,25.9230843465077,11.2090526342626,-1.46076470757373,1739.92273172483,5336.79852288216
0.76,4.29027285935825,0.148814678084426,25.547612241646,-7.171381697492,3.73851714443215,2.10999444950604,18.0607714557013,19.440106510139,-1.02229708188631,1808.16826709782,5336.79852288216
0.77,4.26574025016704,0.274288626191086,26.7780858549488,-13.390146101937,0.643228323196745,4.22587641283917,-11.0171897699205,27.8385241034755,-0.0868404278351069,1875.70704081431,5336.79852288216
0.78,4.24056500048063,0.244277137296493,28.0408425046646,-11.8587773419742,-4.07742790034074,1.1902287849947,-29.987602440222,-5.25957681806416,1.3443222236156,1943.06922679488,5336.79852288216
0.79,4.26051361088845,0.194337756601883,27.0475195316468,-9.35616831025126,0.351396452671739,-4.25044279166965,12.7339916748619,-25.6310681456921,-3.01352523430297,2010.43937552418,5336.79852288216
0.8,4.18399411539352,0.230852183559629,30.8777402535178,-11.1706033598447,2.53764772337802,3.33458296048189,8.0687568181507,31.8294264163876,-0.595390546637776,2077.54891128119,5336.79852288216
0.81,4.17765754362738,0.335204905941962,31.1989077898681,-16.3739894578443,-3.3020856011779,-2.58097182535724,-11.8826752126182,-33.1704900150377,2.31429422600805,2144.60873339821,5336.79852288216
0.82,4.14697053957534,0.253296932340778,32.7377672365041,-12.3665282239432,2.44823100466039,3.35673784199163,7.22579442662171,34.2414999503425,-0.569148272371607,2211.5750387069,5336.79852288216
0.83,4.15762304255462,0.204506822711886,32.2096904435337,-9.82587735709854,0.53454891171796,-4.12818481484272,15.3713238897455,-29.9622166433251,-2.96367274045813,2277.93717552408,5336.79852288216
0.84,4.09815927912905,0.108142870274232,35.1875854126235,-5.08552469112217,-4.03005407851881,0.751843389088832,-35.549431543257,0.516377290332936,1.41273948038944,2344.64000132152,5336.79852288216
0.85,4.13106415164395,0.375835278034074,33.5471451839314,-18.4406852699838,-4.0387818022167,-0.946142027021291,-26.0196641685832,-28.079296639562,1.89163895883206,2410.78405542446,5336.79852288216
0.86,4.06904853113415,0.298782866074143,36.6528396322426,-14.5038038619737,-3.15268189396376,2.58979227453816,-38.3108116967474,9.27753667251511,0.956404806846612,2476.74121428613,5336.79852288216
0.87,4.07551011912909,0.339295239230418,36.3347795291843,-16.5201212209125,-1.67432895378646,3.73115619413076,-32.033894227541,23.8109266767757,0.504868500071475,2542.64554906104,5336.79852288216
0.88,3.96187077857136,0.240185684346415,42.0219185177954,-11.5647755379426,-1.81550758207045,3.52959508279736,-31.3922244278243,30.2343168375332,0.535625318435939,2608.37775264306,5336.79852288216
0.89,4.05963144756792,0.358385994332065,37.139006521325,-17.5850725638341,-3.33722703395484,2.3392228912305,-40.9568229086972,3.32854918725123,1.04748650536883,2674.15932903765,5336.79852288216
0.9,4.06228115526152,0.176802944585105,37.0117362718285,-8.40967369688859,-3.70424249422777,-1.67689445391295,-29.2240664869631,-24.2186946698018,2.03938531197427,2739.36802038035,5336.79852288216
0.91,3.89405432396769,0.202144794004724,45.4283772524573,-9.77275345662598,1.21130252897498,-3.70638203360818,25.4511126788423,-38.8778218696013,-2.77385512829923,2804.53403355866,5336.79852288216
0.92,3.98856258954674,0.334001776239498,40.708313432451,-16.2334792234091,3.16240586783033,2.45344204014997,18.9829951920445,39.501120537908,-0.82743229017328,2869.3004669298,5336.79852288216
0.93,4.02811440223783,0.36158254792679,38.7360493384666,-17.6648206789234,1.04966216321195,-3.9057210498962,29.9391096958047,-30.2684178409313,-2.78952156353198,2934.15264132136,5336.79852288216
0.94,3.98779624548449,0.387114752391518,40.7573252571262,-18.9699967902652,-0.035110594033356,4.00638789599883,-23.1578013635065,38.5322796671339,0.105535069741905,2998.6344425563,5336.79852288216
0.95,3.98752053811667,0.401663701076206,40.776463508321,-19.6873915721815,0.914078021685781,-3.90206549675111,31.8544426739457,-32.1808614722189,-2.81109534085866,3062.88778367887,5336.79852288216
0.96,3.93191177020635,0.353437414507366,43.5622844594857,-17.2334072843253,-3.17860736642686,2.34121835477979,-46.1839013406095,7.85558469608951,1.02560437449927,3126.79510626873,5336.79852288216
0.97,3.91991650000963,0.345602329146594,44.1674050428228,-16.7622855158661,3.39590528181461,1.98821871379961,26.3013074855569,39.2425165921144,-0.953186852093884,3190.37109789907,5336.79852288216
0.98,3.81161302193413,0.0999434126675746,48,-4.62572308999362,2.30610513190507,-3.03648837233318,33.6321842345518,-34.5582623654383,-2.46584697046225,3254.01692258648,5336.79852288216
