t,iq,id,vq,vd,ia,ib,va,vb,theta_e,omega,r
0,0,0,0,0,0,0,0,0,0,0,0
0.01,0.00105956900578201,0.000604460232416391,-0.0525077045599269,-0.0302808322323572,0.00121714623892468,-8.13245575350205e-05,-0.0604590206140787,0.00432373278812906,-1.11908410120855,-0.00175459607995982,0
0.02,0.00118156659351833,0.000674769806084092,-0.0586404938289831,-0.0338030447475588,0.00135759701430037,-9.13468821798766e-05,-0.0675141045897931,0.00481653736110776,-1.11909698375996,-0.00187420005628761,0
0.03,0.00121289243237235,0.000692739624473857,-0.0602011942177749,-0.0347032678088394,0.00139362359420997,-9.38590298457303e-05,-0.0693111555997053,0.00494613902874942,-1.11911001235154,-0.00183587296335167,0
0.04,0.00119530799293774,0.000683163449760298,-0.059350277936541,-0.0342235354426976,0.00137362170980707,-9.29348988052582e-05,-0.0683361223513029,0.00488674240471163,-1.11912191984188,-0.00172087604926162,0
0.05,0.00121197377705964,0.000692795662997919,-0.0601869410634342,-0.0347060593544829,0.00139281929350262,-9.43434290016622e-05,-0.0692994328990954,0.00495651393158159,-1.11913370733352,-0.00166599636123111,0
0.06,0.00121161941715261,0.000692865114053077,-0.0601841583206749,-0.0347095504278247,0.00139252971896461,-9.4576213147748e-05,-0.0692983972272637,0.00496164744839161,-1.11914493352513,-0.00158565263691922,0
0.07,0.00124447096927594,0.000711791304768006,-0.0618167720878997,-0.0356576704574503,0.00143034651033913,-9.72816286593123e-05,-0.0711810597238905,0.00510289235663457,-1.11915550664875,-0.00156740453307323,0
0.08,0.00121097775373968,0.000693002519335426,-0.060179634652063,-0.0347164280260155,0.00139201039489806,-9.50088014522822e-05,-0.0692972256836026,0.00497124876637042,-1.11916569897768,-0.00143706128116549,0
0.09,0.00121029416648412,0.00069285689686724,-0.0601584811265924,-0.0347091169564372,0.0013913308793516,-9.51894591050244e-05,-0.069274954597634,0.00497456700125364,-1.11917528642485,-0.0013677860352288,0
0.1,0.00120989383947032,0.000692852858723679,-0.0601506409507185,-0.0347089209837089,0.00139096805905187,-9.53731897719119e-05,-0.0692677696660707,0.00497844233910306,-1.11918438180225,-0.00130249604804022,0
0.11,0.00120951609705142,0.000692850044595645,-0.0601433028288136,-0.0347087774542638,0.00139062613470079,-9.5547510746296e-05,-0.0692610616015069,0.00498211334277499,-1.11919301098448,-0.00124055601387055,0
0.12,0.00120915746496341,0.000692847382067474,-0.0601363265770967,-0.0347086628093125,0.00139030151050129,-9.57130075398803e-05,-0.0692546938826301,0.00498562166845595,-1.11920119787175,-0.00118179078513684,0
0.13,0.00126511894163133,0.000724880047728373,-0.0629046569963012,-0.0363133499313533,0.00145463124436176,-0.000100124737181306,-0.0724457498053486,0.00522193356909645,-1.11920940073397,-0.00122036511618936,0
0.14,0.00136491577475264,0.000782690433370387,-0.0679472494788044,-0.0392094110485717,0.00156965128395926,-0.000108601258847104,-0.078246631550958,0.0056277240017048,-1.11921706430291,-0.00133862093785633,0
0.15,0.00120939113428621,0.000693521417919195,-0.0601781617837263,-0.0347424339346492,0.00139080367143452,-9.6249780919237e-05,-0.0693069569414756,0.00499935904734338,-1.11922440873794,-0.00101734643867871,0
0.16,0.00120786331543797,0.000692842861078092,-0.0601114663718063,-0.0347084348361843,0.00138913225498213,-9.63150927733329e-05,-0.0692320774949167,0.00499832810890802,-1.11923098942904,-0.000967964884569022,0
0.17,0.00120758023664951,0.000692835699190011,-0.0601056624212568,-0.0347080613471691,0.00138887382350078,-9.64408441114051e-05,-0.0692266611153869,0.00500095674769418,-1.11923722972767,-0.000923155062934881,0
0.18,0.00120732080861723,0.000692833733550351,-0.0601006046085505,-0.0347079727443443,0.00138863896909802,-9.65605031463659e-05,-0.069222041972994,0.00500349392170327,-1.11924315015085,-0.000880658302123745,0
0.19,0.00120707500117776,0.000692831905127613,-0.0600958204668782,-0.0347078870565605,0.00138841645798106,-9.66739180874679e-05,-0.0692176718358698,0.00500589324097601,-1.11924876711853,-0.000840339871797544,0
0.2,0.00120684153375994,0.000692830170548224,-0.060091266937184,-0.0347078013738149,0.00138820511769353,-9.67816306920452e-05,-0.06921351061701,0.0050081719608185,-1.11925409618442,-0.000802087990983601,0
0.21,0.00120662040636379,0.00069282852474134,-0.0600869638493932,-0.0347077156934145,0.00138800494477086,-9.68836572411082e-05,-0.0692095760873978,0.00501032245428151,-1.11925915210562,-0.000765796736286806,0
0.22,0.00120641045483608,0.00069282696316887,-0.0600828717321018,-0.0347076300155821,0.00138781488855806,-9.69805213853506e-05,-0.0692058326648193,0.00501236292019678,-1.11926394888161,-0.000731365614504807,0
0.23,0.00120621144634617,0.0006928254815247,-0.060078996812929,-0.0347075443388986,0.00138763473653445,-9.7072339569129e-05,-0.0692022858884567,0.00501429156480311,-1.11926849979575,-0.000698699283286569,0
0.24,0.00120602211856167,0.000692824075724099,-0.0600752928880235,-0.0347074874171181,0.00138746334999961,-9.71596766708479e-05,-0.0691989066706825,0.00501615529797417,-1.11927281744931,-0.000667707287111942,0
0.25,0.00120584280249375,0.000692822741888884,-0.0600717924859241,-0.0347074304859876,0.0013873010240526,-9.72424015900857e-05,-0.0691957116713347,0.0050179148766303,-1.11927691379867,-0.000638303806815631,0
0.26,0.0012157610892438,0.000698512906330313,-0.0605655742471932,-0.0349924870691497,0.00139870777997017,-9.8040056508538e-05,-0.0697643692671265,0.0050592208823992,-1.11928077947823,-0.000628011430366152,0
0.27,0.00117017643224171,0.000672613807084744,-0.0583242257304402,-0.0336950309726987,0.00134639039866996,-9.46314452194272e-05,-0.0671814961820116,0.00487000924566129,-1.1192845806999,-0.000522136005237793,0
0.28,0.00114952196152325,0.000660546012937781,-0.0572068993177531,-0.0330904865668936,0.00132253991798549,-9.27897654226572e-05,-0.0659123430068311,0.0048137999683355,-1.11928813018569,-0.000461186939731087,0
0.29,0.0012047667317228,0.000692573232768589,-0.0600374929099423,-0.034694934318067,0.00138622251957535,-9.75073681100627e-05,-0.0691593246675433,0.00502263215611963,-1.11929130234881,-0.000534251323855352,0
0.3,0.00120258698283206,0.000691437735690897,-0.0599334678235847,-0.034638037300904,0.00138376550767517,-9.74403067675675e-05,-0.0690408854825049,0.00501700360884072,-1.11929388997504,-0.000512101471331212,0
0.31,0.00120494793124754,0.000692805768122549,-0.060053721780211,-0.0347065619500016,0.00138648647467941,-9.76453014366759e-05,-0.06917897250256,0.0050264008529297,-1.1192968999666,-0.000494808865947336,0
0.32,0.00120484232494138,0.00069281522120468,-0.0600522357631925,-0.0347070516536847,0.00138639529567751,-9.77038526687794e-05,-0.0691778346700648,0.00502768783943194,-1.11929976189902,-0.000474300449155666,0
0.33,0.00120472377767034,0.000692814415475513,-0.060049920175223,-0.0347070004744621,0.0013862880104313,-9.77586155251877e-05,-0.0691757151306102,0.00502883994114341,-1.11930247719073,-0.0004548104323862,0
0.34,0.00120461083656759,0.000692813576861785,-0.0600476982197104,-0.0347069721871686,0.00138618576857912,-9.78107092746007e-05,-0.069173690523627,0.00502996214973646,-1.11930505330841,-0.000436319127937572,0
0.35,0.00120450416365059,0.000692812780637096,-0.0600456124563883,-0.0347069151687051,0.0013860891979884,-9.78599227752664e-05,-0.0691717765855863,0.00503098994077659,-1.11930749738552,-0.000418775605867593,0
0.36,0.0012044025148295,0.000692812025190891,-0.0600436097867524,-0.0347068839481158,0.00138599717790169,-9.79068068382812e-05,-0.0691699492966752,0.00503199601620886,-1.11930981618951,-0.000402131289020266,0
0.37,0.00120430598828599,0.000692811308439622,-0.0600417037127075,-0.0347068556260984,0.00138590979515751,-9.7951325717389e-05,-0.0691682107830632,0.00503295432575446,-1.11931201614156,-0.000386340088034716,0
0.38,0.00120421458401636,0.000692810628402507,-0.0600399023941643,-0.0347068272920513,0.00138582704832173,-9.79934861358186e-05,-0.0691665670870917,0.00503385911283686,-1.11931410333351,-0.000371358275876289,0
0.39,0.00120412816736257,0.000692809983200398,-0.0600382068932983,-0.0347067702386502,0.00138574881487036,-9.80333532195906e-05,-0.0691650066110567,0.00503468448399964,-1.11931608354485,-0.000357144366768459,0
0.4,0.00120404595990254,0.000692809371049653,-0.0600365856171068,-0.0347067418847163,0.00138567439308637,-9.80712726366615e-05,-0.069163525952174,0.0050354962690359,-1.11931796225911,-0.000343659001314546,0
0.41,0.00120396794339382,0.000692808790258464,-0.0600350446622923,-0.0347067135207496,0.00138560376532837,-9.81072580758986e-05,-0.0691621180445639,0.00503626633575134,-1.11931974467834,-0.00033086483751221,0
0.42,0.00120389388500576,0.00069280823922059,-0.0600335789858951,-0.0347066851470996,0.00138553672092911,-9.81414165538619e-05,-0.0691607783262487,0.00503699722682989,-1.1193214357384,-0.000318726447348724,0
0.43,0.00120382378473837,0.000692807716412918,-0.0600321948901401,-0.0347066567636011,0.00138547325878232,-9.81737532245307e-05,-0.0691595124447079,0.00503768651708985,-1.11932304012215,-0.000307210218697078,0
0.44,0.00120375672951315,0.000692807220389599,-0.0600308526816516,-0.0347066570715393,0.00138541255624408,-9.8204671342056e-05,-0.0691582971836679,0.00503837765784376,-1.11932456227168,-0.000296284262244303,0
0.45,0.00120369373058011,0.000692806749779224,-0.0600296085754205,-0.0347066286686586,0.00138535552224497,-9.82337343425975e-05,-0.0691571580606688,0.00503899476423824,-1.11932600640243,-0.000285918323184157,0
0.46,0.00120363375844515,0.00069280630328036,-0.0600284164646744,-0.0347066002582831,0.00138530122949244,-9.82613957794778e-05,-0.069156066091705,0.00503958405668374,-1.11932737651315,-0.000276083697442131,0
0.47,0.00120357681310425,0.000692805879658112,-0.0600272814319745,-0.0347065689298775,0.00138524967708269,-9.82876598222573e-05,-0.0691550245613784,0.00504014096161572,-1.11932867639787,-0.000266753152189747,0
0.48,0.00120352267997973,0.00069280547774095,-0.0600261976034722,-0.0347065691977329,0.00138520067108256,-9.8312624041221e-05,-0.0691540432245178,0.00504069934727703,-1.11932990965591,-0.000257900850436767,0
0.49,0.00120347155540865,0.000692805096416747,-0.0600251793772401,-0.0347065407632802,0.00138515438734629,-9.83362065267076e-05,-0.0691531087121798,0.00504119891142231,-1.11933107970252,-0.000249502279484444,0
0.5,0.00120342310838969,0.000692804734631352,-0.0600242145227162,-0.0347065123218953,0.00138511052726627,-9.83585552459557e-05,-0.069152222522462,0.00504167103476812,-1.1193321897772,-0.000241534183050283,0
0.51,4.54277708252084,0.0139638922279794,12.8627646729411,-0.69316691375465,-0.501542600327402,4.51502753389385,-2.14807995438457,12.7010608970809,0.1137032655796,34.8614737765172,3630.78890904223
0.52,4.5995312719551,-0.0561909659986567,10.0269536252088,2.82976427149917,-2.30590165496298,3.98015865311821,-2.45444663547829,10.1253669833705,0.512880597125429,74.1110263225583,3630.78890904223
0.53,4.57830276611331,0.0624110213406281,11.0902985304062,-3.10244195715025,-4.25015486941074,1.70321312225152,-11.4644229034609,1.08943796593355,1.20328202085716,114.601520571694,3630.78890904223
0.54,4.54492194902557,0.000819643635789902,12.761528842267,-0.0175620389770786,-3.67045318012301,-2.68031521412594,-10.2944211345012,-7.54200373393964,2.20171159388622,158.308552320869,3630.78890904223
0.55,4.54340624253127,0.0510672305745503,12.8394498147336,-2.52481425878946,1.61581530954788,-4.24667976566886,7.05004303958502,-11.0237494404784,-2.76677895591993,199.510017937592,3630.78890904223
0.56,4.5741851558337,0.0285663573382693,11.3025824389465,-1.38079584617628,4.20564145214137,1.79904581727403,9.81278376642907,5.77617881573152,-1.16033704900676,239.200295912125,3630.78890904223
0.57,4.56477530144359,0.00104734994973565,11.7753458273716,-0.00792386462539646,-3.11714678719864,3.33475194829668,-8.04878777038275,8.59510602431206,0.751913079308391,281.936323072513,3630.78890904223
0.58,4.43131689914313,0.00445350756426288,18.4506241900941,-0.157236277979125,-0.794180874872297,-4.35957177167072,-3.1337571177453,-18.1832291570606,2.96240413615803,321.687573759319,3630.78890904223
0.59,4.50978249648083,0.0489696979112478,14.5298552053684,-2.38738139509015,3.29031237881808,3.08453896825359,8.84014628420112,11.7757418402629,-0.806807771261977,362.994230787804,3630.78890904223
0.6,4.47982144075382,-0.0114263119630773,16.0304207999068,0.632776820260861,-4.06107926877159,-1.89118107921909,-14.814841482922,-6.1559133653942,2.00406592790399,404.539659470486,3630.78890904223
0.61,4.50422782644926,0.0187743363647853,14.8127393007594,-0.876570966197095,4.15271388254526,1.7445309392446,13.2897229021954,6.60067325610834,-1.16892014438331,445.054588411577,3630.78890904223
0.62,4.39501706872599,-0.0340908798274873,20.2759712363522,1.80451355906578,-3.42427713327234,-2.75529732279992,-17.0155028956566,-11.1733584910776,2.24060127473735,485.298766322836,3630.78890904223
0.63,4.3763978606984,0.0811333850746652,21.2097881681249,-3.95914945949577,1.51536331562896,4.10647231610603,3.23362349476549,21.3324555003276,-0.334979402829089,525.752936005185,3630.78890904223
0.64,4.44824551471263,0.0168352496170845,17.6202952179069,-0.729197382217776,2.22642026498909,-3.85100303666936,9.50675650823432,-14.8535555703532,-2.61361683965129,566.415564554759,3630.78890904223
0.65,4.33572649913274,0.0331284390230457,23.2491520025527,-1.57712131203805,-4.30978607791276,-0.474727007219178,-22.9046055446341,-4.28828932272552,1.68814564698175,607.289680057968,3630.78890904223
0.66,4.4140273272234,0.0200182427879168,19.3371856751952,-0.909854467745607,0.00441932291930358,4.41407050749127,-0.978184745850843,19.3338495802682,0.00353392178623357,647.797138219932,3630.78890904223
0.67,4.40625112748077,0.0960279845502985,19.7290075029228,-4.69206952370428,4.3482135317775,0.719242277893496,18.5233546538431,8.25436768223998,-1.38507951293751,687.828221708051,3630.78890904223
0.68,4.31093775161637,0.0665855332834948,24.4977758304425,-3.19253998132848,2.6013642774668,-3.43824400348106,17.5968625746392,-17.3402352838783,-2.47843847782748,727.948340932065,3630.78890904223
0.69,4.37654149922495,-0.0308789404378125,21.2207429976197,1.65741261654433,-0.554481307627364,-4.34138451221411,-4.47945506361312,-20.8086864622824,3.00750504041735,768.785411896694,3630.78890904223
0.7,4.32898671907721,0.0655801917108014,23.6017307730411,-3.12837087302265,-2.62601525782754,-3.44216075178784,-11.5139028896899,-20.8388684925329,2.50503614840422,808.440791299499,3630.78890904223
0.71,4.28800197842302,0.0455412481621222,25.6542928053675,-2.15731803147874,-3.23576932348911,-2.81404190754344,-17.7451276886718,-18.6522707396501,2.29721811314503,849.045130261646,3630.78890904223
0.72,4.23805523485235,0.0459062109546391,28.1549478895491,-2.16248187363125,-2.94758574685079,-3.04548154137005,-17.7903884233491,-21.9289648242541,2.38335935866241,889.020200579269,3630.78890904223
0.73,4.38402320447521,0.128357250355029,20.86000112426,-6.25215415206499,-1.73674352242662,-4.02738835703797,-1.88500373619387,-21.6950648618493,2.76372436113668,928.798617070986,3630.78890904223
0.74,4.25805528682625,0.043443210174799,27.1618479518603,-2.01613889540391,1.19936894865552,-4.08588255621478,9.84440827350816,-25.3952441600789,-2.84587093994104,969.018758722245,3630.78890904223
0.75,4.26177570831471,0.0723510148091869,26.9793773643308,-3.47323069641076,4.03871148974317,-1.3626358133932,26.7606241395692,-4.88048461714193,-1.87922165000111,1009.10298328155,3630.78890904223
0.76,4.2437135633102,0.111548656469835,27.8861332229759,-5.43783770702746,2.55713464839187,3.38860005019432,11.781668695475,25.8534095973354,-0.620177291003758,1048.99578113792,3630.78890904223
0.77,4.3019906696481,0.0989955352118037,24.9758850746455,-4.79756052245741,-3.39254500494803,2.64718005189171,-22.902545659308,11.058246902283,0.931195223284113,1088.85164892475,3630.78890904223
0.78,4.2285716502939,0.126280070803101,28.6505546734315,-6.14782326997636,-1.63483543753165,-3.90180444796276,-4.5395139521674,-28.9489693621764,2.77467416901829,1128.52746951945,3630.78890904223
0.79,4.25454303548098,0.113194109721892,27.3557497577515,-5.46068704512579,4.19433142970169,0.722172559055006,25.7566975512973,10.7120809866488,-1.37369069434748,1168.11075392116,3630.78890904223
0.8,4.26039266337821,0.177316533514099,27.0670323688585,-8.65317435203371,-3.61299516781872,2.26465289096208,-27.7989236697651,5.8924961116746,1.05249396477664,1207.9133094258,3630.78890904223
0.81,4.17690550834695,0.0801099245577368,31.2452293498457,-3.85152265208494,2.39044127841553,-3.42618559335581,21.482292803565,-23.0132500913252,-2.51323673169707,1247.86905693239,3630.78890904223
0.82,4.22880217735096,0.146062626243453,28.6542288348683,-7.08951050962181,-1.88035448897703,3.79056316946932,-19.8506173548997,21.8467155429916,0.495018506015448,1287.24305167987,3630.78890904223
0.83,4.16476600994856,0.0115927316092437,31.8599622028396,-0.41735525037727,2.51885052807258,-3.31674574338726,19.6710503588389,-25.065537192556,-2.48929735761707,1327.12696579491,3630.78890904223
0.84,4.27153739252766,0.161750748265285,26.525325957544,-7.85522298747709,-3.50331815183215,-2.44927681721967,-16.4072829010476,-22.2732690268388,2.21878756246336,1366.42149872507,3630.78890904223
0.85,4.21473349964905,0.167673210973096,29.3695012285202,-8.20816832820871,0.941397894206276,4.11167396367051,-2.65608222823593,30.379052929825,-0.18531621009954,1406.24424364995,3630.78890904223
0.86,4.19126899915713,0.172431725060739,30.5467696599692,-8.45312768009024,3.01119559655027,-2.92047420848384,28.4140388719113,-14.0428949729263,-2.29978376403245,1445.65845069146,3630.78890904223
0.87,4.15369383962996,0.141757005207314,32.429574414955,-6.82883643910824,-3.53512037547665,-2.18544995202247,-23.1994715359126,-23.66632257664,2.15861338769471,1484.95389915695,3630.78890904223
0.88,4.16041014410543,0.182815846587042,32.0979214228083,-8.89418266228648,-2.27846109651307,3.48583551427992,-25.9481998278109,20.8823842171071,0.622839270244497,1524.37528949084,3630.78890904223
0.89,4.13927794304307,0.137912025915449,33.1587437106158,-6.65128640598746,2.53141812748822,3.277890156866,13.9854997438422,30.7920069536847,-0.624297016905147,1563.75825749418,3630.78890904223
0.9,4.07770642900115,0.155295645840893,36.2416101763991,-7.51917116471715,4.07543150586577,-0.206553866415244,36.3332866463591,7.06289775204829,-1.58337002434892,1603.02646726763,3630.78890904223
0.91,4.16476455808518,0.103902681631847,31.8929629619607,-4.91909075006223,3.16309153795557,-2.71125644564408,27.832115665828,-16.3319281734985,-2.25448614229326,1642.28806936712,3630.78890904223
0.92,4.02770879761044,0.185921454758588,38.7500656338145,-9.01462746823656,1.78154009499731,-3.6170595565466,26.6011129561126,-29.583980200645,-2.63780440757285,1681.52450667937,3630.78890904223
0.93,3.98713316388552,0.108966446649671,40.783235013535,-5.26293887839882,1.48215992299098,-3.70301316710197,21.0144901957032,-35.3463150218192,-2.73354132868439,1720.8888691735,3630.78890904223
0.94,4.13598546347512,0.13509192129923,33.3450149535943,-6.52967728540937,2.221335149913,-3.49146040118442,24.1999624181326,-23.8513841667101,-2.54231507852354,1760.04459473221,3630.78890904223
0.95,4.03035112273884,0.166662165546181,38.6311749545054,-8.03797082142574,3.47027334225748,-2.05638259572578,37.8281475148772,-11.2253244445043,-2.06440703271601,1798.93353091626,3630.78890904223
0.96,4.01892664950177,0.140532581964581,39.2068893543057,-6.82760850842553,3.91005137527537,0.939690940350271,35.9515494422702,17.0670004243597,-1.29998872421709,1838.20790357342,3630.78890904223
0.97,4.07391124780559,0.158146884551229,36.4621308156412,-7.59900455902934,-3.01053642253153,2.74926058072006,-32.7607598232555,17.7190425731202,0.869529016826807,1877.03131658713,3630.78890904223
0.98,4.01566750511907,0.159914865652903,39.3787951096998,-7.77278490470016,-3.32684140154585,-2.25461406118352,-27.0800639878548,-29.6272817497681,2.20620306026406,1916.27573987148,3630.78890904223
