t,iq,id,vq,vd,ia,ib,va,vb,theta_e,omega,r
0,0,0,0,0,0,0,0,0,0,0,0
0.01,0.000658290592161312,0.000375312051483093,-0.0323871724516142,-0.018781009521955,-0.000756318958556634,4.67682867373467e-05,0.0373493609498854,-0.00258466529932619,2.02720584129503,-0.00142326393358798,0
0.02,0.000757580074777399,0.000431035964352189,-0.0373226889822558,-0.0215695046799284,-0.000870003742194937,5.30382958960484e-05,0.0430086171875278,-0.00291298688983373,2.02719479472255,-0.00158969894928473,0
0.03,0.000795863071433821,0.000452714795964266,-0.0392126607034751,-0.0226543360620379,-0.000913921912964905,5.56367860287611e-05,0.0451832113444657,-0.00305435990985945,2.02718320582249,-0.00161829587084385,0
0.04,0.000778170735593021,0.000442813723893599,-0.038360156971617,-0.0221588708481813,-0.000893676293193935,5.45561250919505e-05,0.0441995724098981,-0.00298579954713125,2.0271721335103,-0.00152534468069518,0
0.05,0.000797379164639037,0.000453924411781029,-0.0393149485000541,-0.0227148532515615,-0.000915814689060647,5.60745852588517e-05,0.0453016330586334,-0.00306460046707726,2.02716121375755,-0.00151491513984326,0
0.06,0.000799099706553819,0.000455067556545174,-0.0394127975522742,-0.02277206576573,-0.000917862321016896,5.63522997922165e-05,0.0454146483929331,-0.0030733209206883,2.0271505576658,-0.00146700810682977,0
0.07,0.000816042731184985,0.000465012738652861,-0.0402556455041848,-0.0232697358295351,-0.000937453520920067,5.78228531279249e-05,0.0463905239608752,-0.00314910894864099,2.027140386398,-0.00145519090996874,0
0.08,0.000800465214088396,0.000456206464521712,-0.0395053997772024,-0.0228290618769781,-0.000919588833929526,5.67914936334392e-05,0.045522828796193,-0.00308459659144871,2.02713034695379,-0.00137193970679948,0
0.09,0.000798503268405931,0.000455296767157147,-0.0394215046278316,-0.022783536070748,-0.000917426233961705,5.68482284468598e-05,0.0454274273562747,-0.00308113401195271,2.02712076030307,-0.00132106182523745,0
0.1,0.000798006777534303,0.000455201126425403,-0.0394089437750732,-0.0227787417170193,-0.00091693787436791,5.69896222070097e-05,0.0454140106421297,-0.00308278462985812,2.02711152428651,-0.00127513326765245,0
0.11,0.000797676778321512,0.000455189465592047,-0.0394041177973712,-0.0227781655678339,-0.000916635992810074,5.71327309381423e-05,0.0454093970966268,-0.00308479842868553,2.0271026172588,-0.00123117104300694,0
0.12,0.000797374486200131,0.000455186525177549,-0.039400245128839,-0.0227780216038739,-0.000916362841729232,5.72711641584193e-05,0.0454058307041282,-0.0030867656968416,2.02709402655744,-0.00118880540404237,0
0.13,0.000832292056745872,0.00047528868112471,-0.041121459549771,-0.0237839576843457,-0.000956565048348253,5.99391892341329e-05,0.04739416327349,-0.00323177447232499,2.02708548876682,-0.00122475263981795,0
0.14,0.000857240515430055,0.000489884036778293,-0.0424147192165331,-0.0245143260233931,-0.00098539161337058,6.20567408418133e-05,0.0488769017035277,-0.00331799132944097,2.02707718666532,-0.00123974966425051,0
0.15,0.000802962859651277,0.000458757833922293,-0.0397056798477261,-0.0229567343186949,-0.000922951640393595,5.80376917115286e-05,0.0457586845982643,-0.00311375120808342,2.02706911612214,-0.00108028512413056,0
0.16,0.000796933791457714,0.000455547806697627,-0.0394198271019496,-0.0227960914279361,-0.000916124554958975,5.78193043490388e-05,0.045431271174156,-0.00309582826376512,2.02706167387677,-0.00103080120427957,0
0.17,0.000796067701138603,0.000455215467510265,-0.0393864871549342,-0.0227794675929253,-0.000915200220302434,5.79090961340692e-05,0.0453939952160605,-0.00309591869195677,2.02705453235657,-0.000994219878598524,0
0.18,0.00079576111569487,0.000455179815281716,-0.0393802245553438,-0.0227776856955743,-0.000914908888810975,5.80184683226741e-05,0.0453875668225295,-0.00309739077387526,2.02704764826963,-0.000960128092208615,0
0.19,0.000795522110726732,0.000455174795251553,-0.0393769597665009,-0.0227774358718763,-0.000914691733916484,5.81253369217303e-05,0.0453845053452597,-0.00309890624513966,2.02704100899199,-0.000927373836429456,0
0.2,0.00079529765781746,0.0004551729804076,-0.0393741067397064,-0.0227773417478476,-0.000914489067112291,5.82284531407665e-05,0.045381882823493,-0.00310036933973678,2.02703460546041,-0.00089579598580589,0
0.21,0.000795081703240966,0.000455171541860061,-0.0393713795458425,-0.0227772651050143,-0.00091429420718414,5.83279526243309e-05,0.0453793816542754,-0.00310178233964008,2.02702842926568,-0.000865340634838955,0
0.22,0.000794873389457914,0.00045517018638463,-0.0393687465175008,-0.0227772088879824,-0.000914106254775877,5.84239575974702e-05,0.0453769746830222,-0.00310316221012978,2.0270224723332,-0.000835966636329756,0
0.23,0.000794672685285071,0.000455168882193209,-0.0393662163011881,-0.0227771337336059,-0.000913925167555512,5.85164606228867e-05,0.0453746523073064,-0.00310447016116256,2.02701672687814,-0.000807635462522036,0
0.24,0.0007944789234135,0.000455167624501994,-0.039363765509067,-0.0227770775385082,-0.000913750344030321,5.8605758484404e-05,0.0453724102053144,-0.00310575086069468,2.02701118539271,-0.000780310077231236,0
0.25,0.000794292247280192,0.0004551664113637,-0.0393614107667839,-0.0227770009582171,-0.000913581911789786,5.86917930689316e-05,0.0453702459478076,-0.00310696199486949,2.02700584063611,-0.000753954772322328,0
0.26,0.000801479475831973,0.000459384123991283,-0.0397199432862895,-0.0229880620705527,-0.000921891898116096,5.93165385287684e-05,0.0457850775547925,-0.00313872039647864,2.02700073632772,-0.000745109201753637,0
0.27,0.000781547600802048,0.000447982260090219,-0.0387501186228833,-0.0224175021013958,-0.000898975117185113,5.78661935588525e-05,0.0446630634945317,-0.00305398969170575,2.02699562235965,-0.000676113866509004,0
0.28,0.000780950316406118,0.000447720858599913,-0.0386690044635164,-0.0224044195629278,-0.000898323479727633,5.7898961046769e-05,0.044584466472526,-0.00307819289703595,2.02699082555423,-0.000651508274307145,0
0.29,0.000792239216139544,0.000454394824197823,-0.0392856753036878,-0.0227384063618546,-0.000911397772916305,5.89213999355924e-05,0.0452851925060066,-0.00310656524759014,2.02698628472486,-0.000654488401799381,0
0.3,0.000784557805343052,0.000450193000028795,-0.0389145228346936,-0.0225281317862132,-0.000902650614344928,5.85367886235337e-05,0.0448593502135057,-0.00308147816005904,2.0269822689627,-0.000617973257771473,0
0.31,0.000792367268632451,0.000454647976658432,-0.03930245797738,-0.0227510740131757,-0.000911623762744531,5.90997993157351e-05,0.0453058136832372,-0.00311091920764909,2.02697800717314,-0.000614596414449036,0
0.32,0.000793072264007322,0.000455106357098827,-0.039342267777036,-0.022774002082023,-0.000912458347070998,5.92045358898021e-05,0.0453516399715806,-0.00311415422869901,2.02697384630503,-0.00059596346671184,0
0.33,0.000793022643151452,0.000455152792280306,-0.0393449324948021,-0.0227763348192407,-0.000912434017733753,5.927174836055e-05,0.0453550473014786,-0.00311525682718561,2.02696982776961,-0.000576349184550364,0
0.34,0.000792896868151732,0.000455156792403337,-0.0393436855309007,-0.0227765216249827,-0.000912322636013584,5.93342819367035e-05,0.0453539980579336,-0.0031161496511991,2.02696595132141,-0.000557255705252536,0
0.35,0.000792767266740994,0.00045515644611972,-0.0393420755045088,-0.0227765105584688,-0.000912205912207206,5.93944727608402e-05,0.0453525361337074,-0.00311701852148424,2.02696221242999,-0.000538821311080164,0
0.36,0.000792641274169273,0.000455155678680073,-0.0393404726099692,-0.0227764747548543,-0.000912092250166936,5.9452573845222e-05,0.0453510701232237,-0.00311785601218183,2.02695860626645,-0.000521039353803311,0
0.37,0.000792519705376962,0.000455154893755247,-0.039338922991093,-0.0227764374919868,-0.000911982559089048,5.95085929721767e-05,0.0453496516920348,-0.00311866290846793,2.0269551281249,-0.000503888460848292,0
0.38,0.000792402443950842,0.000455154132039036,-0.0393374266816591,-0.0227764002244551,-0.00091187675216024,5.95626221817616e-05,0.0453482814976057,-0.00311944070842499,2.02695177346133,-0.000487346419971781,0
0.39,0.000792289373475593,0.000455153396841409,-0.0393359835787742,-0.0227763629521952,-0.00091177472610377,5.96147198015417e-05,0.0453469594343809,-0.00312018965710966,2.02694853789173,-0.000471391636708612,0
0.4,0.000792180319325987,0.000455152687650178,-0.0393345904864975,-0.0227763242200772,-0.000911676323707315,5.96649662207083e-05,0.0453456819795111,-0.00312091004861991,2.02694541718815,-0.000456003264972663,0
0.41,0.000792075165091162,0.000455152003589228,-0.0393332469834594,-0.022776286938226,-0.000911581439866504,5.9713415715324e-05,0.045344450024333,-0.00312160486688933,2.02694240727325,-0.000441161196787106,0
0.42,0.000791973736145919,0.000455151343773905,-0.0393319494639726,-0.0227762496517277,-0.000911489917216813,5.97601480604395e-05,0.0453432596790728,-0.00312227457320729,2.02693950421331,-0.000426846037820107,0
0.43,0.000791875757052521,0.000455150707346046,-0.0393306891676882,-0.0227762312400125,-0.000911401507905678,5.98052873278398e-05,0.0453421113837231,-0.0031229401483023,2.02693670421519,-0.000413039082237678,0
0.44,0.000791781487648493,0.000455150093478631,-0.0393294838701731,-0.022776193941502,-0.000911316444648244,5.98487217085729e-05,0.0453410044518884,-0.00312356002806952,2.02693400362006,-0.000399722288279314,0
0.45,0.000791690260640863,0.000455149501372739,-0.0393283048314979,-0.0227761740588906,-0.000911234127837254,5.98907476838404e-05,0.0453399290621262,-0.00312417962375185,2.02693139889896,-0.000386878254687372,0
0.46,0.000791602568701414,0.000455148930258285,-0.0393271811727116,-0.0227761367490877,-0.000911154999254299,5.99311506967474e-05,0.0453388960000777,-0.00312475498216439,2.02692888664838,-0.000374490197966047,0
0.47,0.000791517802745941,0.000455148379391885,-0.0393260867678067,-0.0227761183058734,-0.000911078511584105,5.99702014046453e-05,0.0453378977875425,-0.00312533034390849,2.02692646358529,-0.000362541930451691,0
0.48,0.000791436280817471,0.00045514784805636,-0.039325041619569,-0.0227760809848989,-0.000911004949868298,6.00077619978036e-05,0.0453369357470994,-0.00312586315677606,2.02692412654337,-0.000351017839159414,0
0.49,0.000791357335625109,0.000455147335560774,-0.0393240163953918,-0.0227760610721585,-0.000910933714567823,6.00441286006429e-05,0.0453359995188019,-0.003126399056252,2.02692187246907,-0.000339902865382557,0
0.5,0.000791281518046303,0.000455146841237168,-0.0393230424891997,-0.0227760237404399,-0.000910865299787597,6.00790606841122e-05,0.0453351019375687,-0.00312689308143751,2.02691969841705,-0.000329182485014389,0
0.51,4.22648438764208,-0.0378269398946701,4.08874573369662,1.89654565077648,-0.299612654944076,4.21602104043154,1.63957752285065,4.19839405330948,0.0619962553405435,19.0849178198211,603.351500889098
0.52,4.11870147084155,-0.00542655701536671,3.88081261381482,0.278750501265025,-1.14031062063752,3.95770425144359,-0.80157764306693,3.80734575099701,0.279208790055478,40.0941047993545,603.351500889098
0.53,3.97613002511203,-0.0589419416321149,5.4664311964105,2.96066099859992,-2.45015010494325,3.13206778220512,-0.945246255144554,6.14441967079527,0.649018655092294,60.7717340118117,603.351500889098
0.54,3.89899049895662,0.00515310369539823,3.68857233558192,-0.243139843323915,-3.58861954818241,1.52445505143142,-3.49162002600017,1.21378435163188,1.17041450845722,81.5619783695797,603.351500889098
0.55,3.7965183101806,0.0158114510525766,2.81996119921452,-0.775110996089647,-3.65703465685597,-1.01975428416617,-2.50185191615276,-1.51450163782587,1.84690052305636,103.174329234607,603.351500889098
0.56,3.60493333175961,-0.0281302997497179,6.53343320359185,1.42465892340253,-1.577553640753,-3.24155212062716,-4.18086886705225,-5.21878702289528,2.68086580388045,123.885000342851,603.351500889098
0.57,3.5531946708895,-0.0299804603250844,4.04038106079454,1.52156558629838,1.77906327507867,-3.07587793329079,0.669840479139996,-4.26510898833081,-2.62565031829052,142.336475985306,603.351500889098
0.58,3.45015347589346,0.0498646807667169,4.28065000388192,-2.46990695117101,3.44779223261573,0.137019029051842,4.14063596908252,2.69806200349756,-1.5166242550335,160.369497806419,603.351500889098
0.59,3.37017780883216,0.0127246876186238,2.85893511320933,-0.614789828603283,0.913377876923171,3.24407170616912,0.172014526909335,2.91922721236759,-0.27067249380094,179.551688042195,603.351500889098
0.6,3.25319714665313,0.0282502529859106,3.92187096199223,-1.38698493122197,-2.90019994364288,1.47408617071041,-4.12916999627039,0.504731793980824,1.10923782813099,196.595078997583,603.351500889098
0.61,3.14538673880008,-0.029027858664302,4.64671885960975,1.48381390587361,-1.56586898784466,-2.72806793648992,-3.63029170505132,-3.25801810979504,2.61129336046592,213.511755036662,603.351500889098
0.62,3.01735172993103,0.0407547577653708,6.16448907487379,-2.01275312567758,2.66925562776132,-1.40753216874884,6.40585391596077,-1.00853175782088,-2.042548554664,230.474956710795,603.351500889098
0.63,2.98373130590464,0.0154784051770449,3.53118635748529,-0.740553088789274,0.887073520780714,2.84885813188231,0.324114594182863,3.59341699478967,-0.296675377962807,246.014423924707,603.351500889098
0.64,2.89522592122564,0.00515484434660562,3.31503395986461,-0.229098101282938,-2.89518864223527,0.0155702674665011,-3.31583667971006,-0.217170920144601,1.56719886005986,262.06241158916,603.351500889098
0.65,2.78776487574151,-0.00982272823351296,4.56151934983703,0.527502608430739,1.09443114364736,-2.56397152094612,1.29009399128117,-4.40696894412692,-2.7416796159361,276.808932517751,603.351500889098
0.66,2.75029533282077,-0.00694576623591825,2.11880243014432,0.380016053927162,1.67287870288023,2.18303676259794,1.59406021079797,1.4466195020041,-0.656382297961073,291.615620750469,603.351500889098
0.67,2.64730198566227,-0.0080517598590808,3.18176654306481,0.430203358549062,-2.64568787167052,0.0927810315946099,-3.16307295907119,0.551074150968907,1.53270043051965,306.005446059871,603.351500889098
0.68,2.52478831747936,-0.00222607473091874,5.41532400640606,0.147915864176228,1.59754102524871,-1.9551019605474,3.30818306492877,-4.28993449905138,-2.4573848471236,319.37607761633,603.351500889098
0.69,2.48219238370389,-0.0443387236650399,3.54883282209614,2.24935992338105,0.117716043607385,2.47979593620347,2.47612396511996,3.39450210980319,-0.0652952713308146,333.056022117028,603.351500889098
0.7,2.36730442665058,-0.0130739659102015,5.58565329361631,0.680802092841836,-1.54978843315374,-1.78954099966638,-4.19210055627661,-3.75357258250988,2.42234545917995,345.960419240663,603.351500889098
0.71,2.24866378685615,0.00458976091949492,7.9193131814987,-0.192508821159312,2.1550771884577,0.641990813028351,7.52973735489826,2.46082024518918,-1.27922899416238,358.179010106501,603.351500889098
0.72,2.26009649007853,0.00675347387005532,3.7099606183353,-0.304739330974322,-2.22310723353749,0.407278752291244,-3.70522677932785,0.357726659886079,1.39259128255833,370.455160458417,603.351500889098
0.73,2.13708586115902,-0.0285186994657165,6.35502734702213,1.45389332890187,1.82457529641326,-1.11304729544771,4.60694073434306,-4.61262132235838,-2.13190272962196,382.346131832041,603.351500889098
0.74,2.06602069810664,0.0504778311503603,6.60013227092247,-2.50114837746675,-1.31084396494798,1.59771012264495,-6.20407132090002,3.36555912813349,0.711515206770253,393.651715218863,603.351500889098
0.75,2.03172521270089,-0.02295468153326,5.06320643522189,1.18734375800839,0.986739783664492,-1.77616971505049,1.36433173493237,-5.01841045774559,-2.6458008991158,404.48739586655,603.351500889098
0.76,1.98847961274763,0.0762185227336468,3.99746036823036,-3.77784560820939,-0.628667080008967,1.88802492992907,-4.9432497502041,2.41165684585234,0.359740258283935,415.179780815318,603.351500889098
0.77,1.93443095950507,-0.0268943389530957,3.53038565592044,1.37843378585646,0.598823954127136,-1.83960765233323,-0.270552911100648,-3.78027825745861,-2.84079510116058,425.658311542154,603.351500889098
0.78,1.86121840505305,0.00158161646379817,4.13977906962671,-0.0511193247424168,-0.577626421079668,1.76931743067476,-1.33669935304909,3.91836940196297,0.316409314688049,435.737589187216,603.351500889098
0.79,1.80399544960496,0.0308559356436603,4.0449210910408,-1.51942918987656,0.681040149748015,-1.67078903078487,2.98765559475709,-3.1215325952026,-2.73743559587689,445.472456188367,603.351500889098
0.8,1.74178219904826,0.0106151654069984,4.29692713955669,-0.50873039804958,-0.918892728009417,1.47971418357378,-2.71957971126448,3.36545326139543,0.561807320618287,454.848667763327,603.351500889098
0.81,1.67281133526007,-0.00175110799512951,4.95640666156557,0.108724833307338,1.18629787376882,-1.17940586078133,3.43450771950419,-3.5751845838859,-2.35432799997813,463.942628230659,603.351500889098
0.82,1.60161676457969,-0.0305164084309034,5.80554388870612,1.54744869985469,-1.42580737411517,0.730192333351321,-4.38450261686554,4.10792820349555,1.07844423196723,472.714316537832,603.351500889098
0.83,1.532599038385,0.0564067224365835,6.6097557871611,-2.80040339071697,1.51037058502664,-0.266124457126663,6.93143859264063,1.86716088034772,-1.70841626045233,481.212621395441,603.351500889098
0.84,1.49285723480545,0.00887442074726921,6.02992370818004,-0.417965805570262,-1.43783658726133,-0.401655856657507,-5.68299264815752,-2.05870588042228,1.84914425340197,489.386426689317,603.351500889098
0.85,1.49326943875288,0.0156324772017812,3.49418697216937,-0.754684428248504,1.09961881505268,1.01041400061507,2.03161576582976,2.94133108689771,-0.817181266923237,497.359103536824,603.351500889098
0.86,1.43644398862613,-0.0079556657161185,3.90530812544622,0.423030462490803,-0.395753438669858,-1.38087430306242,-1.5027143327623,-3.62935751352525,2.85693936768753,505.022612693269,603.351500889098
0.87,1.31701634057994,-0.0148630723800528,7.51001885507911,0.761522550414823,-0.407164207612856,1.25258543034563,-1.51404686230286,7.39513095875826,0.303000357465849,512.435266741971,603.351500889098
0.88,1.30892579410223,0.0289543871549532,5.61444420341808,-1.43367409723384,1.04311961164881,-0.791218406506897,5.38809733392105,-2.13209105119059,-2.19760557263699,519.602618785576,603.351500889098
0.89,1.27628011070129,0.0240102099901746,4.98956528309756,-1.18707777144433,-1.27509281891007,-0.0600476004469983,-4.90061084295059,-1.5129205913414,1.6366647193349,526.56918500972,603.351500889098
0.9,1.28328416407613,0.0143712643705503,2.45547638237656,-0.703974761730438,0.896500113659307,0.918320382664476,1.18629178917142,2.26222379982772,-0.762177018063458,533.247212631642,603.351500889098
0.91,1.19704256677207,0.0386201692331917,4.64027504003057,-1.91784778173898,-0.00442890797643883,-1.197657216782,2.04954567391626,-4.58362903075532,-3.11303881282317,539.723452757438,603.351500889098
0.92,1.14466761004697,-0.0174532934051207,5.19299351696215,0.889982874035621,-0.883294663939238,0.728257572290049,-3.37937194484252,4.04216482119408,0.866060290910242,545.957003341242,603.351500889098
0.93,1.11974484102915,0.0516046606742723,4.44081370611004,-2.56271418207436,1.11122096982122,0.147239621856012,3.91758885613129,3.30769223261412,-1.39300764346428,551.9594740117,603.351500889098
0.94,1.03932701793707,0.0251648536629055,6.51879427447338,-1.23685752862806,-0.490459728116246,-0.916669610694047,-1.83092332399494,-6.37747717523804,2.67451137446454,557.761424236448,603.351500889098
0.95,1.06399233665132,-0.0273538008142068,3.40292191171437,1.39624693276633,-0.534766284131148,0.920246132416912,-0.408730939564137,3.65545100548868,0.500712668811898,563.346089421047,603.351500889098
0.96,0.969154029333388,-0.00535806439103642,6.3067139126405,0.295647176984024,0.967633322838707,-0.0545343374332361,6.27639614914567,-0.684762008395097,-1.63262378724673,568.775570398407,603.351500889098
0.97,0.972524643701412,-0.00482739225458373,4.36005644273661,0.257029781432387,-0.533444869264378,-0.813181442101361,-2.62380731118248,-3.49167462490101,2.55604918543144,573.98486135861,603.351500889098
