t,iq,id,vq,vd,ia,ib,va,vb,theta_e,omega,r
0,0,0,0,0,0,0,0,0,0,0,0
0.01,0.00146759326768068,0.000835709096851492,-0.072749016460696,-0.0418597323292337,-0.00130421905750738,-0.00107296427896578,0.0650553964373156,0.0530325558601262,2.7768658196498,-0.00108689795102217,0
0.02,0.00163007825826822,0.000929341497956754,-0.080924803603746,-0.0465497015146657,-0.00144965936057376,-0.00119135153762612,0.0723535901457918,0.0589970892707776,2.77685785668724,-0.00114994960756102,0
0.03,0.00167667361046642,0.000956106071455569,-0.0832545718643148,-0.0478903001209864,-0.00149129376250532,-0.00122532286758284,0.0744375199334894,0.060694812036449,2.77684985003617,-0.00112257624013689,0
0.04,0.00164951675929921,0.000941448901616731,-0.0819442372894045,-0.0471561370763915,-0.00146792248525372,-0.00120517017505864,0.0732846800319132,0.0597320262633854,2.77684257097091,-0.00104365596629561,0
0.05,0.00167500570422497,0.00095622165061604,-0.0832297246944868,-0.0478960794166083,-0.00149082444663929,-0.0012237019341309,0.0744349316484445,0.0606684633618943,2.77683541404714,-0.00100662595626535,0
0.06,0.00167440552470544,0.000956371896752011,-0.0832270750564088,-0.0479036234015313,-0.00149075900147228,-0.0012230775386665,0.0744414453470628,0.0606627923201785,2.77682863537145,-0.000952321741342062,0
0.07,0.00172054318096598,0.000983033466438369,-0.0855276054607656,-0.0492390706264243,-0.00153213304971745,-0.00125665904352369,0.0765100914128843,0.0623350887061089,2.77682229763619,-0.000937847508725409,0
0.08,0.0016732929450432,0.000956644481714888,-0.0832215609226621,-0.0479172596275879,-0.00149063194183766,-0.00122192240273275,0.0744529707780361,0.0606518517025402,2.77681621357814,-0.000852800098054615,0
0.09,0.00167202197796603,0.000956360938144142,-0.0831814600002921,-0.0479030648128135,-0.00148992058347322,-0.0012208277494193,0.0744257486322872,0.0606190304010581,2.77681053350656,-0.000806699859239512,0
0.1,0.0016713084155361,0.000956353379477213,-0.0831675521710669,-0.047902678543587,-0.00148966549471231,-0.00122015585895525,0.0744207507138367,0.0606057770263392,2.77680517934909,-0.000763621269468642,0
0.11,0.00167064141931707,0.000956348996171003,-0.0831547212355954,-0.0479024408133003,-0.00148942960402978,-0.001219526797186,0.0744162570283644,0.0605934995649676,2.77680013182559,-0.000723014017489103,0
0.12,0.00167001238328939,0.000956344892153747,-0.0831426122521144,-0.0479022430120119,-0.00148920715827763,-0.00121893353092904,0.0744120405738842,0.0605819038601289,2.77679537336871,-0.000684732348426011,0
0.13,0.00174849343997625,0.00100125959485736,-0.0870319081274616,-0.0501519778085934,-0.0015591712549649,-0.00127621905785218,0.0779015800930735,0.0634122837423714,2.77679062433506,-0.000708015925043576,0
0.14,0.001875103844452,0.00107477371737684,-0.0934367961100361,-0.0538342136369336,-0.00167302385504974,-0.001368263187942,0.0836268404114732,0.0680816347336743,2.7767862113197,-0.000771377558158612,0
0.15,0.00167055446500906,0.000957584212001942,-0.0832224839280906,-0.0479643423572857,-0.00149057461703521,-0.00121897787292774,0.0744993592321785,0.0606333690546965,2.77678200329804,-0.00057896565237834,0
0.16,0.0016677783316901,0.000956343356120511,-0.0831003680549269,-0.04790219275655,-0.00148842950270212,-0.00121682159495005,0.074397957435554,0.0605411857429922,2.77677828028193,-0.000547238786967905,0
0.17,0.00166728935142894,0.000956327258145099,-0.0830901884383146,-0.0479013802260075,-0.0014882442736549,-0.00121636531847675,0.0743937788252957,0.0605317050343385,2.77677477321118,-0.000519004609363752,0
0.18,0.00166685206019636,0.000956324266351896,-0.0830817587440455,-0.0479012137285299,-0.00148808948253798,-0.0012159529534296,0.0743908158492221,0.0605236435614811,2.77677146701755,-0.000492406136106184,0
0.19,0.0016664399234971,0.000956321574276405,-0.0830738162955609,-0.0479010957068858,-0.00148794371331351,-0.00121556426323841,0.0743880604900099,0.0605160340766268,2.77676835016658,-0.000467331140073386,0
0.2,0.00166605130268947,0.000956319037461062,-0.0830663234353456,-0.0479009776788617,-0.0014878062600006,-0.001215197752346,0.0743854546850958,0.060508857888311,2.77676541181452,-0.000443692165598652,0
0.21,0.00166568526645089,0.000956316645699584,-0.0830592752507401,-0.047900859642017,-0.00148767679358584,-0.00121485253901033,0.0743829973054329,0.0605021096448908,2.77676264173895,-0.000421406970897202,0
0.22,0.00166534006854813,0.000956314390698159,-0.0830526236005099,-0.0479007386862527,-0.00148755469533137,-0.00121452698041908,0.0743806690458682,0.0604957446925457,2.77676003030271,-0.000400398026383395,0
0.23,0.00166501477766534,0.000956312264647313,-0.0830463588557224,-0.0479006206306827,-0.00148743963699088,-0.00121422019570887,0.0743784724624462,0.0604897512819415,2.77675756842084,-0.000380592242531969,0
0.24,0.00166470811323065,0.000956310260183927,-0.0830404518510387,-0.0479005025644207,-0.00148733116545291,-0.00121393097837623,0.0743763949531392,0.060484102566901,2.77675524752853,-0.000361920715578628,0
0.25,0.00166441880350289,0.000956308370364062,-0.083034871868574,-0.0479004241693902,-0.00148722883051667,-0.00121365813076104,0.0743744631209623,0.0604787550905822,2.77675305955148,-0.000344318487804159,0
0.26,0.00167903875331289,0.000964692372763854,-0.0837640112354349,-0.0483203794184374,-0.00150027990350897,-0.00122432133050208,0.0750270587981441,0.061009909797439,2.77675101178056,-0.000339418407007841,0
0.27,0.00161616728596257,0.000929017137761147,-0.0806714124632546,-0.0465334533252616,-0.00144452255803835,-0.00117831409980016,0.0722544229448687,0.0587582967085915,2.77674899136804,-0.000274503486832519,0
0.28,0.00159328633118117,0.000915587120286981,-0.0794195209265025,-0.0458607599803001,-0.00142381467216573,-0.00116172840513166,0.0711794351719314,0.0578286920029381,2.77674713127487,-0.00024194526816495,0
0.29,0.00166263068146381,0.000955871813900629,-0.082976726615642,-0.0478785683323395,-0.00148619217940032,-0.00121213221780622,0.0743337569250667,0.0604316725468242,2.77674549225911,-0.000282827517398636,0
0.3,0.00165880803236839,0.0009538772922277,-0.0827933048280608,-0.0477786394611322,-0.00148296654476298,-0.00120927093903363,0.0741750367548334,0.0602958840678879,2.77674421019723,-0.000269673714288539,0
0.31,0.00166299424676901,0.000956273790803826,-0.0830059078197057,-0.0478987066349059,-0.0014867008540454,-0.00121232421337933,0.0743631529714196,0.0604515368739249,2.77674265962963,-0.000260612661625913,0
0.32,0.00166284952657064,0.000956297847675572,-0.0830045906914205,-0.0478998938772177,-0.00148667346822801,-0.00121217825436362,0.0743638807839532,0.0604497737303372,2.77674119260863,-0.000248848723339465,0
0.33,0.00166266709494943,0.000956296919968016,-0.0830010796681801,-0.0478998694939939,-0.00148660918434512,-0.00121200610592052,0.0743626888369954,0.0604463996657983,2.77673980954364,-0.00023772242108507,0
0.34,0.00166249501543851,0.000956295796015375,-0.0829977643797731,-0.04789979089691,-0.00148654831444491,-0.00121184381611476,0.074361511288859,0.0604432336895118,2.77673850568469,-0.000227232906880197,0
0.35,0.0016623322579856,0.000956294733749223,-0.082994611415588,-0.0478997519144356,-0.00148649073751538,-0.00121169032389344,0.0743604241460623,0.0604402107731818,2.77673727649657,-0.000217344111889617,0
0.36,0.00166217904658457,0.000956293732248183,-0.0829916493953025,-0.0478997099955311,-0.00148643653786784,-0.00121154583245266,0.0743593981300731,0.0604373725168631,2.77673611770276,-0.000208021638012383,0
0.37,0.00166203513957844,0.00095629278806417,-0.0829888826085147,-0.0478996313366743,-0.00148638563099894,-0.00121141011125752,0.0743584034379475,0.060434734689238,2.77673502527205,-0.00019923305266846,0
0.38,0.00166189892481733,0.000956291897919932,-0.0829862459084269,-0.0478995922847559,-0.00148633744326353,-0.00121128164977809,0.0743574883763369,0.0604322089070279,2.77673399540363,-0.000190947780610188,0
0.39,0.00166177039346708,0.000956291058722992,-0.0829837534363531,-0.0478995532114298,-0.00148629197300591,-0.00121116043552267,0.0743566211886574,0.0604298222539712,2.77673302451487,-0.00018313699760194,0
0.4,0.00166164954552768,0.000956290267560255,-0.0829814189212716,-0.0478995141162436,-0.00148624922163787,-0.00121104646449409,0.074355806978182,0.0604275873040049,2.77673210922784,-0.000175773530142027,0
0.41,0.00166153533325694,0.000956289521682855,-0.0829792029531706,-0.047899472091729,-0.00148620881663066,-0.00121093875415356,0.0743550291597332,0.0604254680417539,2.7767312463585,-0.000168831760927424,0
0.42,0.00166142787307875,0.000956288818500618,-0.0829771235493782,-0.0478994329582102,-0.00148617080077491,-0.00121083740971129,0.0743542997814676,0.060423478998271,2.77673043290486,-0.000162287539731353,0
0.43,0.00166132612608775,0.000956288155570072,-0.0829751402778969,-0.047899433415772,-0.00148613480454108,-0.00121074145730498,0.0743536388721926,0.0604215690970718,2.77672966603703,-0.000156118099387351,0
0.44,0.0016612306566873,0.000956287530588787,-0.0829732922278678,-0.0478993942449496,-0.00148610103042571,-0.00121065142103125,0.0743529865367866,0.0604198029227561,2.77672894308683,-0.000150301976578226,0
0.45,0.0016611406588066,0.000956286941385073,-0.0829715493270872,-0.0478993550581375,-0.00148606919184479,-0.00121056654490937,0.0743523692020873,0.0604181380610102,2.77672826153936,-0.000144818937171142,0
0.46,0.00166105589961498,0.000956286385911466,-0.0829699095612394,-0.0478993158557293,-0.00148603920669737,-0.00121048660863456,0.074351786293367,0.06041657245353,2.77672761902355,-0.000139649905821185,0
0.47,0.00166097557304315,0.000956285862237854,-0.082968341735564,-0.0478993162394764,-0.00148601078828037,-0.0012104108565592,0.0743512638098577,0.0604150626618532,2.77672701330388,-0.000134776899607805,0
0.48,0.00166090024349221,0.000956285368544074,-0.0829668826265233,-0.0478992770069815,-0.00148598413885158,-0.0012103398134431,0.0743507410132293,0.0604136711460125,2.7767264422733,-0.000130182965475037,0
0.49,0.00166082922130334,0.000956284903114403,-0.0829655058462707,-0.0478992348512843,-0.0014859590131408,-0.0012102728326808,0.0743502428855996,0.0604123600144739,2.776725903945,-0.000125852121250307,0
0.5,0.00166076193324752,0.000956284464331699,-0.0829641903551768,-0.0478992351888669,-0.00148593520737406,-0.00121020937656772,0.0743498044596459,0.0604110932675516,2.77672539644636,-0.000121769300043476,0
0.51,4.56298211853623,-0.0026281829003084,11.852238122782,0.136868141171112,-0.221911447109771,4.55758357367897,-0.432880981152058,11.845121167103,0.0480761904096418,14.732196618942,1332.0378327146
0.52,4.6609241937486,0.0130131327001011,6.95676868358067,-0.639836927380349,-0.988240498755333,4.55497139377554,-2.1188991910022,6.65704799658666,0.216439484422717,31.2302844233796,1332.0378327146
0.53,4.59669658812267,0.0144374281137014,10.1698247904277,-0.703310929046508,-2.21836613356127,4.02600045455258,-5.55080580974185,8.55035305665504,0.506759056782654,48.0627040830191,1332.0378327146
0.54,4.55139663307138,0.0385118613396058,12.4365635047218,-1.90176162414365,-3.60855340074989,2.77399293959696,-11.0699461480503,5.97838618368791,0.923878529414247,66.0078433521753,1332.0378327146
0.55,4.47661644243277,0.0142394811885542,16.1774967682736,-0.690894760307026,-4.45514678063897,0.438137761949567,-16.1702154481189,0.844316065665253,1.47594821353916,84.2862934644553,1332.0378327146
0.56,4.58523192928891,-0.0494665317446088,10.7485865004587,2.51478576178215,-3.79690289981664,-2.57105564943611,-10.3520594818605,-3.83290016430484,2.15523064295776,100.897889487305,1332.0378327146
0.57,4.47064520998445,-0.0431797146784984,16.479998317363,2.20875494948348,-0.77906063087604,-4.4024535902989,-5.19943253190582,-15.7935063970391,2.95678712833098,118.200466502196,1332.0378327146
0.58,4.46157540684237,0.0270205234323564,16.9356993973523,-1.3109267926489,3.01326360926227,-3.29038411750405,12.4746743515328,-11.5290477905321,-2.39407193005881,135.694356045106,1332.0378327146
0.59,4.49214057127869,0.0880531389830379,15.4096553353201,-4.34818001526437,4.39185582952262,0.947988734163547,13.9955850962124,7.77738675990722,-1.33860732730172,152.651351408048,1332.0378327146
0.6,4.52063753537512,-0.023541179740809,13.9870686034749,1.23907255022978,0.672166637883845,4.47044851489221,3.3760097456612,13.6299650439848,-0.154447263635493,169.913505321327,1332.0378327146
0.61,4.41178823185996,0.0471058740867387,19.4320634630948,-2.31204080158971,-4.01448475187664,1.83030230921054,-18.7027790163059,5.758183756115,1.15370331545747,187.353090661525,1332.0378327146
0.62,4.39303001684055,0.0639413451742804,20.3724591734558,-3.12016217845359,-2.36480475787619,-3.70276919097193,-8.06067486744637,-18.9683427182053,2.58778593325903,204.03885102834,1332.0378327146
0.63,4.51630913361887,0.0926791295138663,14.2109611223719,-4.55632399946516,3.7665115720909,-2.4937979446543,14.4445179386451,-3.75065406693674,-2.13511088676733,221.149412558006,1332.0378327146
0.64,4.47906409853693,-0.0104432605653536,16.0758235891428,0.604004135759393,1.93824534603941,4.03798578985244,7.53422771604928,14.2138079974358,-0.449853991847208,238.391508038815,1332.0378327146
0.65,4.38898359245949,0.133829137819084,20.5825824663187,-6.62673474282391,-4.26423813811477,1.04754967159341,-21.512699111733,-2.18176333789891,1.3603898131713,255.524717571107,1332.0378327146
0.66,4.3713647817095,0.0593287679118282,21.4663419307939,-2.89327880259739,0.610494589018767,-4.32893131318238,6.14503250941859,-20.7704952655807,-2.98791865559658,272.551643594509,1332.0378327146
0.67,4.47027188700242,0.00674879520534222,16.5238828647012,-0.250480786178648,3.58349737065725,2.67243762966574,13.0810255943061,10.0989214746783,-0.928503093009883,289.492830180168,1332.0378327146
0.68,4.47372592584274,0.0948717697862007,16.3540694358283,-4.65151045784232,-4.22349723771139,1.4782744654847,-16.9901919843785,0.652313563609978,1.25531412476474,306.384521135263,1332.0378327146
0.69,4.36086627952725,0.0514476651287921,22.0000025844873,-2.45942654741143,1.73818249443539,-3.9998153940155,11.2496338248466,-19.0655351738792,-2.71985073693258,323.218134298477,1332.0378327146
0.7,4.38621699154636,-0.0444301247607528,20.7354675315117,2.36189587901531,1.20225707031885,4.2184655349765,8.14974549920839,19.2124910980283,-0.287767067614142,340.120590737415,1332.0378327146
0.71,4.31626046340294,-0.0179885851024076,24.2364268160205,0.985482122944698,-3.29640068542136,-2.78642611570501,-19.2076965245945,-14.8135057984948,2.26838407116775,357.247406665524,1332.0378327146
0.72,4.28063147713869,0.100616780026539,26.02105060215,-4.92779935850025,4.18549987947521,0.903061647068731,24.1475470901876,10.8753965667675,-1.33479347353455,374.02699856235,1332.0378327146
0.73,4.28078477785586,0.0192785859833534,26.0165518379548,-0.812727163041321,-4.25646675026647,0.45604910050999,-25.963657863524,1.84660914229426,1.46856435146287,390.745024088521,1332.0378327146
0.74,4.36410025319509,-0.0143284995560897,21.8540896888696,0.825005140357594,4.15136994034313,-1.34599552163164,20.5094209486678,-7.59246481461186,-1.88761419579754,407.778440471431,1332.0378327146
0.75,4.34787652209094,0.139968264737145,22.6685958314382,-6.84409842234856,-3.93490491856694,1.85476269326316,-23.5226347600564,2.71892885689884,1.16250207500767,424.367252548149,1332.0378327146
0.76,4.24467351404809,0.0691941477854172,27.8321115743989,-3.34316303591299,3.92187800143898,-1.62508892457554,27.111643225381,-7.12474388270469,-1.94732468740553,441.325965390734,1332.0378327146
0.77,4.29263954714251,0.122072249250059,25.4372034637046,-6.00649324574344,-4.16047849321058,1.06398995449254,-26.1354504051149,-0.259833190425631,1.34885500020182,458.085341226875,1332.0378327146
0.78,4.27317200195244,0.144296804351834,26.4140734072589,-7.04980021432922,4.27458163347953,0.0936610096885897,25.9809541350741,8.50840638763773,-1.51513342841618,474.690250494706,1332.0378327146
0.79,4.27213988891587,0.124273636852892,26.4692246600862,-6.07255046995012,-3.89049860788867,-1.76936252625036,-21.0920266911599,-17.106201605722,2.02670815735296,491.510697779069,1332.0378327146
0.8,4.23218545044402,0.120152306402592,28.4705385171366,-5.88922292774919,2.46208772209144,3.44440913835893,11.0058555193462,26.9095829480087,-0.592212059834875,508.295811179457,1332.0378327146
0.81,4.20643725009135,0.0289356769022813,29.7616066643002,-1.32913565333668,0.193478269178421,-4.20208493152026,2.90062568129568,-29.6497251839287,-3.08870295622228,524.990590617609,1332.0378327146
0.82,4.20225123767575,0.0362074835246861,29.9745827615917,-1.69280229081768,-3.04854377780926,2.89250882128145,-23.0758811651359,19.2053351905098,0.82027198198606,541.653118550246,1332.0378327146
0.83,4.17068639359551,0.0949486849094798,31.5565580872573,-4.63302028182847,4.1435834577261,0.484103682435261,30.6096810742172,8.9626257191176,-1.43172967156153,558.303136119799,1332.0378327146
0.84,4.18722903313249,0.137078696822694,30.7332567786253,-6.73526057561054,-1.8333678982552,-3.76702000189508,-6.38859158864114,-30.8071859272449,2.72137592907825,574.92151706065,1332.0378327146
0.85,4.18599476778403,0.0546154694192009,30.7987309153263,-2.58534884357835,-2.69748719963177,3.20142122396255,-22.1060189291843,21.6002264279848,0.713223174887314,591.535629818264,1332.0378327146
0.86,4.27698309137381,0.119514337708909,26.2531050904358,-5.79384800910691,3.98946849271118,1.54628884315974,21.9601913168663,15.5094873857497,-1.17309510954642,608.089908414585,1332.0378327146
0.87,4.28119263524304,0.195338253249864,26.0465076725713,-9.54869434546887,-2.14061342197012,3.71275390928665,-22.0710590002599,16.8067391318945,0.568598892395277,624.621315181213,1332.0378327146
0.88,4.18603444552962,0.12030207092633,30.8083728965746,-5.88594619545642,3.73814964193855,1.88774845302661,24.287285244642,19.8476189653972,-1.07442936864315,641.317142205627,1332.0378327146
0.89,4.20650520789336,0.0543115077349761,29.788748168397,-2.53255541921923,2.13686673019466,-3.62373238268137,17.6258871335827,-24.1477008666621,-2.59588039258332,657.866184347003,1332.0378327146
0.9,4.11673636038065,0.188566205648971,34.2811569588266,-9.19528501223124,-3.22840979397233,-2.56133669730797,-19.8138949100315,-29.447590009814,2.28725679100704,674.356352120279,1332.0378327146
0.91,4.07649013370373,0.0740515181556338,36.2976115023441,-3.53652177939197,-3.40927560669161,2.23608928156784,-32.5937431351033,16.3606691646192,1.0084593609925,690.954747142129,1332.0378327146
0.92,4.03738490008502,0.124783257082816,38.2569627282928,-5.99419761369513,0.724272992464351,3.97384905665395,-0.233699327061014,38.7230033294235,-0.149383851702302,707.383211876128,1332.0378327146
0.93,4.0878541078604,0.0837214202070089,35.7377131569744,-3.97789631574314,3.82076196868748,1.45579478704383,31.6359720715811,17.0930708731674,-1.18627881205838,723.878880608124,1332.0378327146
0.94,4.09587802236955,-0.0118349221618701,35.3406871757222,0.7507670847714,3.53642476153538,-2.06641156247053,30.08111398029,-18.5648701307775,-2.10249774207889,740.43116216003,1332.0378327146
0.95,4.08632371032411,0.160088591957346,35.8226072012442,-7.74332337758236,0.830462300195468,-4.00424801814098,16.1567862214731,-32.8964512161732,-2.89793977236365,756.793516595891,1332.0378327146
0.96,4.08285249819871,0.115721356030049,36.0003211944703,-5.52791696184295,-1.81120565963814,-3.66095752676587,-10.0210211907585,-35.0165693113478,2.71050118085765,773.24390641905,1332.0378327146
0.97,4.1425850434055,0.0662336783386168,33.0179790880655,-3.07159713566531,-3.48931016980205,-2.23385592214655,-25.8221589437802,-20.8047532911571,2.15623842558273,789.6842968855,1332.0378327146
0.98,4.11846693800229,0.190282269139594,34.2281910075745,-9.30492215460029,-4.10005943740754,-0.433001005878971,-32.4334364854391,-14.3604607760044,1.72218415721459,806.094583243287,1332.0378327146
0.99,4.01877737613064,0.141954719501213,39.2169318767655,-6.89420409883246,-3.94286091158692,0.790297774998839,-39.8156721093407,-0.458312627684569,1.40828816753679,822.50704231153,1332.0378327146
