t,iq,id,vq,vd,ia,ib,va,vb,theta_e,omega,r
0,0,0,0,0,0,0,0,0,0,0,0
0.01,0.00118461333536817,0.00067301929640752,-0.0582140402761282,-0.0336884627118825,0.000676147961486574,0.00118283036055325,-0.0338422088199523,-0.0581247959768231,-0.00264307300155194,-0.00187663979695872,0
0.02,0.00132124268558549,0.000750211830877645,-0.0650710255007615,-0.0375524015779193,0.000753719902320996,0.00131924460743532,-0.0377251714929284,-0.0649710139971604,-0.00265713786133044,-0.00200073328158462,0
0.03,0.0013751097379398,0.000780991853177597,-0.0677480845163796,-0.0390931014827146,0.000784662579507323,0.00137301846397911,-0.0392739464362806,-0.0676434081821466,-0.00267143588434494,-0.00198681577701364,0
0.04,0.00134359672814009,0.000763816663981231,-0.0662524753208323,-0.0382333782920513,0.000767421054940165,0.00134154127349057,-0.0384111080076413,-0.0661495917098957,-0.00268469538014822,-0.00183970617260911,0
0.05,0.00137437981271079,0.00078168957308788,-0.067797903994398,-0.0391280362140055,0.000785394317808989,0.0013722660907472,-0.0393107885266728,-0.0676921037448929,-0.00269764840799541,-0.00179741890214742,0
0.06,0.00137514548404897,0.000782616031579527,-0.0678757029931819,-0.0391744139166003,0.000786339860604064,0.00137301951144576,-0.0393582161120902,-0.0677692894090072,-0.00271004597726108,-0.00170967103591778,0
0.07,0.00140971167818109,0.000802904524829598,-0.0696014808410374,-0.0401899525235358,0.000806738309273523,0.00140752122255492,-0.0403792353506809,-0.0694918396044002,-0.00272166499004912,-0.0016831929852186,0
0.08,0.00137537609039603,0.000783712062195745,-0.0679615778267215,-0.0392292691711687,0.000787467965337248,0.00137322911053902,-0.0394148580574274,-0.0678541125114343,-0.00273295037241631,-0.00154560717723674,0
0.09,0.001372699163844,0.000782706515571912,-0.0678653052632204,-0.0391789278371077,0.000786469593268456,0.00137054662919614,-0.0393649700020126,-0.0677575618043922,-0.00274352035514296,-0.00146530902362037,0
0.1,0.00137180374949068,0.000782649596952341,-0.0678542055334189,-0.0391760902855076,0.000786423930520784,0.00136964350114568,-0.0393627802514362,-0.0677460758236729,-0.00275353186740073,-0.00139195586434501,0
0.11,0.00137104559069693,0.000782642378699474,-0.0678481033263156,-0.0391757292886995,0.000786427613669825,0.00136887790294221,-0.0393630452198379,-0.0677396011303644,-0.00276302062521701,-0.00132258156148937,0
0.12,0.00137033201906096,0.000782637972913283,-0.0678425632245104,-0.0391754935738334,0.000786433541035818,0.00136815727335835,-0.0393634033726611,-0.0677337076834446,-0.0027720142653779,-0.00125683534004872,0
0.13,0.00143451011923879,0.000819503861133679,-0.0710054993865215,-0.0410208615135561,0.000823489935258208,0.00143222560622966,-0.041218162770013,-0.0708911495202918,-0.00278091316214791,-0.00129866779512527,0
0.14,0.00149373123285929,0.000854232796531369,-0.0740725831512494,-0.0427592491186086,0.00085839602244287,0.00149134266194708,-0.0429656976240012,-0.0739530241948826,-0.0027893602362088,-0.00133557823304421,0
0.15,0.00137517473548848,0.000786359751280059,-0.0681619222522212,-0.039361813063632,0.000790203654360146,0.00137296955399416,-0.0395523384884805,-0.0680515429131979,-0.00279745178447648,-0.00108218252037335,0
0.16,0.00136811851300706,0.000782817179536449,-0.0678408805149562,-0.0391844656185378,0.000786651223218425,0.00136591758727202,-0.0393745828653148,-0.0677307141482901,-0.00280467486753736,-0.00101869934425954,0
0.17,0.00136722094521593,0.000782629387664669,-0.0678192697785575,-0.0391750655899761,0.000786470226396931,0.00136501518470114,-0.0393655841507801,-0.0677088613236373,-0.00281149653224263,-0.000968244012916217,0
0.18,0.00136668832560447,0.000782616695151313,-0.0678143144425042,-0.0391744539194577,0.00078646485699561,0.00136447751890018,-0.0393653962137754,-0.067703653255397,-0.00281796091258939,-0.000920955507621027,0
0.19,0.00136620136574024,0.000782613284313822,-0.067810488580769,-0.0391742665258392,0.000786468431113146,0.0013639857519041,-0.03936561283679,-0.0676995867445588,-0.00282408792583583,-0.000876163754875975,0
0.2,0.00136574057497275,0.000782610500504154,-0.0678068974797806,-0.0391741349995979,0.000786472264414039,0.00136352040356341,-0.03936586430109,-0.067695767420337,-0.0028298952449562,-0.000833710722537193,0
0.21,0.00136530388217587,0.000782607884991346,-0.0678034946058216,-0.0391740063863389,0.000786475915941518,0.00136307939093036,-0.0393660986577269,-0.0676921482417917,-0.00283539955466137,-0.00079347285659365,0
0.22,0.00136489012319248,0.000782605406816764,-0.0678002749032622,-0.0391738777729198,0.000786479373772654,0.0013626615375057,-0.0393663140557651,-0.067688723539364,-0.00284061666494321,-0.000755334492131188,0
0.23,0.00136449801744969,0.000782603057691656,-0.067797224628764,-0.0391737462471052,0.000786482647108075,0.00136226555095926,-0.0393665085639962,-0.0676854789883065,-0.00284556156136243,-0.000719186078598329,0
0.24,0.00136412614360401,0.000782600830855016,-0.0677943203603325,-0.0391736501511636,0.000786485745123469,0.00136188999880185,-0.0393667214242464,-0.0676823904984962,-0.00285024844714559,-0.000684923785833543,0
0.25,0.00136377359469898,0.000782598719951575,-0.0677915618938219,-0.03917355403359,0.000786488677778902,0.00136153396351087,-0.0393669181001275,-0.0676794574366871,-0.00285469078447249,-0.000652449201467791,0
0.26,0.00137738103287573,0.0007905109386154,-0.0684695745965136,-0.0395696071872501,0.000794445427341256,0.00137511545579743,-0.0397651894004515,-0.0683561714136115,-0.002858849093778,-0.000645010293072254,0
0.27,0.00133425087213413,0.000765949530761436,-0.0663769846169664,-0.0383401693610557,0.00076976636539384,0.00133205248251437,-0.0385300502089023,-0.0662669442812545,-0.00286301408171091,-0.000544057701068128,0
0.28,0.0013310123298431,0.000764115720449127,-0.0660919910590659,-0.0382483698468415,0.000767928328941537,0.0013288162920588,-0.038437685308284,-0.0659820689750916,-0.00286680566547099,-0.000511500443786496,0
0.29,0.00136079008204853,0.000781627790503184,-0.0676965353939352,-0.0391249344670926,0.000785530391884453,0.0013585410018525,-0.0393190799474897,-0.0675839578115955,-0.00287026373883109,-0.000535726538133962,0
0.3,0.00135172492569219,0.000776779951517091,-0.0672630059757301,-0.0388822739997774,0.000780660341341765,0.00134948760619452,-0.0390753646214472,-0.0671510169988945,-0.00287307060043068,-0.000500641356596872,0
0.31,0.0013614787142104,0.00078228548251372,-0.0677497473545128,-0.0391578703696268,0.000786198237992744,0.0013592230118626,-0.0393525755073758,-0.0676368381832053,-0.00287628205915321,-0.000493652324425665,0
0.32,0.0013617844940466,0.00078257119218792,-0.0677746981332523,-0.0391721805347816,0.000786489015746628,0.00135952554487883,-0.0393671658967163,-0.0676616263783499,-0.00287936383275954,-0.000472030371657633,0
0.33,0.00136158328632749,0.000782584777405244,-0.0677743743739321,-0.0391728320166291,0.000786505994939146,0.00135932199987993,-0.0393680142214083,-0.0676611856698058,-0.00288228689115158,-0.00045071193928224,0
0.34,0.00136136505638741,0.000782584240664334,-0.0677727216386939,-0.0391728059732735,0.000786508594805953,0.00135910159325388,-0.0393681708756458,-0.0676594239411006,-0.00288505754708433,-0.000430460497863858,0
0.35,0.0013611568380975,0.000782583032393985,-0.0677710862738709,-0.0391727420734632,0.000786510354403078,0.00135889131386851,-0.039368279933779,-0.0676576853827423,-0.00288768364426547,-0.000411263225546962,0
0.36,0.00136095907282607,0.000782581850613478,-0.0677695140301654,-0.0391727105926174,0.000786511983433049,0.0013586915951508,-0.0393684123139753,-0.0676560152457606,-0.00289017271969148,-0.000393067474973917,0
0.37,0.00136077215853818,0.000782580728520462,-0.0677680485832793,-0.0391726466304462,0.00078651352611626,0.00135850282934576,-0.0393685037273516,-0.0676544571117751,-0.00289253192212046,-0.000375821119159956,0
0.38,0.00136059490672075,0.000782579664810791,-0.0677666533063819,-0.039172582641766,0.000786514987063121,0.00135832382261923,-0.0393685869823759,-0.0676529739936424,-0.00289476802804103,-0.000359474628525783,0
0.39,0.00136042659451876,0.00078257865653866,-0.0677653135817041,-0.039172548151274,0.000786516370087882,0.00135815384707608,-0.0393686919968057,-0.067651550935298,-0.00289688746024452,-0.000343981051071822,0
0.4,0.00136026738707428,0.000782577700822726,-0.0677640580759354,-0.039172484107414,0.000786517681171475,0.00135799306307783,-0.0393687602151269,-0.0676502165346733,-0.00289889630654008,-0.000329295884247471,0
0.41,0.00136011618792898,0.000782576794926001,-0.0677628513524021,-0.0391724524671078,0.000786518922339452,0.00135784036964037,-0.0393688538825001,-0.0676489349485557,-0.00290080033705694,-0.00031537694749854,0
0.42,0.00135997327862768,0.000782575936254335,-0.0677617258273138,-0.0391723883721632,0.000786520099333417,0.00135769604401362,-0.0393689086057208,-0.0676477385658237,-0.00290260502045147,-0.000302184261129261,0
0.43,0.00135983744629835,0.000782575122347491,-0.0677606382409774,-0.0391723537661309,0.000786521213295934,0.00135755886926052,-0.0393689865539087,-0.0676465837431697,-0.00290431554062214,-0.000289679931470936,0
0.44,0.00135970883172417,0.000782574350873778,-0.0677596121058445,-0.0391723220423267,0.000786522269048948,0.00135742898230601,-0.0393690615217006,-0.0676454938767012,-0.00290593681086884,-0.000277828042036151,0
0.45,0.00135958696923831,0.000782573619622738,-0.067758639747701,-0.039172290292126,0.000786523269418229,0.0013573059138292,-0.0393691308937462,-0.0676444611173775,-0.00290747348765537,-0.000266594550357352,0
0.46,0.00135947139317951,0.000782572926498731,-0.067757712763996,-0.0391722585175031,0.000786524217006492,0.0013571891947052,-0.0393691949466622,-0.067643476888921,-0.0029089299849275,-0.000255947190208037,0
0.47,0.00135936187071147,0.000782572269515185,-0.0677568334837337,-0.0391722238085467,0.000786525114882787,0.00135707858881384,-0.0393692510607629,-0.0676425433640982,-0.00291031048644681,-0.000245855378918424,0
0.48,0.00135925805259949,0.000782571646788847,-0.067755997756051,-0.0391721919873963,0.000786525965577708,0.00135697374380878,-0.0393693053146865,-0.0676416562190373,-0.00291161895720383,-0.000236290129534997,0
0.49,0.00135915970600732,0.000782571056534477,-0.0677552065898015,-0.0391721601442544,0.000786526771772566,0.00135687442390386,-0.039369355056172,-0.0676408163230963,-0.00291285915562498,-0.000227223967561854,0
0.5,0.00135906648168898,0.000782570497060017,-0.0677544544229463,-0.0391721282806011,0.000786527535631542,0.00135678027705764,-0.039369400511783,-0.0676400179740203,-0.00291403464400149,-0.000218630852042553,0
0.51,4.62698642244758,-0.00591522383988327,8.65169031281488,0.301059844820768,-0.31252082196257,4.61642384094303,-0.272927387896031,8.65262347152322,0.0663160489130958,20.3825579742109,2003.59570775853
0.52,4.72671895003374,-0.0276906059407526,3.66623394072478,1.39723640592192,-1.42108598054541,4.50812083224959,0.253303241522893,3.91527500311152,0.299509995975132,43.2734204744848,2003.59570775853
0.53,4.63575932273228,0.00369134180611197,8.21542892842075,-0.167247730676215,-2.98974039418312,3.5428421499826,-5.43110470735888,6.16638840319462,0.701727731340998,66.5628817984424,2003.59570775853
0.54,4.5832380074759,0.0159053455354299,10.8426934934675,-0.771976084221638,-4.38484117593424,1.3339758150056,-10.6062893152118,2.38045714725472,1.27893874256949,91.235988104026,2003.59570775853
0.55,4.71285140943352,-0.0185767012350873,4.36337891444356,0.954057326252971,-4.18852852960752,-2.160449549953,-4.31976699770205,-1.13530349173771,2.04306343320991,116.961687579855,2003.59570775853
0.56,4.66841150514806,0.0530355155965885,6.58673123100531,-2.62184407065769,-0.770622260404048,-4.60467372124053,1.57728577956058,-6.91167593351566,2.98713284057126,140.305913754879,2003.59570775853
0.57,4.68725654951174,-0.0261969593295286,5.64585170243975,1.35562411574573,3.85144258813138,-2.67160068721856,3.84210740622408,-4.35333996698757,-2.18284507013436,163.781928270378,2003.59570775853
0.58,4.58888200361441,-0.00505740918735875,10.5661631772631,0.292159493784812,3.55899617001453,2.89679303408197,8.38631287823049,6.43419907733547,-0.888717851132865,188.848448655851,2003.59570775853
0.59,4.6035924520284,-0.0501158759419793,9.83220683635991,2.5643673819296,-2.56308886577898,3.82441505743219,-3.23898040278112,9.63105795293886,0.579552792284914,211.860122853673,2003.59570775853
0.6,4.65798310261944,0.0772303217906256,7.11430202303739,-3.81542265801541,-3.74408555600108,-2.77211010896685,-3.32583508517955,-7.3559203584922,2.22470188930208,236.673046011333,2003.59570775853
0.61,4.54319329313818,0.119085087981892,12.8554527153509,-5.89383525972837,3.49156783310248,-2.90925086987002,13.7415121135193,-3.34227518607366,-2.23926309143689,260.120158445264,2003.59570775853
0.62,4.56674542375708,0.0497800838826048,11.6796514914114,-2.42281227517823,1.14479855522479,4.42120776373525,0.452341215072136,11.9197175179083,-0.242468649121689,283.959931559314,2003.59570775853
0.63,4.65074341210633,-0.0048821581308629,7.48158189052038,0.309899666164942,-4.3554982232728,-1.63066653482124,-7.11772512971578,-2.32553098570285,1.92798466387981,308.300667075298,2003.59570775853
0.64,4.55697687058796,0.0742786383111715,12.1717932403698,-3.65437515805066,4.09265898720516,-2.00541714604016,12.5702671582565,-1.86959676191112,-2.01011624812895,332.14805895884,2003.59570775853
0.65,4.50715858207227,0.0514279617486904,14.6646179674317,-2.48687267924064,-2.15603411006906,3.95836332786874,-9.331167126597,11.5829562681118,0.510157965910336,355.635699746606,2003.59570775853
0.66,4.60620982621274,0.048651244740606,9.71391969772059,-2.33597375500414,0.244561934374489,-4.59997014848669,2.94938128116707,-9.5455832370858,-3.07791497287053,379.327611628067,2003.59570775853
0.67,4.56022643898349,-0.0362152009711418,12.0151014720261,1.91720978588013,0.907719576551967,4.46911869230721,4.36073568017473,11.3588001599557,-0.208324846200775,403.08783390883,2003.59570775853
0.68,4.55406760554233,0.0367221142349363,12.3251107209091,-1.72798448779605,-1.40701108906586,-4.33142009793205,-2.06546072447513,-12.2730663107629,2.83557043536067,426.86143744835,2003.59570775853
0.69,4.5750188470619,0.0530882752354148,11.279764574245,-2.54094187284422,1.0957313050494,4.4421828781663,0.100208763514718,11.5619822113373,-0.230234015266604,450.618562589674,2003.59570775853
0.7,4.46411640750268,0.0849296565211597,16.8270437368139,-4.16292901557118,0.0015724922340625,-4.46492394935901,4.4881488688022,-16.7432344139596,-3.1222177959762,474.554989746773,2003.59570775853
0.71,4.4748304030745,0.101982795074118,16.2936091703744,-5.01009759303864,-1.82503417067974,4.08702311011601,-11.5077672720147,12.5759321762575,0.442762269120715,498.30707405925,2003.59570775853
0.72,4.48447686977525,0.113102097705412,15.8136205016682,-5.54730170731707,3.80839153673496,-2.37054398461199,16.4434570675874,-3.23355365955058,-2.10234639692879,521.714803845782,2003.59570775853
0.73,4.48727033307167,0.114988642652984,15.6762045355975,-5.61907525470602,-4.38816601740279,-0.944889641024653,-13.9122341360817,-9.15243883906252,1.80850471860622,545.168710626503,2003.59570775853
0.74,4.57255519501232,0.0432457037906582,11.414397325513,-2.05655786081841,1.78023272147334,4.21199509255722,2.44234279215557,11.3381152854069,-0.39042775519185,569.091723193361,2003.59570775853
0.75,4.42810047602407,0.062134528893513,18.6395824187522,-2.97531534430818,2.8900873087552,-3.35549249339311,14.5881771189675,-11.9779640377304,-2.41654360120373,592.384993048964,2003.59570775853
0.76,4.487294842526,-0.0146636983967667,15.6823586796717,0.848078148900509,-4.05029976109907,-1.93160603463853,-14.5396004961898,-5.93764496376408,2.01252957293131,616.085147382801,2003.59570775853
0.77,4.4421088277475,0.156596536540682,17.944196857666,-7.69196673417592,-1.29679415986586,4.25149129362235,-13.110363032555,14.4664762212832,0.331294988294843,639.406657010231,2003.59570775853
0.78,4.42447697388126,0.0716974686831278,18.8284139229722,-3.46797911355692,4.11514586182655,1.62687170831411,16.0682062023849,10.4090729378019,-1.17811243357591,663.110653125382,2003.59570775853
0.79,4.45146122462648,0.123611195349239,17.4817302145142,-6.01703014325368,2.50905043314083,-3.67905595036615,15.1218615302226,-10.6369566558605,-2.51530030122831,686.331395894553,2003.59570775853
0.8,4.46021064033547,0.0662648205538217,17.0468726336076,-3.15778308836632,-2.34461258040864,-3.79482039501138,-6.03291395117451,-16.2533507276911,2.60301051002289,709.880190922096,2003.59570775853
0.81,4.43266988001056,0.0468575697035241,18.4265530676454,-2.20409954982046,-4.43110692050336,-0.12668605313377,-18.3261564288072,-2.92367975796957,1.60994926502071,733.488509869033,2003.59570775853
0.82,4.48149769351426,0.0657896259350208,15.9878087588207,-3.15555403262079,-3.13293221791456,3.20513425144833,-13.5661621539629,9.02921893486904,0.788686070780163,756.955321091134,2003.59570775853
0.83,4.45367110043694,0.0644111012116348,17.3818744927389,-3.08281828580825,-0.554221567548607,4.4195218649635,-5.46497308504035,16.785928590472,0.139213299849648,780.277324622445,2003.59570775853
0.84,4.37578510946653,0.0939440966345684,21.2789744559389,-4.52699703026703,1.54267033057196,4.09591126230714,2.80121282799673,21.5740970309493,-0.338738990082635,803.582080059126,2003.59570775853
0.85,4.40064292351638,0.0908545969487262,20.0389481720053,-4.36488188060855,2.72016908026965,3.46043246904581,8.56967840045698,18.6325588630419,-0.645551123581129,826.915975852652,2003.59570775853
0.86,4.42925845875829,0.072009085613278,18.6110556589346,-3.45075646183912,3.1704657743276,3.09381036534401,10.6571539013311,15.6430234808437,-0.7813783049,850.294066085005,2003.59570775853
0.87,4.403728234963,0.01784333226035,19.8904290986585,-0.739357547181358,3.00247158785932,3.22153769433388,12.9592496516428,15.1074044024025,-0.746163895478866,873.700162279172,2003.59570775853
0.88,4.37041561111284,0.036681817476793,21.5590627444199,-1.66996203670191,2.27851296205566,3.72964567369832,9.6522743812352,19.3498206423525,-0.540016807033574,896.95018803189,2003.59570775853
0.89,4.36643570945081,0.102013434760066,21.761015597129,-4.91046583009887,0.799514223684115,4.29382632994926,-1.36448090505784,22.2664021868553,-0.16073381079535,920.113118344825,2003.59570775853
0.9,4.40537189816291,0.111388792200866,19.8172142711213,-5.3480337251405,-1.5567394883978,4.12265341611618,-12.4208790378114,16.3415179870424,0.386332975961675,943.294082885426,2003.59570775853
0.91,4.30928984362979,0.122771130081234,24.6244000308424,-5.98134488254496,-3.79286890493275,2.04919427502288,-24.6813289178558,5.74191312469209,1.10393193068636,966.720454616561,2003.59570775853
0.92,4.39249389133409,0.205560876773726,20.4673681817335,-10.0764776588606,-4.09331344204964,-1.6065624558675,-14.5661367129334,-17.5577966600677,1.99157125834987,989.761088666632,2003.59570775853
0.93,4.30984655917521,0.0770774011524387,24.6028360093135,-3.66833708029391,-0.474394125971668,-4.28435158485463,1.38272353249337,-24.8363506229986,3.0491968254829,1013.0204993217,2003.59570775853
0.94,4.43676154279817,0.110101480572875,18.2602593830276,-5.29119304450032,3.97619487073197,-1.97150949113666,18.7880128877729,-2.90591952718828,-2.00629027990921,1036.16616743162,2003.59570775853
0.95,4.35909186285495,0.137102558834227,22.1469725222096,-6.68262459051535,2.6057981579464,3.49718385854823,7.18623611344076,21.9887215144298,-0.60892454206447,1059.39301365357,2003.59570775853
0.96,4.37671398781167,0.142895185584904,21.2690647499875,-6.90300096603958,-3.49879043844614,2.63334574885403,-21.3709125288141,6.58092967308437,0.958242190483916,1082.40190172071,2003.59570775853
0.97,4.24823977842844,0.169349898252574,27.6960616440555,-8.27301164929415,-1.98711962473626,-3.75866681152345,-4.49701392452313,-28.5533083565342,2.69511017879207,1105.65499411565,2003.59570775853
