t,iq,id,vq,vd,ia,ib,va,vb,theta_e,omega,r
0,0,0,0,0,0,0,0,0,0,0,0
0.01,0.000871505050281611,0.000490669362717793,-0.0429607891153947,-0.0245535566160878,-0.000415351721703878,0.000909813400348589,0.0202591615013215,-0.0451450209788435,0.941045759758592,-0.00231253311449538,0
0.02,0.00100473713890099,0.000563688765963087,-0.0496054051791153,-0.0282075300754417,-0.000480003703834144,0.00104730042846618,0.0234762685138866,-0.0520117851318818,0.941028089965685,-0.00250328757728048,0
0.03,0.00105487321555606,0.000592085484659683,-0.0521036055586159,-0.0296285236041399,-0.000503777719976426,0.00109978667517734,0.0246573409468114,-0.0546319564046685,0.941010179220916,-0.00245926691274024,0
0.04,0.00102995295005182,0.000579143833680385,-0.0509143545003637,-0.0289809252058033,-0.000491242959907975,0.00107465855682226,0.0240767846687277,-0.0534085569921973,0.940993773817152,-0.00222090529692996,0
0.05,0.00105406688284774,0.00059367503236898,-0.0521303249335902,-0.0297080778562409,-0.000502154689410495,0.00110061242291631,0.0246303296940015,-0.0547127729763257,0.940978204994204,-0.00212822210519866,0
0.06,0.00105510573300549,0.000595174704770911,-0.0522115932032836,-0.0297831031922213,-0.000502094814003665,0.00110244357441586,0.0246510149071058,-0.0548216304448647,0.94096359876586,-0.0019809292820173,0
0.07,0.00107605150382351,0.000608159955608087,-0.0532673753948559,-0.0304329035658823,-0.000511358189494944,0.00112528137482255,0.0251207347704444,-0.055968951977858,0.940950259693773,-0.00190231769128102,0
0.08,0.00105461007970921,0.000596665765522054,-0.0522412024898739,-0.0298577175278706,-0.000500787272431123,0.0011033696405744,0.0246295642692976,-0.0549000099951417,0.940937549178345,-0.0017116746354122,0
0.09,0.00105090063102486,0.000595471794623535,-0.0520831492057567,-0.0297979929108663,-0.000498480149642856,0.00110022558363849,0.024536384123043,-0.0547589323021517,0.940925948748728,-0.00158201780829322,0
0.1,0.00104927290221349,0.000595344591328578,-0.0520254405187394,-0.0297916081075133,-0.000497227928904922,0.00109916931928645,0.0244929242375397,-0.0547200423710973,0.940915236432517,-0.0014673116598791,0
0.11,0.00104796847773579,0.000595328107281204,-0.051981929141875,-0.0297907964777104,-0.000496172655525022,0.00109839254438299,0.0244576990721877,-0.0546939984658425,0.940905330068877,-0.00136179827540663,0
0.12,0.00104678477652594,0.000595323333950446,-0.0519428007466185,-0.0297905582225467,-0.000495208870372068,0.00109769595745687,0.0244257191564826,-0.0546709808975703,0.940896167434391,-0.00126426933430052,0
0.13,0.00109221703841982,0.000621596574273442,-0.0541913564560774,-0.0311052932582128,-0.000516435253379007,0.00114569410805433,0.0254677758855994,-0.057058170095701,0.940887278157943,-0.00129986783409293,0
0.14,0.00112398328271487,0.000640641407412756,-0.0558389838904233,-0.0320583240620716,-0.000530876360012786,0.00117980088281619,0.0262372994519049,-0.0587990848657938,0.940878945636638,-0.00130298789800177,0
0.15,0.00105243931509294,0.000600006656024278,-0.0522721979463214,-0.030024920988128,-0.000496991795040953,0.0011048238116952,0.0245524678114024,-0.0550550168726955,0.940871137232815,-0.00102269031947341,0
0.16,0.00104369317112745,0.000595797126123888,-0.0518566658195307,-0.029814250969122,-0.000492396744592914,0.00109627327654644,0.0243404262639956,-0.0546401592242855,0.940864470929898,-0.000929689557740286,0
0.17,0.00104202453185344,0.000595359226404894,-0.051787385133457,-0.0297923549261454,-0.000491299650106251,0.00109493944456088,0.0242970083602108,-0.0545818015070066,0.94085836713554,-0.000862259737522502,0
0.18,0.00104119951682349,0.00059531199412691,-0.0517585513276379,-0.0297899756365716,-0.000490654638276691,0.00109441803261934,0.0242748027590759,-0.0545630299284343,0.940852728407251,-0.000801969588714837,0
0.19,0.00104051648011149,0.000595305353003609,-0.0517358068629539,-0.0297896433376026,-0.000490100910420468,0.00109401284558427,0.0242563351460568,-0.0545494891564037,0.940847513664862,-0.000746436897176646,0
0.2,0.00103989357914058,0.000595303045589926,-0.0517152018491675,-0.0297895452523544,-0.000489593654877711,0.00109364638943762,0.0242394798409121,-0.054537388328414,0.94084269039616,-0.000695098141066438,0
0.21,0.00103931869259998,0.000595301308034085,-0.0516962027958981,-0.0297894426570828,-0.000489125261121174,0.00109330849766567,0.0242239447488456,-0.0545262210146561,0.940838229142251,-0.000647615463809226,0
0.22,0.00103878694485653,0.000595299741596079,-0.0516786263188232,-0.0297893676694372,-0.000488691993841454,0.00109299599006766,0.0242095612587889,-0.0545159058257535,0.940834102723861,-0.000603696870467637,0
0.23,0.00103829524398634,0.000595298296628401,-0.0516623731224643,-0.029789295501553,-0.000488291355773419,0.00109270701815733,0.0241962623473822,-0.0545063648718223,0.940830286009213,-0.00056307457417224,0
0.24,0.00103784004623345,0.000595296960247969,-0.0516473169558311,-0.0297892450817889,-0.000487920465058296,0.00109243949590978,0.0241839335624433,-0.0544975396575505,0.940826755754132,-0.00052550114284436,0
0.25,0.00103741947512122,0.000595295723954081,-0.0516334111380872,-0.0297891727354738,-0.000487577786488256,0.00109219232209443,0.0241725617267949,-0.0544893679315785,0.940823490458358,-0.000490747743790184,0
0.26,0.00104673712299832,0.000600806558841869,-0.052096856473012,-0.0300649455141324,-0.000491857053267001,0.00110213600111861,0.0243844200656474,-0.0549853022288631,0.940820551071682,-0.00048656993503807,0
0.27,0.00102059514564756,0.000585924418903129,-0.0508198527138261,-0.0293202117312645,-0.000479497431738733,0.00107471116535667,0.0237911266653479,-0.0536312832012672,0.940817522299172,-0.000382343636501706,0
0.28,0.00101973094184703,0.000585585799570835,-0.0507148806138646,-0.0293032678908299,-0.000478995837336167,0.00107392965795431,0.0237161487993773,-0.0535558111775564,0.940814940031039,-0.000353373790334041,0
0.29,0.00103417332130721,0.000594286600102576,-0.0514963241657606,-0.0297386823642288,-0.000485537486608642,0.00108946976583236,0.0240909474444086,-0.0543680685933971,0.940812692306984,-0.000370635181282801,0
0.3,0.00102369328538519,0.000588778668499733,-0.0509849493881486,-0.0294630606674171,-0.000480312522801377,0.00107884574590774,0.0238400351231369,-0.0538441244086258,0.940811207715018,-0.000326072178648869,0
0.31,0.00103422088484626,0.000594616015641681,-0.0515058448722307,-0.0297551582312472,-0.000485378050382768,0.00108976565963348,0.024088744416527,-0.0543870746575332,0.940809205086203,-0.000334908859078752,0
0.32,0.00103517711013189,0.000595219761137597,-0.0515567669386861,-0.029785380049332,-0.00048579291347102,0.00109081779349763,0.0241119810501041,-0.0544415415991553,0.940807267740521,-0.000317660633682309,0
0.33,0.00103507989520548,0.000595281666373106,-0.051555696118384,-0.0297884625161802,-0.000485675924873342,0.00109081141714641,0.0241092017220447,-0.0544434449098768,0.940805466293134,-0.00029886434478425,0
0.34,0.00103488017839833,0.000595287514704712,-0.0515493153571776,-0.0297887647809588,-0.000485509283125789,0.00109069929164906,0.0241037770136448,-0.0544399701932829,0.940803798988399,-0.000281160934535166,0
0.35,0.00103468302218583,0.000595287600958184,-0.0515428007189453,-0.0297887731201749,-0.000485348241807853,0.00109058395753293,0.0240984241089975,-0.0544361760727281,0.940802256702553,-0.000264750691931117,0
0.36,0.00103449937009641,0.000595287129533969,-0.0515367088312793,-0.0297887523043672,-0.000485198567348427,0.00109047607198035,0.0240934362878039,-0.0544326046488365,0.940800830157767,-0.000249568127570705,0
0.37,0.00103432945500378,0.000595286636382932,-0.0515310691967502,-0.0297887256121267,-0.000485060122636985,0.00109037620955885,0.024088823200255,-0.054429292324829,0.940799510679519,-0.000235524629297699,0
0.38,0.00103417211277108,0.000595286174299774,-0.051525841089965,-0.0297887017788249,-0.0004849319270897,0.00109028373106955,0.024084546353279,-0.0544262223625051,0.940798290233032,-0.000222535100479941,0
0.39,0.00103402664490094,0.000595285746254617,-0.0515210058337922,-0.0297886778964696,-0.000484813406393549,0.00109019823107547,0.0240805919621384,-0.054423381590069,0.940797161385646,-0.000210520480750728,0
0.4,0.0010338922364861,0.000595285350246344,-0.0515165377764398,-0.0297886539680632,-0.000484703895718918,0.00109011923125824,0.0240769389220403,-0.0544207550649998,0.94079611726298,-0.000199407604328222,0
0.41,0.00103376783978306,0.000595284983930415,-0.0515123984589431,-0.0297886270875282,-0.000484602542869602,0.00109004611558736,0.0240735575217987,-0.0544183179361269,0.940795151505609,-0.000189128792424768,0
0.42,0.00103365258861499,0.000595284645088143,-0.0515085575062368,-0.0297886277219554,-0.000484508642814231,0.00108997837486186,0.0240704049468197,-0.0544160770694348,0.940794258232226,-0.00017962144531748,0
0.43,0.00103354623629211,0.00059528433166047,-0.0515050144782368,-0.0297886036732462,-0.000484421991475343,0.00108991586475705,0.0240675112968084,-0.0544139901604644,0.940793432002398,-0.000170827661582077,0
0.44,0.00103344780021085,0.000595284041742587,-0.0515017313051018,-0.0297885795911707,-0.000484341790496989,0.00108985800730747,0.0240648310134164,-0.0544120548203992,0.940792667784327,-0.000162693885514055,0
0.45,0.00103335664701428,0.000595283773571821,-0.0514986864766927,-0.029788580114023,-0.000484267524056033,0.00108980443023101,0.0240623319463714,-0.0544102783978992,0.940791960924042,-0.00015517058097069,0
0.46,0.00103327253001164,0.00059528352551799,-0.0514958771304103,-0.0297885530586003,-0.000484198989070671,0.00108975498898272,0.0240600422914059,-0.0544086171455507,0.940791307116284,-0.000148211929691507,0
0.47,0.00103319441533107,0.00059528329607268,-0.051493260324672,-0.0297885535200127,-0.000484135346681051,0.00108970907518864,0.0240578946743049,-0.0544070903790963,0.940790702379237,-0.000141775552252991,0
0.48,0.00103312252194258,0.000595283083840575,-0.0514908550519187,-0.0297885293208899,-0.000484076770616158,0.00108966681852829,0.0240559349808709,-0.0544056672165256,0.940790143030256,-0.00013582224997363,0
0.49,0.0010330558159635,0.000595282887530872,-0.0514886171020432,-0.0297885297281379,-0.000484022422511023,0.00108962761051181,0.0240540982769844,-0.054404361502789,0.940789625662705,-0.000130315766183194,0
0.5,0.0010329939994279,0.000595282705949353,-0.0514865384778946,-0.0297885301113981,-0.000483972058862578,0.00108959127616586,0.0240523924399666,-0.0544031487006702,0.940789147125376,-0.000125222565418137,0
0.51,4.71984989726151,0.0200598947108149,4.00834137247316,-0.99710019265677,-0.386960995555369,4.70400325679884,-1.33898691413959,3.90744461205007,0.0863273394334522,26.5919887943023,2317.59408263815
0.52,4.73453052068942,-0.0136063211085989,3.27527157863981,0.696029192788916,-1.8174941111821,4.37180506646078,-0.605144160290678,3.29327513219382,0.391119608106466,56.6096732771745,2317.59408263815
0.53,4.65187162407621,0.03951153995122,7.40918352350039,-1.95333265387557,-3.67362995140665,2.85410471931265,-7.07455110490569,2.94316761426935,0.918783337767337,87.6440957031349,2317.59408263815
0.54,4.60628572625361,0.00709028869468797,9.68955651876137,-0.32871483369649,-4.57804174507739,-0.509364549620723,-9.59161959142945,-1.41293757309719,1.68314238954045,121.263612050488,2317.59408263815
0.55,4.66352246791762,0.0594995670775678,6.82889926823878,-2.94114899840097,-2.09288129960712,-4.16795271962263,-0.341281212021302,-7.42749956451486,2.68899509598877,152.542295980393,2317.59408263815
0.56,4.67514955362509,-0.0154750937158462,6.24879449359073,0.8247474397701,3.28492037331484,-3.32664410003046,3.78708337907032,-5.03841646179695,-2.3658151880922,183.042332167889,2317.59408263815
0.57,4.59983020653224,0.00065249064266415,10.0161035019381,0.0166929868246558,3.61011862793634,2.85052308303187,7.870478205218,6.19501257775432,-0.902291782117443,215.497524693291,2317.59408263815
0.58,4.65768667563122,0.0291406678392505,7.12470729720205,-1.39308847206452,-3.28089859259217,3.3061456065941,-6.03279588173899,4.03825747211298,0.787821739582053,246.308256190066,2317.59408263815
0.59,4.66405539640797,0.0410034896065977,6.80769929330475,-1.9800922040206,-1.98401299468181,-4.22123044429654,-1.04213786778237,-7.01280852932826,2.71101619090874,277.51214439621,2317.59408263815
0.6,4.64121910422989,0.00422161184415648,7.95111048730533,-0.139965894756375,4.58997148593431,0.687818547136527,7.84136872500642,1.32389008287055,-1.42114107869973,309.313081405206,2317.59408263815
0.61,4.66784638893561,0.00885257438682951,6.62136664087496,-0.368770295534493,-3.8148561288483,2.68993326961117,-5.63055047452173,3.50362513371843,0.958538542874082,340.686425935905,2317.59408263815
0.62,4.62057327644955,0.0302310701492834,8.98676311150041,-1.43400144097806,1.87996001389726,-4.22094322003856,5.01607577060665,-7.5932374662251,-2.71603756088715,371.751521930369,2317.59408263815
0.63,4.61732858973179,0.0725384112880425,9.15065606275732,-3.54496028088748,-0.487216243131755,4.59212428611153,-4.62713234027111,8.65395262741624,0.121411530571464,402.921497248055,2317.59408263815
0.64,4.59462267362623,0.0684328769252469,10.2877183957541,-3.33303733040165,0.142819424211328,-4.59291227694504,3.80236331340923,-10.1236515580608,-3.09561403478506,434.085718382342,2317.59408263815
0.65,4.61275377747989,0.065863995533367,9.38308715532478,-3.19289478855066,-0.844150839494937,4.53533293571074,-4.97881534686024,8.57019833125488,0.198299575769549,465.02819325466,2317.59408263815
0.66,4.53122610204261,0.0327168464295005,13.4614081566044,-1.51727678400108,2.44783987659672,-3.81328733751018,8.62436869483047,-10.4466216076583,-2.56369569188551,495.735821759097,2317.59408263815
0.67,4.55698923872618,0.0305638102217793,12.175226968351,-1.39079073946951,-4.20938578116666,1.74589702264293,-11.8014957445139,3.30078002964099,1.18433537123907,526.620176297302,2317.59408263815
0.68,4.54204900851444,0.084642293054086,12.9242955060442,-4.1183471352898,4.13146064201626,1.88902262479596,9.86976526574973,9.30515615416014,-1.1233141383233,557.983430817296,2317.59408263815
0.69,4.49364907880647,0.0461993305646473,15.3463165208044,-2.16266308297526,-0.327814443748215,-4.48191411252747,1.1963516636864,-15.45170816007,3.07886171385325,588.504539006354,2317.59408263815
0.7,4.56470263049149,0.0551149143633003,11.7957815934643,-2.62684296464419,-4.27493087742888,1.60140992622325,-11.9870498818431,1.53342834583749,1.22444568225124,619.78823642191,2317.59408263815
0.71,4.50924222980021,0.0979753781367183,14.5710008650767,-4.73473417018468,1.86172179680377,4.10814515481627,1.37076645778184,15.2595141859301,-0.403769504917493,650.292421868737,2317.59408263815
0.72,4.46643674191693,0.099644967246743,16.7135253091981,-4.82340437987005,4.32046722349671,-1.13690336428993,17.3772423997526,0.799127432387407,-1.80580066405726,681.133375206533,2317.59408263815
0.73,4.5871343003232,0.0489123300647144,10.6809823700187,-2.28977735592146,0.678546246459512,-4.53693382105687,3.95327299395729,-10.1832262747908,-2.98246999473004,712.083607472154,2317.59408263815
0.74,4.44084591516738,0.0644382050097447,17.9977673530886,-3.07510994745637,-3.20662626750299,-3.07291599382143,-10.6527029166641,-14.8288857118174,2.34941403692392,742.876603804286,2317.59408263815
0.75,4.51914589532674,0.0497348206329309,14.0851418375305,-2.33252903981688,-4.51553463126807,-0.187350392181613,-13.9434216732074,-3.06804568871977,1.62326764851733,773.591571289533,2317.59408263815
0.76,4.51108615977276,0.107399156290512,14.4905612745502,-5.21224150157101,-4.01833024219692,2.05291377907376,-15.3175008415076,1.58681930055254,1.12228021261611,804.267428948841,2317.59408263815
0.77,4.51523967901287,0.116725157683767,14.2853806757285,-5.66767417686785,-3.30307263898515,3.08070207306001,-14.452431398681,5.22703149904729,0.846063415429763,834.880365048463,2317.59408263815
0.78,4.48544468237192,0.0434955884168455,15.7777067895429,-1.98279562167577,-3.16920906583549,3.17446369672995,-12.6445835009654,9.64271839790201,0.79426658494566,865.347428716012,2317.59408263815
0.79,4.47842869741462,0.142349864581194,16.1311493923698,-6.90142278954376,-3.60404270370705,2.66222900435501,-17.1951248708345,3.48873872845122,0.966355387407793,895.733801590261,2317.59408263815
0.8,4.43343226468827,0.0725505799529622,18.3836406571065,-3.45060199841744,-4.32231559062536,0.989026373393267,-18.6997104233572,0.430961765923738,1.36221320097381,926.466313005134,2317.59408263815
0.81,4.41818277570828,0.0877805782164578,19.1487954818534,-4.18391313156928,-4.08499157376611,-1.68549349204831,-15.8803300516298,-11.488977976725,1.98198820807716,956.927243785072,2317.59408263815
0.82,4.45833357648236,0.17838768142472,17.1440290904003,-8.68496719884296,-1.55778461594654,-4.18113232682181,2.91475650433439,-18.9960675724717,2.82494071931058,987.322658887224,2317.59408263815
0.83,4.48216933848475,0.0664939480456257,15.9550143563444,-3.09668293246643,-0.917807585162598,-4.38769787708743,0.0054405526485839,-16.2527504963244,2.95022249576605,1017.79358869486,2317.59408263815
0.84,4.37766981642755,0.126434178221262,21.1828152586042,-6.12843722001161,3.84001596919462,-2.10576731369199,21.6500955205186,-4.18840888550786,-2.04351720253525,1048.34719058072,2317.59408263815
0.85,4.41546576515064,0.17475417797194,19.2959152111239,-8.47849422995773,2.3876290843927,3.71834698505909,2.46578710654817,20.9317247781326,-0.531259401170039,1078.50697958375,2317.59408263815
0.86,4.39802543670283,0.138166121030812,20.1708499654343,-6.65090767949387,-4.05522072294996,1.70789417325635,-21.213875649079,1.03404121514789,1.20358838676207,1108.84954339505,2317.59408263815
0.87,4.43898281099735,0.122088115025029,18.1259057727521,-5.85088799229561,-0.0365228532200842,-4.44051123017981,6.19910154444863,-18.00978873898,-3.12232069663199,1139.25616193506,2317.59408263815
0.88,4.45936738291561,0.0844799238285825,17.1096933820986,-3.96702164814767,3.6585034762083,2.55116573901294,11.5162187121402,13.2610548208071,-0.942925849577323,1169.56879340007,2317.59408263815
0.89,4.35695932714867,0.140296409059361,22.2331028851755,-6.7564242457797,-4.31389077620239,0.626996038120418,-22.8495474056109,-4.22591006180883,1.45865289240667,1199.84317701568,2317.59408263815
0.9,4.39154122738375,0.166439755136666,20.5070808579913,-8.042511725421,3.44954312962753,-2.72286406945713,21.3066711326437,-5.59000227326384,-2.2011217412741,1230.04525263934,2317.59408263815
0.91,4.34177644745897,0.166745564669397,22.9984028718024,-8.04095114509921,-2.47319515752356,3.57241270234115,-20.2375973184627,13.5655108546398,0.643928135416872,1260.27391730908,2317.59408263815
0.92,4.26497659819689,0.154257081883087,26.8416340538907,-7.48780078416271,2.16733846821026,-3.676474478994,20.7668137802151,-18.5817094123269,-2.57276548785199,1290.58194773563,2317.59408263815
0.93,4.33324808091757,0.177963722165868,23.4312947376914,-8.63335264713397,-2.70578977028347,3.38930844512745,-21.8781671973492,12.0376970845413,0.714768681116456,1320.66896619504,2317.59408263815
0.94,4.2943081766507,0.174821603225381,25.3815791509977,-8.42797155269466,3.70782661203149,-2.17339989972265,26.3636860778799,-4.49570028787436,-2.06029365507518,1350.66932861619,2317.59408263815
0.95,4.36218157081773,0.169653373942458,21.9911873131597,-8.21680364357773,-4.35786638002816,-0.257703197287432,-21.0823451957189,-10.3277733615789,1.66873498936096,1380.92151889024,2317.59408263815
0.96,4.25997402425318,0.209776548495746,25.1018892999403,-10.1681020292704,2.79358052387963,3.2229323207618,7.48667201855994,26.0277714641615,-0.664952824570503,1410.83933884953,2317.59408263815
0.97,4.2110827564467,0.220035846491263,23.7401444084113,-10.704580468758,-2.49052438458482,-3.40278151593256,-4.04634474080357,-25.7256602205446,2.561975198061,1440.38781060776,2317.59408263815
0.98,4.08943243680119,0.176136092448589,26.1067232634864,-8.55459862049183,-2.37230086594562,3.33566637715142,-22.78363253565,15.3508385958049,0.661242701599755,1469.45577948366,2317.59408263815
