t,iq,id,vq,vd,ia,ib,va,vb,theta_e,omega,r
0,0,0,0,0,0,0,0,0,0,0,0
0.01,0.000836651279813704,0.00047170850747871,-0.0412627271468319,-0.023618319882624,0.000958651612461348,5.90031013333849e-05,-0.0474722168307796,-0.00261272173093476,-0.995945311567191,-0.00171349984237712,0
0.02,0.000923994923910071,0.000521769589302245,-0.0456770865292515,-0.0261248812618286,0.00105917630317763,6.44645834483781e-05,-0.0525399489435131,-0.00290850816715608,-0.995957754547332,-0.00175066625265055,0
0.03,0.000955658334712821,0.000540226925141635,-0.0472673770435274,-0.0270490267434645,0.00109578681793514,6.61757734647446e-05,-0.0543771417676905,-0.0029968706211856,-0.995969901448617,-0.00166905066065779,0
0.04,0.000934838634528926,0.000529630050347892,-0.0462815354441736,-0.0265184542796948,0.00107255239777837,6.37386606329598e-05,-0.0532613026779263,-0.00290561138228832,-0.995980608887085,-0.00148992460354679,0
0.05,0.000952964283190215,0.000540430393206415,-0.0472021518808731,-0.0270592081371824,0.00109363770641213,6.45174553984088e-05,-0.0543279962826882,-0.00295172951074261,-0.995990770828863,-0.00140325031686862,0
0.06,0.000952147787430616,0.000540715843166849,-0.0471919957106021,-0.0270735133083886,0.00109310820996488,6.38237688328335e-05,-0.0543272769307504,-0.00293369447941258,-0.996000105145976,-0.00128521975796312,0
0.07,0.000977569692551784,0.000555794896913263,-0.0484643997715322,-0.0278285136514948,0.00112264337470705,6.49794156404471e-05,-0.0558057010611219,-0.00299131180972808,-0.996008500796546,-0.0012365885393129,0
0.08,0.000950522305051667,0.000541121011406408,-0.0471642735239053,-0.0270937865547185,0.00109196523038932,6.25822419463738e-05,-0.0543150786070536,-0.00290072453362719,-0.996016362123335,-0.00107920515062995,0
0.09,0.000948712803216674,0.000540727168431357,-0.0470981547803381,-0.0270740669506762,0.00109023281776059,6.19213755081955e-05,-0.0542488841066009,-0.00288094743981299,-0.996023413510149,-0.00098741812900476,0
0.1,0.000947733560515818,0.000540714695881429,-0.0470706881277762,-0.0270734542722877,0.00108940453729962,6.13924928727151e-05,-0.0542255162279504,-0.00286618158327686,-0.996029831165533,-0.000905349088018868,0
0.11,0.00094686159483375,0.000540712577733158,-0.0470466404470154,-0.0270733508894218,0.00108867188417182,6.09138744764373e-05,-0.0542052930153285,-0.00285287834561469,-0.996035674803912,-0.000830663635155068,0
0.12,0.000946068267705369,0.000540710894945481,-0.04702477313951,-0.0270732591735609,0.00108800543390965,6.04782180199129e-05,-0.0541869045501728,-0.00284077918389299,-0.996040995848381,-0.000762658530044468,0
0.13,0.000991375857426914,0.000566628116489498,-0.049261413730747,-0.0283709210054466,0.00114012293791994,6.3349818580469e-05,-0.0567696363646908,-0.00296722571940491,-0.996046222319783,-0.000797229725749445,0
0.14,0.00104449331086304,0.000597916349540283,-0.051981104998014,-0.0299375231744074,0.00120171529187318,6.59590385267584e-05,-0.0599040088384742,-0.00313054239912937,-0.996050935082342,-0.000855376203535453,0
0.15,0.000946861953576718,0.000542233466536537,-0.0471093764652019,-0.0271494983491727,0.00108950016244804,5.96161671784672e-05,-0.0542994005099131,-0.00282200563711417,-0.996055304196635,-0.000586230309818708,0
0.16,0.000943487205914599,0.000540746021045436,-0.0469554448421264,-0.0270750117324852,0.00108585923485365,5.90261728731044e-05,-0.0541297183974976,-0.00280065114639272,-0.996058881894898,-0.000534256160215383,0
0.17,0.000942919846719003,0.000540705322745475,-0.0469380069855397,-0.0270729803557212,0.0010853610969091,5.87483846428256e-05,-0.0541139869727685,-0.0027927010271212,-0.996062127902647,-0.000492587773121687,0
0.18,0.000942476762491475,0.000540703331428974,-0.0469257281652904,-0.0270728811491148,0.00108498829040947,5.8505983703628e-05,-0.0541036352106619,-0.00278594948777742,-0.996065083278957,-0.000454811520491181,0
0.19,0.000942075413200629,0.000540702454081319,-0.0469146481060341,-0.0270728342756119,0.00108465110244563,5.82856240438885e-05,-0.0540943172911236,-0.00277982003644099,-0.996067774348479,-0.000420418420761841,0
0.2,0.000941710210868894,0.000540701680031135,-0.0469045690239984,-0.0270727902682913,0.00108434429511559,5.80850901135771e-05,-0.0540858403909873,-0.00277424538182193,-0.996070224757692,-0.000389101207056459,0
0.21,0.000941377346626228,0.000540700975746725,-0.0468953726067652,-0.0270727686642075,0.00108406465478001,5.79023157671182e-05,-0.0540781158936298,-0.00276914363444474,-0.996072456029093,-0.000360584667550937,0
0.22,0.000941074542905693,0.000540700334361212,-0.0468870106669648,-0.0270727245697013,0.00108381026741387,5.77360470743344e-05,-0.0540710790096567,-0.00276452521103461,-0.996074487759834,-0.000334618336450555,0
0.23,0.000940798547544305,0.000540699750249666,-0.0468793803601968,-0.0270726999591035,0.0010835784015006,5.75845012388392e-05,-0.0540646662893217,-0.00276029800129177,-0.996076337794689,-0.000310974150815722,0
0.24,0.000940547348648973,0.000540699218304135,-0.046872435577652,-0.0270726782124615,0.00108336736668688,5.74465710312467e-05,-0.0540588300460358,-0.00275645000506893,-0.996078022382478,-0.000289444443283154,0
0.25,0.000940318617910525,0.000540698733871581,-0.046866109442881,-0.0270726564233601,0.00108317520717013,5.73209784584559e-05,-0.0540535126118935,-0.00275294650243421,-0.996079556318992,-0.000269840117993246,0
0.26,0.000949747849437597,0.000546076197732246,-0.0473324530301906,-0.0273419026120872,0.00109401285036161,5.79316363027474e-05,-0.0545913016073645,-0.00278038434714051,-0.996080918768807,-0.00027361378149676,0
0.27,0.000916068041174698,0.000527045593310581,-0.045686723388623,-0.0263890458958212,0.00105539892244443,5.55952155575376e-05,-0.052691998065887,-0.00268547521025033,-0.99608233543796,-0.000181894053062758,0
0.28,0.000910623790512458,0.00052373921800635,-0.0453288560564263,-0.0262234926319839,0.0010490320395426,5.54097133927732e-05,-0.0523016321150079,-0.00262983560518529,-0.996083512660662,-0.000155260023332006,0
0.29,0.000938738591382343,0.000540244521161844,-0.046804193766942,-0.0270499004178931,0.00108160238637439,5.68380452260571e-05,-0.0539891871802741,-0.00273812607538708,-0.996084435353334,-0.000205608411507188,0
0.3,0.000934581815073323,0.000538082892706303,-0.0466018528488858,-0.026941676888928,0.00107693837788644,5.63923640597464e-05,-0.0537605241205501,-0.00271894994811505,-0.996084850680698,-0.000191294011765818,0
0.31,0.000939249557544641,0.000540626995454937,-0.0468334226738723,-0.0270690718354526,0.00108223925049559,5.67933468742891e-05,-0.0540241454898432,-0.00273785198188721,-0.996085753526622,-0.000190318418935691,0
0.32,0.000939264836745907,0.000540694647445054,-0.0468368375021663,-0.0270724515338721,0.00108228889793663,5.67439576180114e-05,-0.0540288512057488,-0.00273682601661827,-0.996086595474344,-0.00017986747813299,0
0.33,0.00093915473331072,0.000540696217950672,-0.046833869760078,-0.0270725197201923,0.00108219737980619,5.66819578588691e-05,-0.0540263993950271,-0.0027351140950901,-0.996087362708874,-0.000170070978379906,0
0.34,0.000939050541600809,0.000540696045559558,-0.0468309717946361,-0.0270725229781139,0.00108210987228824,5.66247089249699e-05,-0.054023970666877,-0.00273349831075918,-0.996088061347181,-0.000161142361745335,0
0.35,0.000938955804896155,0.000540695845800969,-0.0468283373886317,-0.0270725009157634,0.00108203028235059,5.65726903276892e-05,-0.0540217492209289,-0.00273205042570583,-0.996088697507441,-0.000153011982695864,0
0.36,0.000938869308312154,0.000540695662756587,-0.0468259243665641,-0.027072501220078,0.00108195761457562,5.65251985946433e-05,-0.0540197255950418,-0.00273070718508816,-0.996089276776285,-0.000145608689037841,0
0.37,0.000938790611551689,0.000540695496044155,-0.0468237277658808,-0.0270724985937725,0.00108189149949458,5.64819891770948e-05,-0.0540178818868685,-0.00272948684910889,-0.996089804241748,-0.000138867465024291,0
0.38,0.000938719157911136,0.000540695344234303,-0.0468217352538016,-0.0270724764789204,0.00108183146933498,5.64427556252419e-05,-0.0540161987571907,-0.00272839636095216,-0.996090284536198,-0.000132729102566509,0
0.39,0.00093865384891568,0.000540695205995932,-0.0468199060751949,-0.0270724767298688,0.00108177660161498,5.64068973578525e-05,-0.0540146647614453,-0.00272737820773638,-0.996090721878447,-0.000127139688307883,0
0.4,0.000938594360686308,0.000540695080115973,-0.0468182368939291,-0.0270724769656196,0.00108172662405203,5.6374235167763e-05,-0.0540132649441091,-0.00272644915366999,-0.996091120109543,-0.000122050130306212,0
0.41,0.000938540227561732,0.000540694965490168,-0.0468167161562146,-0.0270724771873853,0.00108168114539644,5.63445130593394e-05,-0.0540119896178816,-0.00272560272800553,-0.996091482727124,-0.0001174157268698,0
0.42,0.000938491242078055,0.000540694861112497,-0.0468153441237961,-0.0270724550209651,0.00108163999115159,5.63176156478238e-05,-0.0540108268489953,-0.00272485768059188,-0.996091812915957,-0.000113195773937961,0
0.43,0.000938446422179214,0.000540694766067287,-0.0468140814399485,-0.027072455219423,0.00108160233669658,5.62930067240525e-05,-0.0540097679384955,-0.00272415489714885,-0.996092113576353,-0.000109353207577136,0
0.44,0.00093840556040131,0.000540694679519959,-0.0468129265994894,-0.0270724554074461,0.00108156800759502,5.62705713515102e-05,-0.0540087994673792,-0.00272351219746867,-0.996092387348916,-0.000105854278448575,0
0.45,0.000938368307498377,0.000540694600710825,-0.0468118701536209,-0.0270724555859562,0.00108153671043201,5.62501177164666e-05,-0.0540079135119142,-0.00272292431452459,-0.996092636638205,-0.00010266825538487,0
0.46,0.000938334430639773,0.000540694528948257,-0.0468109078128307,-0.0270724557555554,0.00108150824953044,5.62315174634502e-05,-0.0540071064780544,-0.00272238879771717,-0.996092863633723,-9.97671554799316e-05,0
0.47,0.000938303838776711,0.000540694463602103,-0.046810041715998,-0.0270724335460998,0.00108148254824022,5.62147194684831e-05,-0.054006368006482,-0.00272192547838779,-0.996093070329254,-9.71254983139423e-05,0
0.48,0.000938275666268869,0.000540694404099429,-0.0468092346450511,-0.0270724337013103,0.00108145887977559,5.61992516964971e-05,-0.0540056911851234,-0.00272147647139974,-0.996093258540014,-9.47200821571471e-05,0
0.49,0.000938250054898103,0.000540694349916825,-0.0468084992403386,-0.027072433849695,0.00108143736295168,5.6185189866911e-05,-0.0540050744674175,-0.00272106733609821,-0.996093429919359,-9.25297801904261e-05,0
0.5,0.000938226771833771,0.000540694300579574,-0.0468078288871102,-0.0270724339918763,0.00108141780216908,5.61724061852747e-05,-0.0540045123057212,-0.00272069439494773,-0.996093585972161,-9.05353549460355e-05,0
0.51,4.61413423542196,0.00939756733583841,9.29463298344036,-0.462834576203479,-0.484465078619736,4.58863995584343,-1.45489614793335,9.19171884581527,0.107226226429648,32.9778197995697,2014.86576365161
0.52,4.63710830132311,-0.020159669683867,8.14756489528654,1.02729378491684,-2.1807000636664,4.09239869059783,-2.8915324067834,7.68616852430102,0.485245965579165,70.2613350026364,2014.86576365161
0.53,4.57250523423162,0.018614570058441,11.3794340194553,-0.902814053900701,-4.14875026667869,1.92250405565958,-10.720401941403,3.92168000145593,1.14093128179272,109.114233232728,2014.86576365161
0.54,4.52115284049425,-0.0223412091380739,13.9489515818657,1.1454717432454,-3.90565518203737,-2.27753808656619,-12.656535925052,-5.97473464897615,2.09378398500755,150.713842068433,2014.86576365161
0.55,4.58442539323565,0.0504592982187184,10.7873070183571,-2.48228746054025,0.846932353599748,-4.50579714538355,4.54367174407223,-10.0937005516892,-2.94478925804973,188.356068274091,2014.86576365161
0.56,4.5074869738291,0.0277181446049579,14.6362459178025,-1.34777011192537,4.46243378111854,0.636311137660975,14.2782417849256,3.48826466487214,-1.4230090125985,227.920849119351,2014.86576365161
0.57,4.510396220356,0.0684004848893363,14.492953298868,-3.36063334548328,-1.65328964851351,4.19702108989851,-8.62339857603097,12.1233885034197,0.390417758652421,265.985445026762,2014.86576365161
0.58,4.53842754249873,-0.00430420586537739,13.0936879390294,0.273301095388059,-2.76749622240436,-3.59698592486498,-8.21070912172689,-10.2031178103468,2.48484664702558,305.636129091917,2014.86576365161
0.59,4.4424502096733,0.0162929956809506,17.8949474852204,-0.757149444149671,4.39501810914947,0.647645850278396,17.5809495153241,3.42237270313973,-1.42082262247353,344.056200610824,2014.86576365161
0.6,4.49846086978686,0.0812159256716581,15.0968946271458,-3.96757063203406,-4.22938159841577,1.53462618202881,-15.5679388996032,1.13891286828512,1.24077325164734,382.065177545519,2014.86576365161
0.61,4.48114997839449,0.0475047291194421,15.9649951484096,-2.26975071279437,3.84785116656081,-2.29717287728857,14.936704380204,-6.07681665392053,-2.09840750700951,420.47242316544,2014.86576365161
0.62,4.40221503244506,0.0405623154995483,19.9143952299349,-1.9141879949613,-3.95887809734282,1.92572757774905,-18.8090244531301,6.81673324809327,1.12727519534103,458.977947973389,2014.86576365161
0.63,4.39957813999971,0.0616623514453631,20.0490159005715,-2.99888179029994,4.38128029646651,-0.405552733122872,20.2221426268634,1.42171662167795,-1.64908359840117,497.644014454922,2014.86576365161
0.64,4.43342623253082,-0.0233574471408526,18.3594318074956,1.26273443153829,-3.724202703102,-2.40543716522322,-16.1540027021242,-8.81540873915885,2.13901065287675,536.149671883679,2014.86576365161
0.65,4.4486414930408,0.0685514110312837,17.6015775505566,-3.30578560956426,0.406390573445764,4.4305707455556,-1.95874315862362,17.8018840576835,-0.0760599629076018,573.945615107688,2014.86576365161
0.66,4.36691639882911,0.0653053717260399,21.6909144309094,-3.11722557738877,3.91999954901835,-1.92557190508036,20.9420635166745,-6.45312635959736,-2.01243972727234,611.947501143328,2014.86576365161
0.67,4.40338610338422,0.0138551633562982,19.8705849136617,-0.565907973331225,-2.22902652483222,-3.79755735870089,-9.51567172225562,-17.4531483784326,2.61396063767791,650.166636556263,2014.86576365161
0.68,4.3318243548559,0.0649188825630949,23.4519003028699,-3.11146440770589,-4.06819382737538,1.48953539251032,-23.1664030317597,4.79485235917045,1.23479974342194,687.993607442136,2014.86576365161
0.69,4.38938792879233,0.0987623377681157,20.5769946805517,-4.77518244434932,-0.488706664663623,4.36321512014966,-7.48219178873751,19.7542877243606,0.134037655337407,725.695633876523,2014.86576365161
0.7,4.33485228762974,0.118134718394656,23.3071071582652,-5.77040946446132,2.84852400419964,3.26968059063228,10.372972156568,21.6545680657331,-0.689424390530364,763.820103493656,2014.86576365161
0.71,4.29300352192618,0.0383928469613559,25.4029770691514,-1.79018816419431,4.06706742312976,1.3748875683797,23.4029192690032,10.0408857840119,-1.23586051017526,801.685941726722,2014.86576365161
0.72,4.26120562042128,0.120682688915831,26.9964051287091,-5.9108293673019,4.2600563916203,0.156067905505623,26.555978447735,7.65008512149925,-1.50586384373202,839.345701809877,2014.86576365161
0.73,4.32755894338179,0.127126025296159,23.6823079496023,-6.22415786606033,4.32566089836149,0.180513786558731,23.1805124302137,7.89022778087849,-1.49972213661061,876.979659656582,2014.86576365161
0.74,4.28320395464713,0.0840152278771584,25.9037248281108,-4.05198830106225,4.04829434597341,1.40150189581741,22.9070153198965,12.7550075772794,-1.21790216713828,914.501451732997,2014.86576365161
0.75,4.31991694451952,0.0970110222264058,24.0717408827604,-4.66540310422204,2.72832139755803,3.35072468245412,11.0931869060493,21.8667761574289,-0.660915748848126,951.895160366924,2014.86576365161
0.76,4.25139198278944,0.201090581793201,27.5017793590225,-9.83342476879771,-0.524491475506794,4.22370452393784,-14.3651009957487,25.430060636536,0.170810339688693,989.167383273279,2014.86576365161
0.77,4.20294165821069,0.0894917445044012,29.9281851087465,-4.32571254791201,-3.9968197209488,1.30313447997205,-29.8980753948492,4.52914347691374,1.27691092574401,1026.85658980611,2014.86576365161
0.78,4.16028495053744,0.130949852041244,32.0649229561316,-6.33184850752976,-2.05398537802559,-3.62025728371272,-9.33500092547312,-31.3226650754111,2.65698556927752,1063.96917912505,2014.86576365161
0.79,4.2414121974081,0.0974126223998498,28.0125722572206,-4.70966617337274,3.86480250242814,-1.74996236089529,27.62071177916,-6.6318504765404,-1.97300896518598,1101.46298641682,2014.86576365161
0.8,4.17986951856278,0.15442546286815,31.0937179086577,-7.46633161517632,0.348556369883146,4.16817284584099,-6.0128945019669,31.4071727616349,-0.0465009437899116,1138.42801339075,2014.86576365161
0.81,4.13633665963462,0.156403276554211,33.2744990381564,-7.60545221387633,-0.127130505937293,-4.1373398194026,7.84071326365503,-33.2198495652068,-3.13451656146854,1175.72461289262,2014.86576365161
0.82,4.16457058542102,0.0923947388667377,31.8670278835494,-4.42986862296096,2.63681873234724,3.22480571840645,16.1289058772473,27.8386349764227,-0.663239074294413,1212.92942710391,2014.86576365161
0.83,4.14826439435041,0.036725844352854,32.6866010100778,-1.6518368069787,-3.64032948684392,-1.98933343115061,-27.7383489454353,-17.3702748455566,2.07977894320932,1249.99443488666,2014.86576365161
0.84,3.98271942138809,0.0756407838241222,35.4847362514108,-3.60736866221513,3.72500328631239,1.41142694980694,31.5958522213458,16.5493727344634,-1.18961546062218,1286.61512643342,2014.86576365161
0.85,3.82111974704205,0.0866728905714123,36.1795960481234,-4.15826493569663,-3.36418656534673,-1.81403336924526,-29.3913598460452,-21.5035416590177,2.08800342943486,1321.93165852221,2014.86576365161
0.86,3.77598726963395,0.110323630593642,31.2454318535963,-5.31313901943691,2.41152422425884,2.90771423625462,15.0484369675524,27.8935656163065,-0.663176321715893,1355.96708399307,2014.86576365161
0.87,3.5298647297672,0.115622131121135,36.5986304454302,-5.53725326151042,-0.212617183360161,-3.52535209886891,4.52903543035373,-36.7370216843157,3.11409840518738,1388.68863306399,2014.86576365161
0.88,3.40290705508129,0.14441051063395,36.249557811204,-6.95395794023406,-2.4481894510411,2.36791030930537,-31.719323132917,18.8751824502959,0.844477478343166,1420.35175130716,2014.86576365161
0.89,3.31633751983453,0.0797821573882576,34.0158396738594,-3.82398538082639,3.11656942906499,1.13642189873185,30.2720354683883,15.9782377473588,-1.19708764249251,1451.02685192319,2014.86576365161
0.9,3.12273642472449,0.108094375743455,37.3143117179162,-5.15147412855591,0.274428490247818,-3.11253211647828,9.67401287353793,-36.4047939096161,-3.0190497172527,1480.27531838122,2014.86576365161
0.91,3.04071061156116,0.0457055112838515,35.2759465482969,-2.13951417932117,-3.03403216782299,-0.206540121133104,-34.9771341295307,-5.05668012500661,1.65379599150496,1508.73132683195,2014.86576365161
0.92,2.92097063722491,0.186911980246608,35.2713238369152,-9.0956581596884,-0.532835916063922,2.87803603841962,-17.442300145444,31.9775460003217,0.246968451149378,1535.82730620512,2014.86576365161
0.93,2.79126950018582,0.154508724280627,35.9427229232442,-7.54885022711601,2.38099884284034,1.46489005694605,25.2201361766357,26.6984868882206,-0.963947074242279,1562.1153017463,2014.86576365161
0.94,2.66399045061395,0.125474838358922,36.7269650980606,-6.16731590853646,2.29675503186248,1.35554615548048,27.3346150294967,25.2927770721022,-0.990547891451918,1587.38247225802,2014.86576365161
0.95,2.44357134883989,0.167731075346487,42.2686148742846,-8.16516327934626,2.31771080392446,-0.792080349383777,42.9447571468375,-3.00890816877577,-1.8315694222437,1611.61139144401,2014.86576365161
0.96,2.37533523428651,0.16593346037778,40.370055916527,-8.0803538100637,1.2929386930239,-1.99951517238493,30.6929635664701,-27.440399412302,-2.49784934466561,1634.94131229917,2014.86576365161
0.97,2.32173843535649,0.114104982205508,37.9106785730172,-5.51233250121838,0.223218763487956,-2.31379832587082,10.9426482082458,-36.7132647644035,-2.99631057164973,1657.41695699217,2014.86576365161
