t,iq,id,vq,vd,ia,ib,va,vb,theta_e,omega,r
0,0,0,0,0,0,0,0,0,0,0,0
0.01,0.000530193577003295,0.000296603234646233,-0.025726565174678,-0.014844010369668,-0.000544765125728872,0.000268904566134091,0.0264568950223702,-0.0134993890719932,1.62231931223035,-0.00217059287632466,0
0.02,0.000601169816147059,0.000335593007319412,-0.029302689867076,-0.0167953145523919,-0.000617650239299768,0.000304197298312978,0.0301285198103917,-0.0152644200150108,1.62230313884257,-0.00225743030122563,0
0.03,0.000627789790644968,0.000351020722550343,-0.0306522547018515,-0.0175674261105068,-0.000645024146092453,0.000318244277019273,0.0315157931435446,-0.0159665262655533,1.62228728322134,-0.00215345346848074,0
0.04,0.00061175860503159,0.000343146573395052,-0.0299461742550596,-0.0171733425522964,-0.000628604577771154,0.000311214470210033,0.0307901469727164,-0.0156097372281353,1.62227326834668,-0.00188740990639102,0
0.05,0.000625417301983082,0.000351614873158491,-0.0306606475405744,-0.0175971590224027,-0.000642676764887384,0.000318977109711567,0.0315252730259301,-0.0159966394566991,1.62226026855377,-0.00176621319828384,0
0.06,0.000625170621889387,0.000352285973906826,-0.0307024744365417,-0.0176307486313445,-0.000642461142775937,0.000319667630372675,0.0315685823576616,-0.0160284073368407,1.62224840964972,-0.00159972103978861,0
0.07,0.000638359448249277,0.000360614741429215,-0.0313830584159267,-0.0180475723243398,-0.000656057421375992,0.000327313972758062,0.0322695303207119,-0.0164100163077433,1.622237907407,-0.00151129104438212,0
0.08,0.000623830116144272,0.00035299710596899,-0.0307298717049035,-0.0176663359040641,-0.000641152485374735,0.000320459765226242,0.0315974478497385,-0.016063179282387,1.62222812987367,-0.00131096003677478,0
0.09,0.000621490778309944,0.000352388157623999,-0.0306566755263288,-0.0176358585385873,-0.000638782170831021,0.000319977404493419,0.0315226430894998,-0.0160367775245427,1.6222194899211,-0.00118015376719947,0
0.1,0.00062033547666616,0.000352337549486618,-0.0306363001196226,-0.017633326579363,-0.000637623314188359,0.000319991189866721,0.0315020401494384,-0.0160355404554143,1.62221173688288,-0.00106692952908507,0
0.11,0.000619380651045217,0.000352331614735244,-0.0306219929964527,-0.0176330311048746,-0.000636667215396402,0.000320038770261563,0.031487625011289,-0.0160362000539005,1.62220476907966,-0.000965540478539456,0
0.12,0.000618529900922455,0.000352329428690532,-0.0306094914520252,-0.0176329145846659,-0.000635815472199715,0.000320084285724856,0.0314750335562015,-0.0160369232191751,1.62219850604097,-0.000874439002305602,0
0.13,0.000646397175071941,0.000368390837393782,-0.0319744837675673,-0.0184367368302386,-0.000664469145138467,0.000334696686830975,0.0328794217009129,-0.016769749722743,1.62219246477645,-0.00091284228678117,0
0.14,0.000667711760622764,0.000381241583506241,-0.0331233924792507,-0.0190798698598819,-0.000686413868764913,0.000346439231374685,0.0340597579114471,-0.0173531972333091,1.62218696829419,-0.000929999842889248,0
0.15,0.00062076507609847,0.000354626995473577,-0.0307917552946447,-0.0177479009182835,-0.000638160402316338,0.000322274551489262,0.031662697087576,-0.0161429177743955,1.62218193363538,-0.000653126996199157,0
0.16,0.000616133369851109,0.000352506572351581,-0.0305875354296138,-0.0176417826785682,-0.00063342461547939,0.000320397361880417,0.0314532319746784,-0.0160475548942129,1.62217792945121,-0.000576889352762233,0
0.17,0.000615289902364197,0.000352336747689142,-0.030563115796778,-0.0176332790791447,-0.000632572401148171,0.000320273328625945,0.0314283508390189,-0.0160404283555584,1.6221743762823,-0.000523617113635085,0
0.18,0.000614824977380241,0.000352322348987742,-0.0305552214689375,-0.0176325618221074,-0.000632106328580451,0.000320284841626007,0.0314203789288578,-0.0160402176853447,1.62217118652035,-0.000477080446759948,0
0.19,0.000614433103961746,0.000352320415258086,-0.0305493720278163,-0.0176324642019737,-0.000631713954644507,0.000320304845044675,0.031414486207371,-0.0160405106357219,1.62216831970264,-0.000435369213703612,0
0.2,0.000614083198342811,0.000352319553512743,-0.0305442245286963,-0.0176324159399247,-0.000631363640961293,0.000320323578817505,0.0314093016860304,-0.0160408076958067,1.62216574284117,-0.000397886812070339,0
0.21,0.000613768747649198,0.00035231884853103,-0.030539598910981,-0.0176323865790944,-0.000631048826877446,0.000320340482483395,0.03140464350726,-0.0160410886257801,1.62216342658372,-0.000364195978644233,0
0.22,0.000613486078337768,0.000352318220245707,-0.0305354383592096,-0.0176323571159397,-0.000630765831164835,0.000320355681807412,0.0314004535323008,-0.0160413381991322,1.62216134457227,-0.00033391241988012,0
0.23,0.000613232163612611,0.000352317655814302,-0.0305317052423322,-0.0176323290138375,-0.000630511622790874,0.000320369334695297,0.0313966938751661,-0.0160415605589349,1.62215947311708,-0.0003066914793471,0
0.24,0.000613003860255167,0.00035231714839666,-0.0305283445598703,-0.0176322993715428,-0.000630283055525275,0.000320381609428216,0.0313933091176278,-0.0160417563046861,1.62215779092442,-0.00028222342439926,0
0.25,0.000612798555378326,0.000352316692214374,-0.030525317530863,-0.0176322842615248,-0.00063007751351061,0.000320392646692974,0.0313902610481485,-0.0160419440831938,1.62215627885394,-0.000260229852019205,0
0.26,0.000618714600797794,0.000355745643731037,-0.0308151258518825,-0.017803881964143,-0.00063616137350573,0.000323514183820875,0.0316884756794839,-0.0161984784276564,1.62215498770275,-0.00026826178200742,0
0.27,0.000601519957245857,0.000345967873822746,-0.0299962521375483,-0.0173145446552785,-0.000618486996976269,0.000314632902369993,0.0308455383722555,-0.0157518685064572,1.62215354850294,-0.000172500912999478,0
0.28,0.000600869504684275,0.000345617635436407,-0.0298740566867163,-0.0172970184871314,-0.000617819078011286,0.000314317193976824,0.0307225870755112,-0.0157406719949606,1.6221524519799,-0.000154343523645597,0
0.29,0.000611156437974665,0.000351781921481135,-0.0304675681260387,-0.017605518109686,-0.000628408613449093,0.000319945818072106,0.0313311388772794,-0.0160183242593575,1.62215160841235,-0.000187858522553047,0
0.3,0.000605730944775673,0.000348966193242297,-0.0302080531060501,-0.017464603365736,-0.000622845669742863,0.000317412433857614,0.0310647292363521,-0.0158909232158661,1.62215140528759,-0.000161143598301193,0
0.31,0.000611463209267286,0.000352048294768677,-0.0304867892838288,-0.0176188497581749,-0.000628728334653159,0.00032019671975404,0.03135100305758,-0.0160306829212397,1.6221506111917,-0.000175299865194143,0
0.32,0.000611873530354548,0.000352293509652112,-0.0305099977022181,-0.0176311201006368,-0.000629150452298829,0.000320421039358715,0.0313747982309793,-0.0160417702189555,1.62214983159571,-0.000166232023506253,0
0.33,0.000611823292426913,0.000352312841784867,-0.0305107679158215,-0.0176320836294624,-0.000629101046521016,0.000320443369269515,0.0313756055527588,-0.0160427151108275,1.6221491250261,-0.000156155466257822,0
0.34,0.000611740928725058,0.000352314206269439,-0.0305096745174188,-0.0176321611970947,-0.000629018657749452,0.00032044935952462,0.0313745073800314,-0.0160428686430925,1.62214848939885,-0.000146927787615824,0
0.35,0.000611663797128747,0.000352314157650572,-0.0305085418491798,-0.0176321528600703,-0.000628941442230763,0.000320453629474962,0.0313733666101943,-0.016042936382919,1.62214791800798,-0.000138618276732999,0
0.36,0.000611594006143594,0.00035231401240111,-0.030507499608562,-0.0176321532540018,-0.000628871571198917,0.000320457389714679,0.0313723175238449,-0.0160430063866493,1.62214740439846,-0.000131147787411211,0
0.37,0.000611531542867228,0.000352313873747515,-0.030506574581325,-0.0176321390356973,-0.000628809035196989,0.000320460747691795,0.0313713855795956,-0.0160430541505178,1.62214694273071,-0.000124432679883092,0
0.38,0.000611475081436373,0.000352313748465903,-0.0305057256303171,-0.017632139371055,-0.000628752508774853,0.000320463781549558,0.0313705311072995,-0.0160431110785424,1.62214652775187,-0.000118396668566616,0
0.39,0.000611424608937974,0.000352313635797988,-0.0305049747572212,-0.0176321251025968,-0.000628701977485276,0.000320466494177247,0.0313697745073126,-0.0160431470707179,1.62214615474047,-0.000112971085139565,0
0.4,0.000611379032337021,0.00035231353451607,-0.0305042876649975,-0.0176321239346131,-0.000628656348311492,0.000320468943132121,0.0313690828817141,-0.0160431916885209,1.62214581945231,-0.000108094197159455,0
0.41,0.000611338054143907,0.000352313443473321,-0.030503667808606,-0.0176321242009139,-0.000628615322874976,0.000320471144946433,0.0313684590209095,-0.0160432332236293,1.62214551807211,-0.000103710514494464,0
0.42,0.000611301435068603,0.000352313361635145,-0.0305031196529798,-0.0176321098734999,-0.000628578661049568,0.000320473113032469,0.0313679065062839,-0.0160432555476814,1.622145247171,-9.97701587275262e-05,0
0.43,0.000611268314909682,0.000352313288071197,-0.0305026150017554,-0.0176321101048592,-0.000628545502732356,0.000320474892556329,0.0313673986254846,-0.0160432893187506,1.62214500366643,-9.62282956984217e-05,0
0.44,0.000611238570795079,0.000352313221945098,-0.0305021609891107,-0.0176321103207952,-0.000628515724282693,0.000320476490735823,0.0313669417107989,-0.0160433197026571,1.62214478478791,-9.30446253752473e-05,0
0.45,0.000611211795271171,0.000352313162505024,-0.0305017492003391,-0.0176321105231683,-0.000628488917947443,0.000320477929302709,0.0313665273187523,-0.0160433472113388,1.62214458804483,-9.01829233154631e-05,0
0.46,0.000611187813714975,0.000352313109075017,-0.030501381627749,-0.0176321107127705,-0.000628464908581907,0.000320479217954817,0.0313661574031598,-0.0160433718135927,1.62214441119878,-8.76106284955044e-05,0
0.47,0.000611166386838974,0.000352313061047727,-0.0305010559724122,-0.0176320963200998,-0.000628443456537991,0.000320480369634723,0.0313658288880549,-0.0160433791402797,1.62214425223735,-8.52984728272581e-05,0
0.48,0.000611146945477637,0.000352313017876604,-0.0305007524571109,-0.0176320950342243,-0.000628423992792775,0.000320481414148078,0.0313655234144261,-0.0160433979158083,1.62214410935194,-8.32201481373735e-05,0
0.49,0.000611129483179437,0.000352312979070869,-0.0305004785586324,-0.0176320951944373,-0.000628406510357105,0.000320482352359318,0.0313652478246322,-0.0160434161621115,1.62214398091676,-8.13520068279368e-05,0
0.5,0.000611113825318717,0.000352312944189249,-0.0305002325600973,-0.0176320953463597,-0.000628390834344576,0.000320483193710215,0.0313650003059666,-0.0160434325607038,1.62214386547049,-7.96727928106316e-05,0
0.51,4.69633291453754,0.00442697485443011,5.18432107646328,-0.205652049755223,-0.692075275501738,4.64506127573299,-0.97219872786098,5.09649952643728,0.148846271017665,46.1744168404637,2205.41072129839
0.52,4.64366227281868,0.0458647936926042,7.81903133583234,-2.26001815749972,-2.89151325678147,3.63384836903757,-6.68318573479371,4.64542371987813,0.682000151428902,99.8801484786159,2205.41072129839
0.53,4.66726723316008,-0.012032716673394,6.64005323488766,0.651757442012527,-4.6589016695863,-0.279577261461441,-6.66649689552452,0.270025679006169,1.62815561115007,157.86141234343,2205.41072129839
0.54,4.64245105442858,0.0231135869590255,7.88218256877998,-1.08176088796403,-0.771470943247627,-4.57796009314102,-0.203509643655516,-7.95346418180449,2.97962144586339,211.407539966318,2205.41072129839
0.55,4.61884287950234,0.019342247144384,9.06400781438615,-0.875495265337086,4.61790438060292,0.0950936362876835,9.03953569452052,1.09978363616223,-1.54601920001131,266.563808990242,2205.41072129839
0.56,4.59977022625651,0.0391800941498592,10.0192041916326,-1.84968317468726,-2.61675554003281,3.78312194593844,-7.28179550820514,7.12609533033574,0.613646030391849,321.594573874012,2205.41072129839
0.57,4.57845477160377,0.10037870817287,11.0866353990546,-4.89299107875355,0.0539919217028139,-4.57923671074849,5.26387837254152,-10.9154216889418,-3.1078819720565,376.683671247922,2205.41072129839
0.58,4.6098271672237,0.0471965761374724,9.51971179915022,-2.22825340494825,0.706151906564292,4.55566499134082,-0.843531495509414,9.74055853591708,-0.143543513722947,432.045617438548,2205.41072129839
0.59,4.57580320882051,0.0454965750105923,11.222713582944,-2.10856399093903,0.318413282822307,-4.56493788846158,2.99407048650998,-11.0195682397493,-3.06201097134879,486.119350512368,2205.41072129839
0.6,4.55174427079212,0.122437385290138,12.4276135484724,-5.94686351775638,-2.85069656937522,3.55061908536497,-12.573623561793,5.63158545485384,0.703382900515909,540.61590248047,2205.41072129839
0.61,4.55604005238505,0.129492138892505,12.214830803376,-6.28430980396071,4.52129789458982,0.576311132418452,11.0966295964317,8.09687920540107,-1.41559971688002,595.110925414681,2205.41072129839
0.62,4.54573135542259,0.121555198230687,12.7323896739171,-5.86365923980634,-0.0979718422911383,-4.5463007753565,5.92963167935548,-12.7017996613165,-3.13640496777643,649.296647914783,2205.41072129839
0.63,4.51166148176266,0.131150757206057,14.4380977204305,-6.35930367579109,-4.40114203669003,-1.00111868428098,-12.389381569556,-9.76742716121169,1.82351963611162,703.877574987686,2205.41072129839
0.64,4.55986604826025,0.113520055326999,12.030152731645,-5.43400686650472,-3.49343463048541,2.93277678379437,-12.7926749383748,3.25583680380382,0.897313615408933,757.713062974899,2205.41072129839
0.65,4.48142892708988,0.119348861721239,15.954398799038,-5.7349979285109,-1.49643481060688,4.22588833701934,-11.0772647877452,12.8346112952808,0.366958324410497,811.968344702297,2205.41072129839
0.66,4.47077067619388,0.148547173786773,16.4898243107629,-7.18677152680574,-0.881635864581941,4.38549597015411,-10.7799403648082,14.3998915450607,0.231604128121264,865.783306734254,2205.41072129839
0.67,4.44869470801905,0.15315056668964,17.5962102381079,-7.40128896739677,-1.96059921210167,3.99629708989965,-14.8178316467521,12.0348476687956,0.490514934539071,919.507599872788,2205.41072129839
0.68,4.48505992279932,0.179854684990047,15.7805824661978,-8.70075126757848,-4.00644620495212,2.02398098450511,-17.967997323501,-1.37146920322622,1.14309178589891,973.009843022895,2205.41072129839
0.69,4.41386020476765,0.225828259103755,19.3432989943273,-10.9660999491796,-3.72915984123486,-2.37203018285234,-9.41889484648761,-20.1420700016197,2.18843986336221,1026.46365719364,2205.41072129839
0.7,4.43811140717778,0.155388688348367,18.1335434875285,-7.44240305678555,1.92998022280489,-3.99951932694045,15.0329727392383,-12.5787317840494,-2.65700172698677,1079.99058065988,2205.41072129839
0.71,4.4444745175689,0.188166556093898,17.8182532933366,-9.08709554226153,3.39968432765655,2.86895570938938,6.97005546750677,18.747900751806,-0.827548894167701,1133.53388934682,2205.41072129839
0.72,4.3800446657229,0.160381433108657,21.0427056075175,-7.68839434412497,1.15207443419385,4.22885776255132,-2.70252817730133,22.2396764438315,-0.229376773225774,1186.82137368373,2205.41072129839
0.73,4.39424690967458,0.182346084229082,20.3356036595158,-8.75305777425508,-3.15968690274257,-3.05925394079265,-7.66662924261722,-20.7695833528891,2.38151912103825,1239.9358992897,2205.41072129839
0.74,4.34215945056486,0.237864536129079,22.9430967281474,-11.4911211937826,3.55226898966143,2.50844837634093,10.8574771150125,23.2496611688065,-0.901226657744028,1292.91952826319,2205.41072129839
0.75,4.36874653654907,0.160168957056604,21.6169633260592,-7.62946530331713,-2.783148497231,-3.3713031364407,-7.08441826748142,-21.801671084256,2.48811691044803,1346.07802686307,2205.41072129839
0.76,4.32198249909097,0.229089553063347,23.9584308732753,-11.0897627981827,0.304954642694794,4.31729283367138,-10.667307036838,24.1494888022768,-0.0175623849756693,1399.02290121059,2205.41072129839
0.77,4.27181703082028,0.252059838767165,26.4700882357757,-12.2037883280053,3.47234253499604,-2.50095826170346,28.8894634427273,-3.87258605531646,-2.13604771755561,1451.71871622656,2205.41072129839
0.78,4.31070813678692,0.269802694848964,24.5290139133543,-13.1018871728968,-3.0646927917211,-3.0434612248362,-6.49626367641995,-27.0394254617082,2.41522597894764,1504.44413514422,2205.41072129839
0.79,4.13055528585941,0.225345274113211,24.8688392003736,-10.867691146798,-3.51110289964828,2.18733259706604,-27.0283144549285,2.45684589702597,1.06815550272535,1556.38605794729,2205.41072129839
0.8,3.81100510646927,0.264612226938813,25.3464028260796,-12.8005968251646,-0.0776845261012302,3.81939061455945,-15.018674360404,24.0984405254459,0.0896591556309853,1604.66923769809,2205.41072129839
0.81,3.54125180968352,0.257051711284344,24.569961786506,-12.4981442466391,2.78124125375744,-2.2070879117649,27.341307980238,-3.51276383065182,-2.16913870882486,1649.70451415179,2205.41072129839
0.82,3.23391841200556,0.214541312872197,26.6407296282211,-10.4210400770709,1.7943952350561,-2.69896313625167,24.4630023220891,-14.8286232942023,-2.48860756080319,1691.35053456346,2205.41072129839
0.83,2.9688654548364,0.224062188410535,27.5761591019985,-10.8776750350142,1.56147228024706,-2.53498920534512,24.9945474338147,-15.938662540028,-2.51418678259997,1729.87660312267,2205.41072129839
0.84,2.75866404684592,0.239559314783153,26.6662678541482,-11.680658667489,1.96241829925165,-1.95359422793526,27.9488706059276,-8.1478991174829,-2.26731957795907,1765.68089037347,2205.41072129839
0.85,2.55828504092223,0.225314785778421,26.1152736542175,-11.0298277400317,2.46470566439079,-0.721675197867288,27.7689817209292,5.70510930588862,-1.76779217989203,1798.88237648166,2205.41072129839
0.86,2.42612963897155,0.211024538769906,22.928603778806,-10.306713667248,2.19298311451513,1.05899076507343,14.4363328999653,20.5801241557356,-1.03416079934179,1829.59480752254,2205.41072129839
0.87,2.20368074816065,0.212254213179992,24.9427616257245,-10.3388801937905,0.396025063991924,2.17817006671121,-8.21409397685113,25.7208565432554,-0.0838290613016788,1857.98097972766,2205.41072129839
0.88,1.9758408631123,0.116736762789903,27.9313756701532,-5.66454458547617,1.14055718341798,1.61762291634505,9.9070324129443,26.7226406059907,-0.555115258423263,1884.40451397088,2205.41072129839
0.89,1.88368820521598,0.126849708360969,24.7060290100885,-6.10893873151298,-1.23801997362394,1.42536965306872,-21.7500924367656,13.2151610230397,0.782410888341928,1908.85953660758,2205.41072129839
0.9,1.73647483208776,0.159618781170711,24.8201257174281,-7.8334456484607,-1.40872752790175,-1.02776930772837,-13.4509548161584,-22.2816813972821,2.29275891835755,1931.61497482656,2205.41072129839
0.91,1.54740553182679,0.132459738521086,27.530901614749,-6.41273403485623,1.04308189711224,-1.15064747780281,24.529296486579,-14.0494596122519,-2.31979544380381,1952.61967027932,2205.41072129839
0.92,1.46363080053631,0.0806966226924378,25.4896747258285,-3.84928673020223,0.773295704309967,1.24528744428276,8.85741442955204,24.2092283144881,-0.500622844650139,1972.10699883947,2205.41072129839
0.93,1.35527248062607,0.167575220507731,25.1398364199138,-8.24635679838993,-1.32719161024642,0.321570180461562,-25.9183789048446,-5.31520560385787,1.45610616452497,1990.18704582111,2205.41072129839
0.94,1.23992865890641,0.090027417001011,25.5359517178737,-4.40467294693743,-1.19654420170604,-0.337357360010093,-22.5122915391665,-12.8328758882267,1.9180856848163,2006.97337548186,2205.41072129839
0.95,1.13232192413247,0.0976933854970746,25.9390269411963,-4.81459767839175,0.88541311175131,-0.712559161740133,24.2159110866913,-10.469150858706,-2.1623787272812,2022.5163344714,2205.41072129839
0.96,1.02482070083753,0.0384120008546086,26.701451426808,-1.8660111073667,-0.115130580331372,1.01905735861498,-5.83434909267354,26.1229760252507,0.149964638002887,2036.9001584055,2205.41072129839
0.97,0.98532490059992,0.111893201909626,24.4102004589512,-5.54695605272499,-0.631911642020912,-0.76424663888974,-8.68639575751503,-23.4770768333894,2.56377254662025,2050.20449389153,2205.41072129839
0.98,0.905079575688406,0.0475524964398125,24.4591024622924,-2.32893962735739,0.864027923372604,0.27365311231263,22.0792475610477,10.7786121642243,-1.21158212946392,2062.57543098544,2205.41072129839
