t,iq,id,vq,vd,ia,ib,va,vb,theta_e,omega,r
0,0,0,0,0,0,0,0,0,0,0,0
0.01,0.000485764155857754,0.000273915356937595,-0.0234766989614198,-0.0137066499821335,0.00025926235307384,-0.000493740286143496,-0.0122756827047638,0.0242556233065616,-2.14462701492045,-0.00242124570673496,0
0.02,0.000562345219991397,0.000315928952339003,-0.0272821945093561,-0.0158089994899666,0.000300759418570622,-0.000570602332201906,-0.0143298534227615,0.028087326376896,-2.14464562112208,-0.00264528376406669,0
0.03,0.000591187442581115,0.000332208772076857,-0.0287163089115546,-0.0166236425910131,0.000316132416390021,-0.000599937959974045,-0.0150914419963231,0.0295503006578476,-2.14466462475083,-0.00261595397066105,0
0.04,0.000577532044493952,0.000325030430329418,-0.0281132403492711,-0.0162644351421604,0.000308551237852144,-0.000586501642518928,-0.0147794815448525,0.0289214982097192,-2.1446821672885,-0.0023782765886635,0
0.05,0.000591173307266666,0.000333201525021921,-0.0288136726214896,-0.0166733180698014,0.000315561002825157,-0.000600774823871243,-0.0151452245559437,0.0296453948960911,-2.14469890115306,-0.00229098405324474,0
0.06,0.000591946854722355,0.000334094377756603,-0.0288958501490619,-0.0167179952424216,0.000315716369446182,-0.000601949587696497,-0.0151895109113361,0.0297277694931368,-2.14471469641411,-0.0021453092603749,0
0.07,0.000603538057399035,0.000341242527371579,-0.029491862006176,-0.0170756917935938,0.000321560588171757,-0.0006142503051286,-0.0154953859681084,0.0303519717402425,-2.14472921837802,-0.00206826419108061,0
0.08,0.000591907871508726,0.000334971650473114,-0.0289752689342769,-0.0167618998648317,0.000315190202892669,-0.000602674100136343,-0.0152315207621773,0.029808191360156,-2.14474312721579,-0.00187561797146826,0
0.09,0.000589872124472848,0.000334283796115336,-0.0289144360080719,-0.0167274730311852,0.000313846443133542,-0.000600995166126829,-0.0151987472515265,0.0297464459332225,-2.14475591010504,-0.0017438083449804,0
0.1,0.000589010224039918,0.000334207234138791,-0.0289071697773914,-0.0167236442893067,0.000313157093299919,-0.000600466613801467,-0.0151943709825796,0.0297394659215315,-2.14476778846646,-0.0016267104301932,0
0.11,0.000588329525981933,0.00033419767975503,-0.0289062117983006,-0.0167231649915607,0.000312584031027219,-0.000600092446080224,-0.0151934980521389,0.0297387112162384,-2.14477884181078,-0.00151837948249083,0
0.12,0.000587710295438401,0.000334195541654801,-0.028906003133961,-0.0167230509638951,0.000312059026127733,-0.000599757630746329,-0.0151930788077895,0.0297386584610317,-2.14478912926504,-0.00141762933514371,0
0.13,0.000612995390886718,0.000348822558294642,-0.0301441886584523,-0.0174549870264478,0.000325343349634322,-0.000625773306615342,-0.0158350884584722,0.0310257740512978,-2.14479913261055,-0.00145501322738387,0
0.14,0.000630362033715718,0.000359213477845243,-0.0310947286978827,-0.0179749480221059,0.000334278392604122,-0.000643932117892791,-0.0163506500920132,0.0319786983906613,-2.14480856780632,-0.00145638036044077,0
0.15,0.000591160197857052,0.000336931123999119,-0.0291520268689942,-0.0168599438720629,0.000313453546615886,-0.000603936947009885,-0.0153244938619536,0.0299876352154453,-2.14481745591236,-0.00116716639899278,0
0.16,0.000586154016257178,0.000334490956077799,-0.0289345229187939,-0.0167378432667875,0.000310570169832995,-0.000599171845201496,-0.0152079238289553,0.029767113843543,-2.14482514620005,-0.00106809809099234,0
0.17,0.000585194522367922,0.000334223065530766,-0.0289088859591247,-0.0167244388628487,0.000309905690996049,-0.000598428065209566,-0.015193463965978,0.0297420442368942,-2.14483223538728,-0.00099588492838369,0
0.18,0.000584736323170042,0.000334193036901614,-0.0289058022198446,-0.0167229343643237,0.000309533298105801,-0.000598156075712425,-0.0151914954970356,0.0297392064502367,-2.14483882548975,-0.000931023458826806,0
0.19,0.000584361012847629,0.000334189096570906,-0.0289053751208413,-0.0167227334663554,0.000309216617967737,-0.000597950858161254,-0.0151910635714331,0.0297388989882274,-2.14484495817422,-0.000870930874801336,0
0.2,0.00058401761558122,0.000334188057303116,-0.0289052588194789,-0.0167226876076304,0.000308925416536272,-0.000597765271633519,-0.0151908210721717,0.0297388840307891,-2.14485066595794,-0.000815033148499007,0
0.21,0.000583698825042619,0.000334187377579759,-0.0289051887534727,-0.0167226452651247,0.00030865492060128,-0.000597593224257428,-0.0151906272459742,0.0297388911261155,-2.14485597837075,-0.000763011074932921,0
0.22,0.00058340211033558,0.000334186776283223,-0.0289051217380984,-0.0167226168198668,0.000308403140838557,-0.000597433114672675,-0.0151904393779876,0.0297389059567104,-2.14486092280975,-0.000714592835112388,0
0.23,0.000583126001141439,0.000334186219950167,-0.0289050607024797,-0.0167225898042643,0.000308168845216475,-0.000597284124726023,-0.0151902659401421,0.0297389200315593,-2.14486552476468,-0.000669528408595279,0
0.24,0.000582869042265661,0.000334185702413197,-0.028905003829185,-0.0167225613088285,0.000307950800689351,-0.000597145466769931,-0.0151901062808228,0.0297389302811993,-2.14486980795852,-0.000627585442098089,0
0.25,0.000582629735442124,0.000334185220664637,-0.0289049422581671,-0.0167225481357431,0.000307747737357745,-0.000597016331839607,-0.0151899431790917,0.0297389463383655,-2.14487379447038,-0.000588547717651515,0
0.26,0.00058777077277368,0.00033723673464489,-0.0291612298970761,-0.016875239657688,0.000310405294494174,-0.000602371687308511,-0.0153221168265065,0.030006395627756,-2.14487741837226,-0.00058107760054097,0
0.27,0.000573470241489221,0.000329094008123671,-0.0284876846181874,-0.0164677735904211,0.000302817099389406,-0.000587769332624623,-0.0149777179647161,0.0292985273776704,-2.14488111854562,-0.000471234118550316,0
0.28,0.000572998965051094,0.000328921653183666,-0.0283855585160315,-0.0164591546407993,0.000302513086530578,-0.000587369645419682,-0.0148965504655006,0.0292358767268161,-2.14488433134513,-0.000438317032447973,0
0.29,0.000580769178780608,0.000333607512214051,-0.028854146986459,-0.0166936369085219,0.000306491201069142,-0.00059552494061487,-0.0151625939822203,0.0296872877723796,-2.14488717639573,-0.000451976276827734,0
0.3,0.000574732265014664,0.000330422518686488,-0.028571137066139,-0.0165342589190044,0.00030315057253569,-0.000589572682266819,-0.0150114485362968,0.0293997959873005,-2.14488920129316,-0.000401218814525384,0
0.31,0.000580733417929075,0.000333771332239268,-0.0288654648887715,-0.0167018349332012,0.000306369489169977,-0.000595644475362685,-0.0151675098299331,0.029700387185013,-2.14489173951498,-0.000408536858001921,0
0.32,0.00058130933048333,0.000334137680931173,-0.0289000206655029,-0.0167201678034745,0.000306652654831275,-0.000596265609279934,-0.0151864966278837,0.0297345846786889,-2.14489419456692,-0.000388277162490271,0
0.33,0.000581256581538525,0.000334177541775677,-0.0289040469859899,-0.0167221621615798,0.0003065853459632,-0.000596271136857815,-0.0151887260918437,0.0297384807822026,-2.14489649045399,-0.000366239203047708,0
0.34,0.000581138230489493,0.000334181677243294,-0.0289044835488745,-0.0167223684468711,0.000306482448129085,-0.000596210990615238,-0.0151889170503394,0.029738923560512,-2.1448986285926,-0.000345353810512292,0
0.35,0.000581020053835737,0.000334181917457715,-0.0289045054001707,-0.0167223797592141,0.000306381900636169,-0.000596147622554654,-0.0151888700688088,0.0297389751550506,-2.1449006187802,-0.000325871128858978,0
0.36,0.000580909094904372,0.000334181745939554,-0.0289044781324839,-0.0167223677744762,0.000306287719726965,-0.00059608778598985,-0.0151887985943697,0.0297389784181594,-2.1449024711325,-0.000307732778923772,0
0.37,0.000580805644759396,0.000334181543032181,-0.0289044428528721,-0.016722354317287,0.000306199937516719,-0.00059603196135149,-0.0151887250078451,0.0297389741447801,-2.14490419518057,-0.000290850201519765,0
0.38,0.000580709252873099,0.000334181349428444,-0.0289044033421212,-0.0167223546882856,0.000306118148269923,-0.000595979940919191,-0.0151886439100562,0.0297389773707565,-2.14490579981039,-0.000275136949395471,0
0.39,0.000580619714358932,0.000334181168702299,-0.0289043741060358,-0.0167223411960642,0.000306042173041366,-0.000595931619011444,-0.0151885822740441,0.029738972847828,-2.14490729329289,-0.000260512090470102,0
0.4,0.000580536345854899,0.000334181000425307,-0.0289043439758924,-0.0167223262339505,0.000305971433641311,-0.000595886626548456,-0.0151885237620879,0.0297389650337712,-2.14490868332717,-0.000246900242983621,0
0.41,0.000580458638627726,0.000334180843787683,-0.0289043089568373,-0.016722326552233,0.000305905499041931,-0.000595844688797432,-0.015188455709796,0.0297389659326512,-2.14490997707874,-0.000234231240074846,0
0.42,0.000580386445996212,0.000334180697989783,-0.0289042816444804,-0.0167223130166363,0.000305844242515787,-0.000595805727502679,-0.0151884043175876,0.0297389580230259,-2.14491118121645,-0.000222439774326401,0
0.43,0.000580319157940325,0.000334180562282734,-0.028904250114755,-0.0167223133045347,0.000305787148532737,-0.000595769412669356,-0.0151883443571844,0.0297389581633069,-2.14491230194796,-0.000211465061845868,0
0.44,0.00058025668598804,0.000334180435968633,-0.0289042272247733,-0.0167222997436279,0.000305734139724768,-0.000595735697457156,-0.0151883014811659,0.029738950188167,-2.14491334505011,-0.000201250529014499,0
0.45,0.000580198361911918,0.0003341803183979,-0.0289041956274695,-0.0167223000052267,0.000305684652133646,-0.00059570422007883,-0.0151882459356615,0.0297389479930561,-2.14491431590027,-0.000191743520868515,0
0.46,0.000580144213653173,0.000334180208965777,-0.0289041717042722,-0.0167222849673778,0.000305638706554712,-0.000595674996751778,-0.0151882071428235,0.0297389360977646,-2.14491521950305,-0.000182895029666089,0
0.47,0.0005800936894036,0.000334180107109062,-0.0289041417801816,-0.0167222852058656,0.000305595837170048,-0.000595647728760584,-0.0151881568760693,0.0297389328198417,-2.14491606051649,-0.000174659442260004,0
0.48,0.000580046657613675,0.000334180012303843,-0.0289041122611112,-0.0167222854333876,0.000305555931213853,-0.000595622345561538,-0.0151881086877926,0.0297389288678393,-2.14491684327557,-0.000166994304965179,0
0.49,0.000580003044943222,0.000334179924061964,-0.0289040915424375,-0.0167222718223413,0.000305518924957226,-0.000595598808160703,-0.0151880770170551,0.0297389172519425,-2.14491757181586,-0.000159860104713055,0
0.5,0.000579962357788325,0.000334179841929536,-0.028904066170903,-0.0167222720308987,0.000305484401937989,-0.000595576849261313,-0.0151880354348084,0.0297389139465166,-2.14491824989273,-0.000153220065366924,0
0.51,4.7244980173842,-0.0126300876712601,3.77594252412079,0.639028362887095,-0.739791960473132,4.66623498021704,0.0501236430289986,3.82930630982262,0.154559547120995,48.0081505494427,2362.43891199341
0.52,4.69904411978696,0.00570471367093672,5.0496437567169,-0.270088692981427,-3.0470022655278,3.57726506948128,-3.48440258362693,3.66480403392055,0.706733980443984,102.731194375577,2362.43891199341
0.53,4.69390976702279,0.00909977239662485,5.30744249548481,-0.430527495288533,-4.67385029731246,-0.433584023139529,-5.24319136508107,-0.929109291857956,1.66523826564085,159.342325536056,2362.43891199341
0.54,4.68430535997579,0.0119042351446539,5.78879147980761,-0.567565095184959,-0.410329775137105,-4.66631416558596,0.073086531775548,-5.81608934704742,3.05642510340531,220.697123922432,2362.43891199341
0.55,4.64215951016376,0.0436407096304512,7.89724749014165,-2.1455506034406,4.58008852710018,0.757851247453082,7.4087069487511,3.47576849919556,-1.39741492657767,277.334464797971,2362.43891199341
0.56,4.63978262445745,0.0314144465471625,8.01735586344482,-1.52088099866378,-3.42625088747601,3.12879761661552,-6.97469673640757,4.23611608532571,0.837515361642425,333.515698834906,2362.43891199341
0.57,4.67187767306913,0.0131043474528445,6.41392039512967,-0.601992490336361,1.64113527706443,-4.37416137315699,2.83293850924096,-5.78577818416342,-2.77985175167575,392.105699644237,2362.43891199341
0.58,4.67543619687351,0.0347061373518036,6.23733468441738,-1.67987787942223,-1.34188842415863,4.47886633023514,-3.44000178009317,5.46742365362005,0.298516837647457,449.447063123535,2362.43891199341
0.59,4.62561829092276,0.00267840300529332,8.72963804628867,-0.0580665166011652,2.8357602919964,-3.6544240741187,5.40159771758902,-6.8580386581659,-2.48109152712702,505.477078613448,2362.43891199341
0.6,4.64934160854138,0.0340375144083989,7.54491119128637,-1.62429661886863,-4.6057903002283,0.635792148130286,-7.69171841935264,-0.633634080410552,1.44094213761139,563.395896038956,2362.43891199341
0.61,4.61450545366584,0.033020295540011,9.2882711398589,-1.57085611596113,2.2522643813392,4.02766136590206,3.09871115994747,8.89592934165988,-0.502722733491382,620.936364615376,2362.43891199341
0.62,4.62788424613574,0.0193749460580187,8.62093836506511,-0.882108094067048,4.14346875065945,-2.06139629777361,8.12410173554697,-3.01623340846707,-2.02825937841974,678.031100349146,2362.43891199341
0.63,4.61917178177193,0.0403466453446089,9.05821932966564,-1.92376350891893,-0.0142806699485593,-4.61932591010577,1.97484713107262,-9.04721958788834,-3.13594976508154,734.86076602977,2362.43891199341
0.64,4.59419411495977,0.065740427233937,10.308820657517,-3.18341444671436,-2.95736708263462,-3.51637900520593,-4.05634334108887,-9.997599191186,2.45663991410531,791.401376976537,2362.43891199341
0.65,4.60114216942248,0.0815643789159173,9.96325673587471,-3.95919384147089,-3.81558695272342,-2.57263643318534,-5.88971578649572,-8.95840100763506,2.18175154376264,847.641361146859,2362.43891199341
0.66,4.60645349571311,0.0793901849725202,9.69954040982888,-3.83803428722644,-3.42024178920368,-3.08669122411399,-4.46755884001545,-9.42616090265963,2.3222113732796,904.501239527459,2362.43891199341
0.67,4.60277042146264,0.0279225153657613,9.88561778902226,-1.2768033401885,-1.22096363388663,-4.43796383764921,-1.33131608936956,-9.87842413091965,2.87918314753158,961.700028200921,2362.43891199341
0.68,4.55867669338436,0.0631792413432994,12.0922310467289,-3.01384961807964,2.91916111664436,-3.50200273934989,10.1585941740477,-7.21860828795114,-2.43285704719861,1017.51087622529,2362.43891199341
0.69,4.54710994089341,0.0665046135734122,12.6726264280083,-3.197504514995,3.97156829842298,2.21523744306561,9.37772131878268,9.10372663113939,-1.04737956474932,1074.71642112149,2362.43891199341
0.7,4.53193213003423,0.0835087850385351,13.4336324069664,-4.01368755074372,-3.03233670842999,3.36902309803942,-12.1026904756652,7.07792700235993,0.751275175298615,1130.38961459078,2362.43891199341
0.71,4.53804324490037,0.0834477453742265,13.1302369804751,-4.01541460424464,-0.885953173746276,-4.45150390235961,1.62615770602536,-13.6338655091853,2.96352278019929,1186.91105975244,2362.43891199341
0.72,4.52952704066408,0.0585347288973983,13.5582538676942,-2.77682212668461,2.94659072302209,3.4405878331463,6.55326629461428,12.1898191100591,-0.695287631410207,1243.53673914499,2362.43891199341
0.73,4.53308553332576,0.0740864582736425,13.3825662097776,-3.55453349212565,-3.30463158762787,-3.10383042800326,-7.12810507654455,-11.8708847489757,2.34121302618874,1299.78773572896,2362.43891199341
0.74,4.51682472886944,0.114370867707515,14.1978862368008,-5.56562669767719,2.24016557125899,3.92383034037566,1.82327638747599,15.1404041341672,-0.493441664123669,1355.87169273717,2362.43891199341
0.75,4.47572764987497,0.0886032149260826,16.2551129756446,-4.27175634949983,0.911127295108605,-4.38290264295919,7.78707920433885,-14.8942269898714,-2.91683590652606,1411.92586030236,2362.43891199341
0.76,4.51743699119588,0.112492041055354,14.1720518714616,-5.4573510913197,-4.38725266868874,1.08254581880363,-15.0147015427512,-2.27782193409229,1.35377729899383,1467.97055113823,2362.43891199341
0.77,4.46798227976356,0.0974407654316894,16.6472584672908,-4.68925114479742,1.1935716284789,4.30670954706018,-0.449917671079398,17.2892413039156,-0.248551632179302,1523.75805286481,2362.43891199341
0.78,4.48738699434469,0.133496070508313,15.6795893691236,-6.4644863399532,4.46717607357419,0.445871243232039,14.7158335225974,8.43109424446049,-1.44157485921091,1579.22886202245,2362.43891199341
0.79,4.46331987895251,0.120981365079063,16.8855176034201,-5.84418117852461,3.46643382866599,-2.81419568332217,16.9520737730214,-5.64821681390443,-2.22561719660607,1635.21251532499,2362.43891199341
0.8,4.20533811621018,0.116905561525438,15.3286941121156,-5.6562249454574,2.05189170316749,-3.67263883610112,12.704609121438,-10.2739793112452,-2.60430476972706,1689.34979935987,2362.43891199341
0.81,3.86916894245822,0.140033519778044,16.8381867712106,-6.79406383364057,1.86887735741038,-3.39077795128249,14.4834969577236,-10.9504407670818,-2.60167926943821,1739.27237382581,2362.43891199341
0.82,3.59508127048579,0.0728713749837449,16.1502436335874,-3.46939981504442,2.76325979988918,-2.30093782119512,14.7833294872315,-7.37022888198271,-2.24488763284798,1785.87402986452,2362.43891199341
0.83,3.32076587654849,0.0850896524159206,16.7169118007895,-4.11616001479797,-1.76098586529606,2.81667446433283,-12.6553079227951,11.6722360669255,0.584361272182186,1829.07924557203,2362.43891199341
0.84,3.06118113240983,0.0994717895011528,17.3580917679483,-4.79675407358227,-3.06144095682682,0.0911253542750685,-17.3449492869718,-4.84406169441718,1.57352275019136,1868.79277747362,2362.43891199341
0.85,2.87742792535168,0.0752773363787858,15.0799575516555,-3.61322256427416,-0.912442595589851,-2.72996458818044,-0.94893912949166,-15.4777263054762,2.84518852662089,1906.00618966422,2362.43891199341
0.86,2.66355736293317,0.0932072139123974,15.2185055443982,-4.54153019050692,2.48591599139576,-0.960961546620692,15.86641205287,-0.696689345911088,-1.90468589374224,1940.47495313594,2362.43891199341
0.87,2.44211017013944,0.0849071111465295,16.517829730195,-4.14850044359531,0.397641014769924,2.41101491575529,-1.99418525645014,16.9136625273529,-0.128701445040131,1972.41219558357,2362.43891199341
0.88,2.24300545326247,0.0933752674565833,17.3762193028766,-4.58484872441278,-2.16943809379017,-0.577348041609084,-15.2289769268589,-9.54107419783587,1.87250117814224,2001.92542754018,2362.43891199341
0.89,2.06803567661359,0.0826811454692131,17.6953773826913,-4.0491830719958,1.62211499272277,-1.28543793391464,16.682773576935,-7.15592971228203,-2.20095470010613,2029.24209894753,2362.43891199341
0.9,1.86920636118861,0.0693888180333504,19.8019238540134,-3.37785585440697,-0.307376269527133,1.84506559712863,-7.28543664768064,18.7202700660522,0.202182700207863,2054.64205702962,2362.43891199341
0.91,1.76213582430663,0.066334112613404,17.8975659258328,-3.23659427558455,-0.677912085171923,-1.6278691847255,-3.22155931169227,-17.9002783267615,2.78461989951124,2078.19078956271,2362.43891199341
0.92,1.60567193157112,0.0387670337270535,18.9892900883721,-1.88832426913405,1.1225776254694,1.14869696157639,11.5585217883091,15.1841852160375,-0.749759694285875,2100.062900384,2362.43891199341
0.93,1.50975172231015,0.0151872631033173,17.5249288543128,-0.715641335523799,-1.26904595066558,-0.817987341636979,-14.2401157371596,-10.2398426580751,2.15340305837354,2120.373549469,2362.43891199341
0.94,1.38590321991458,0.0705259356580112,17.9194160159094,-3.48982907920431,1.25759254143506,0.586653766967325,14.1992205210471,11.4746029974011,-1.0834704186148,2139.14910354311,2362.43891199341
0.95,1.33478884990935,0.0511058819012081,15.0748826291963,-2.51092352686271,-1.18086880882315,-0.62435722255438,-11.7897174722618,-9.72416501125117,2.0954294728591,2156.58470641072,2362.43891199341
0.96,1.2169567629257,0.0648007023712986,15.9681879130286,-3.18646958840212,0.98339125450202,0.719808679044199,10.3493612993972,12.5708923453407,-0.885739507113143,2172.70646718228,2362.43891199341
0.97,1.14326670989453,0.054724930605209,15.0250362881004,-2.66726038521514,1.14042366840658,-0.0974035139041874,15.1142037447616,2.10400536670107,-1.60816883240469,2187.68287814837,2362.43891199341
