t,iq,id,vq,vd,ia,ib,va,vb,theta_e,omega,r
0,0,0,0,0,0,0,0,0,0,0,0
0.01,0.00134182581923346,0.00076633094845524,-0.0665092513498256,-0.0384126035903056,-0.00024024197519713,-0.00152644798308859,0.0123084646363009,0.0758123362520716,-2.77879202658208,-0.00139732035160389,0
0.02,0.00152464193946181,0.000871642087853775,-0.0756964585086247,-0.0436913454025677,-0.000273835464701176,-0.00173473545855149,0.0139839934940822,0.0862747669935531,-2.77880225762293,-0.0015188120186399,0
0.03,0.00155233007188722,0.000887573127836469,-0.0770836673445981,-0.044489916236521,-0.000278921691420197,-0.0017662721759112,0.0142391930654454,0.0878549361098754,-2.77881257354171,-0.00146980252290586,0
0.04,0.00153863394605696,0.000880233570113608,-0.0764335893136483,-0.0441220116526964,-0.000276936592969237,-0.0017508602689502,0.0141267435957743,0.0871164772188785,-2.77882190993141,-0.00138301331475629,0
0.05,0.00155120390706378,0.000887576959104104,-0.0770747641969553,-0.044490090734729,-0.000279357726281427,-0.00176521547704219,0.0142441482832959,0.0878464096550574,-2.77883115793723,-0.00132566247007052,0
0.06,0.00155068463834683,0.000887584590414796,-0.0770711007461213,-0.0444904873386864,-0.000279564573498676,-0.00176473026323887,0.0142465879457381,0.0878430006645774,-2.77883991066928,-0.00125778868892172,0
0.07,0.0015861524384473,0.000907947716254623,-0.0788355622154114,-0.0455111911200385,-0.000286031678623468,-0.00180511342919722,0.0145754898928926,0.089854713183933,-2.77884814216111,-0.00123332520181836,0
0.08,0.00154975227218962,0.000887610764183804,-0.0770653904751279,-0.0444917785722942,-0.00027994827224647,-0.00176386335602225,0.0142512346648682,0.087837890913528,-2.77885599971217,-0.00113304907382991,0
0.09,0.00154922664062683,0.000887570302326827,-0.0770579789134514,-0.0444897563409113,-0.000280109968132234,-0.00176335550339499,0.014252622046958,0.0878301388948358,-2.77886337929653,-0.00107572728081266,0
0.1,0.0015487934438738,0.000887565967508014,-0.0770540917570667,-0.0444895326571802,-0.000280271915872109,-0.00176294700193689,0.0142544044734912,0.0878263259260392,-2.778870350854,-0.00102164418707887,0
0.11,0.00154838392078493,0.000887561931745951,-0.0770504041272901,-0.0444893488789269,-0.000280425058504431,-0.00176256084586964,0.0142561195158323,0.0878227191346288,-2.77887693702204,-0.000970550948545096,0
0.12,0.0015479972150904,0.000887558118757304,-0.0770469277561521,-0.0444891651529764,-0.000280569666949283,-0.00176219620192747,0.0142577276301396,0.0878193150479739,-2.77888315910499,-0.000922282155062372,0
0.13,0.00161273548357408,0.000924567354564095,-0.0802457179585447,-0.0463442382577472,-0.000292212830323893,-0.00183585189895554,0.0148577215171459,0.0914680916040784,-2.77888941927508,-0.000945025269420866,0
0.14,0.00178138503401574,0.0010218840621171,-0.0887484688606869,-0.0512223046884575,-0.000323372596511102,-0.0020280556796227,0.0164022104717763,0.101148320373366,-2.77889519931093,-0.00108523369784516,0
0.15,0.00154734537844589,0.000887784831311594,-0.0770586683899559,-0.0445005164252223,-0.00028104380099388,-0.00176166228569148,0.0142657150449726,0.0878340691895822,-2.77890069610578,-0.000786715065292188,0
0.16,0.00154660317052004,0.000887544779665254,-0.077034427334788,-0.0444884880409934,-0.000281091340101909,-0.00176088181360743,0.0142635007696512,0.0878070675331235,-2.77890560531008,-0.000748152774673389,0
0.17,0.00154631429500832,0.000887541517445068,-0.0770317967350882,-0.0444883209926817,-0.000281198944056469,-0.00176060926897404,0.0142646850680811,0.0878044826469144,-2.77891024260181,-0.000712177347458325,0
0.18,0.00154604241614794,0.000887538830464767,-0.0770293607656451,-0.0444881743263195,-0.000281300601984462,-0.00176035289059737,0.0142657968400113,0.0878020906093495,-2.77891462354207,-0.000678191500642597,0
0.19,0.00154578501415869,0.000887536292529479,-0.0770270302792025,-0.0444880645257082,-0.00028139683472306,-0.00176011016756406,0.0142668843728589,0.0877998137194392,-2.77891876230259,-0.000646084400565567,0
0.2,0.00154554181483556,0.0008875338947233,-0.0770248257668869,-0.0444879547227304,-0.000281487755123062,-0.00175988083670562,0.0142679071054817,0.0877976578654598,-2.77892267227149,-0.000615752188143919,0
0.21,0.00154531235251394,0.000887531629316829,-0.0770227562132093,-0.0444878420048972,-0.000281573543729827,-0.00175966445646361,0.0142688602406633,0.0877956302350213,-2.77892636609616,-0.00058709674722299,0
0.22,0.00154509546304717,0.000887529489007178,-0.0770207939484643,-0.0444877321936447,-0.000281654628020218,-0.00175945993256484,0.0142697600891417,0.0877937068540996,-2.77892985572515,-0.00056002538552696,0
0.23,0.00154489068077072,0.000887527466893722,-0.0770189444983126,-0.0444876223772035,-0.000281731186850055,-0.00175926682410005,0.0142706029614833,0.0877918916957968,-2.77893315244652,-0.000534450534824616,0
0.24,0.00154469754002331,0.000887525556455635,-0.0770172117951352,-0.0444875125545856,-0.000281803398303247,-0.00175908469046282,0.0142713884000059,0.0877901882850658,-2.77893626692429,-0.00051028946767056,0
0.25,0.00154451445237322,0.000887523751530587,-0.0770155421539829,-0.0444874395507815,-0.000281871838046309,-0.00175891204158624,0.0142721707660114,0.0877885593496223,-2.77893920923294,-0.000487464029806585,0
0.26,0.00155329050199864,0.000892549002106918,-0.0774539721877519,-0.0447393062187497,-0.000283461786747595,-0.00176889923970109,0.0143523647384946,0.0882877848573024,-2.77894198256783,-0.000475746804569952,0
0.27,0.00149836831271835,0.000861409062749875,-0.074760144821042,-0.0431784169986209,-0.000273835640640944,-0.0017065014549835,0.0138488707687799,0.0852153960654975,-2.77894467350474,-0.000394919918269198,0
0.28,0.00144647211393237,0.000831281164184504,-0.0720422622135179,-0.0416682494600773,-0.000264081671098655,-0.00164729196601624,0.013401304654495,0.0821385146655691,-2.77894721829787,-0.000318530333201896,0
0.29,0.00154369672130383,0.000887418064914383,-0.077000809590685,-0.0444821258609593,-0.000282081101842791,-0.00175810711883086,0.0142733268563453,0.0877727539683192,-2.77894943678436,-0.000407922364675678,0
0.3,0.00154270164556683,0.000886932876514355,-0.0769563027545226,-0.0444578235569491,-0.000281983570221012,-0.00175700414364965,0.014266548616038,0.0877224954025635,-2.77895120194012,-0.000393259665236462,0
0.31,0.00154363583491084,0.000887514064288077,-0.0770075013746449,-0.0444869458523033,-0.000282199279242447,-0.00175808315273342,0.0142758001161575,0.0877806650138584,-2.77895331733984,-0.000378015801300212,0
0.32,0.00154351374895076,0.000887513866870823,-0.0770064735386898,-0.0444869251351525,-0.000282245919326803,-0.00175796837232966,0.01427632090188,0.0877796681262361,-2.77895531709353,-0.000362504561189845,0
0.33,0.00154339601167298,0.000887512709399964,-0.0770053825727341,-0.0444868888252942,-0.000282289924365552,-0.00175785734824991,0.0142768397962658,0.0877786082594101,-2.77895720630245,-0.000347848710789745,0
0.34,0.00154328533434107,0.000887511614162465,-0.077004377908016,-0.0444868157031864,-0.000282331299170089,-0.00175775297638048,0.0142772844870618,0.0877776175120134,-2.77895899107547,-0.000334003035311524,0
0.35,0.00154318040274349,0.000887510579435509,-0.0770034086253625,-0.0444867764512776,-0.00028237051854319,-0.00175765402576251,0.0142777396302652,0.0877766732680207,-2.77896067718558,-0.000320922751973087,0
0.36,0.00154308171618757,0.000887509601880403,-0.077002513604753,-0.0444867033040294,-0.000282407411884427,-0.00175756096052883,0.014278128554517,0.0877757877622958,-2.77896227008706,-0.000308565549730075,0
0.37,0.00154298807687925,0.00088750867833969,-0.0770016461317967,-0.0444866669342158,-0.000282442410248558,-0.00175747265822623,0.0142785343604974,0.0877749423152097,-2.77896377493238,-0.000296891456494744,0
0.38,0.00154289967626005,0.000887507805830053,-0.0770008282037179,-0.0444866305497199,-0.000282475451535237,-0.00175738929543019,0.0142789152733026,0.0877741443726089,-2.77896519658937,-0.000285862709843851,0
0.39,0.00154281628149933,0.000887506981533225,-0.0770000598977943,-0.044486594151039,-0.000282506623824563,-0.0017573106521685,0.0142792716700138,0.087773393941428,-2.77896653965662,-0.000275443634871283,0
0.4,0.00154273731052048,0.000887506202785857,-0.0769993232035993,-0.0444865577402647,-0.000282536138778082,-0.00175723618205969,0.0142796103231156,0.0877726741213359,-2.77896780847867,-0.000265600528786447,0
0.41,0.00154266287973883,0.000887505467071729,-0.0769986344433313,-0.0444865213161503,-0.000282563959991726,-0.00175716599190859,0.0142799258020105,0.0877720001141545,-2.77896900715986,-0.00025630155189544,0
0.42,0.00154259252349309,0.000887504772014128,-0.0769979801988078,-0.0444864848804308,-0.000282590257269154,-0.0017570996444087,0.0142802232087414,0.0877713593196626,-2.77897013957752,-0.000247516624611892,0
0.43,0.00154252612536793,0.000887504115366696,-0.0769973640242362,-0.0444864484332104,-0.000282615076267961,-0.0017570370288931,0.0142805016043794,0.0877707550087656,-2.7789712093947,-0.000239217330153758,0
0.44,0.00154246321969766,0.000887503495007543,-0.0769967714771506,-0.0444864090655249,-0.000282638586291529,-0.00175697770825637,0.0142807636962007,0.0877701725969765,-2.77897222007196,-0.000231376822627685,0
0.45,0.00154240403932171,0.000887502908932406,-0.0769962225394351,-0.0444863725970296,-0.000282660708636589,-0.00175692189856933,0.0142810081244681,0.0877696327845391,-2.77897317487868,-0.000223969740184863,0
0.46,0.00154234769430611,0.000887502355246159,-0.0769956805989622,-0.0444863728913657,-0.000282681762657042,-0.00175686876623155,0.0142812798091668,0.0877691133083804,-2.77897407690316,-0.000216972122986009,0
0.47,0.00154229480035718,0.000887501832159958,-0.0769951839051097,-0.0444863364029655,-0.000282701533417382,-0.00175681888545733,0.0142814966756099,0.0877686238005588,-2.77897492906348,-0.000210361335697063,0
0.48,0.00154224493320626,0.000887501337983022,-0.0769947182756491,-0.0444862999054224,-0.000282720174692368,-0.00175677185819444,0.0142816983788905,0.0877681640062965,-2.77897573411603,-0.000204115994272029,0
0.49,0.0015421974357551,0.000887500871117948,-0.0769942574890343,-0.0444863001683335,-0.000282737922663659,-0.00175672706877664,0.0142819288275957,0.0877677224150102,-2.77897649466498,-0.000198215896778263,0
0.5,0.00154215292370862,0.000887500430055715,-0.0769938386450807,-0.0444862636535216,-0.00028275456184981,-0.00175668509164427,0.0142821063215137,0.0877673075932966,-2.7789772131705,-0.000192641958050768,0
0.51,4.58425449314599,0.0531039605910572,10.7892539263006,-2.65416127513868,-0.372361144908848,4.56941533090633,-3.64353065402205,10.4965354633727,0.0928936953884522,28.4744875407058,5372.45817431073
0.52,4.50099394759184,-0.0520334133767032,14.954503933437,2.6260677470035,-1.87926153435036,4.09023594403515,-3.68714027172228,14.7288294281548,0.419125319271544,60.591530458986,5372.45817431073
0.53,4.46372198120854,-0.0488511171286761,16.8204775087813,2.47817048075108,-3.74529012216771,2.4289920250923,-12.6402673480087,11.3707270623275,0.984500503826618,94.0750797098758,5372.45817431073
0.54,4.45706009015124,0.0302631808471441,17.1561235759256,-1.49025974513506,-4.34155666215394,-1.00855652129206,-16.3373380190829,-5.44470721991816,1.80584071633132,129.798353623372,5372.45817431073
0.55,4.42991406421196,0.0720224510529694,18.5158777617145,-3.56552855988594,-1.2259026277095,-4.25752141475924,-1.39144742685944,-18.8046429707241,2.87749499780541,162.186529476523,5372.45817431073
0.56,4.38824100208369,-0.00285979946664178,20.6022065688915,0.182358424486374,3.80145284945692,-2.19217323772035,17.749398397538,-10.4615021210021,-2.09453435820762,196.440625508218,5372.45817431073
0.57,4.40193781067236,0.00997125848086444,19.9201715445005,-0.433352180830627,2.24728636703652,3.78508386955355,9.75771040834153,17.372049852044,-0.533525108239082,228.937433087355,5372.45817431073
0.58,4.37065171166742,0.123545115971402,21.4873927916543,-6.13381161288448,-4.13822099584321,1.41173183358037,-22.3401054596145,0.501380034004324,1.27029161729598,263.027760174062,5372.45817431073
0.59,4.38820165038801,0.0338979654872786,20.6127873037594,-1.64063149244072,0.735114766244766,-4.32632281238711,5.22511531566203,-20.0069198544415,-2.96555875394065,296.439993204959,5372.45817431073
0.6,4.31752428050245,-0.0376699079145748,24.1496708496987,1.95827233177175,2.66382808732219,3.3980074832001,16.5951119397235,17.653432878118,-0.673594846269617,329.360607126699,5372.45817431073
0.61,4.36743229374274,0.00221513129243123,21.6574530677259,-0.0176723121144212,-4.18446698149825,-1.25088202001008,-20.7419334884525,-6.23039170935312,1.8617826091343,362.364756986773,5372.45817431073
0.62,4.30940457060836,0.0207523063900916,24.5620357110166,-0.963755425450832,4.29656084038476,-0.333111627345793,24.5672742439312,-0.81942602644612,-1.64335582464799,395.622423280193,5372.45817431073
0.63,4.30265908023673,0.026569337252257,24.9026550180874,-1.24898288194244,-4.21714494362652,0.853972841998427,-24.6776349319894,3.56602290412062,1.37717287336739,428.785336786102,5372.45817431073
0.64,4.2988100173394,0.051584287310615,25.0984326292429,-2.47892379193721,4.28369084850002,-0.363897263457885,25.2122250759799,0.648143756436691,-1.64354324191829,461.585794567486,5372.45817431073
0.65,4.25448081817518,0.0532078504215047,27.3182898541645,-2.52401078640016,-4.09280613545613,-1.16291704138329,-25.4625193276387,-10.2137016059624,1.86014265129733,494.196638561968,5372.45817431073
0.66,4.27342160015444,0.0304861858996763,26.3747281037613,-1.42768398867535,2.70370976244957,3.30953397030943,15.4281627270833,21.4391314886003,-0.677854869884855,527.590459442362,5372.45817431073
0.67,4.25925684252276,0.0876059934833824,27.0865095841116,-4.23339730280556,0.620724442178406,-4.21469391860826,8.67150606354036,-26.0077995371303,-2.97480207362839,559.987544064215,5372.45817431073
0.68,4.23944880061875,0.0707946453615784,28.0805027082093,-3.42740360443013,-4.00376923542231,1.39562528078473,-27.7403299994895,5.54398947805921,1.25208648483486,593.181191170781,5372.45817431073
0.69,4.26294966248817,0.110332081297317,26.9090904298134,-5.40389082041772,2.37176233917649,3.54396055276233,9.81546873571665,25.6311871995239,-0.563906599108718,625.833430538682,5372.45817431073
0.7,4.23900706107348,0.064035178944198,28.1099548324578,-3.01875452982727,3.53647730733956,-2.33807819001965,25.3067233544194,-12.603657907808,-2.13985239406951,658.300304766119,5372.45817431073
0.71,4.30634770807893,0.128320464685642,24.746719491964,-6.23803901939216,-1.53569150289055,-4.02526375936827,-2.23654215562004,-25.4226500508414,2.80691315605687,690.983468072548,5372.45817431073
0.72,4.17831048562532,0.0670066646791172,31.1523922741294,-3.16399648657141,-4.14727427683591,-0.512722615156714,-30.413249478107,-7.450951237976,1.709836416911,723.648954270326,5372.45817431073
0.73,4.18075115218788,0.112399261848394,31.0343111674994,-5.42361410634259,-3.07153067192706,2.83848782311914,-26.9226219894976,16.3620440295923,0.851688045665555,756.17551864778,5372.45817431073
0.74,4.13900324565181,0.115753572499792,33.1257407922513,-5.57798579640496,-0.838112101360284,4.0549124358753,-13.0381385980135,30.9586106031797,0.23177967633748,788.70287097179,5372.45817431073
0.75,4.17257553976218,0.0522584474222191,31.4511892965933,-2.47338851250388,0.675267335164135,4.11790378790095,2.25480306884338,31.4676154486587,-0.150013064280583,821.414921580392,5372.45817431073
0.76,4.18666015065154,0.0854874465610547,30.751113883341,-4.08935571620639,1.29496515988733,3.98227278764917,4.99666562162793,30.6167791889598,-0.293980725217629,853.679666036354,5372.45817431073
0.77,4.0887353873851,0.192604603927743,35.6515431473704,-9.40640325922455,1.00444489335714,3.96811593299869,-2.10474450317579,36.8114520447145,-0.200849993476072,885.937072947002,5372.45817431073
0.78,4.05797413438665,0.0774555973243625,37.1938638982398,-3.69007252738049,-0.447185029490569,4.03400285006189,-8.46189482240463,36.4059951512478,0.129488099490906,918.380584306141,5372.45817431073
0.79,4.00682611716794,0.111336794739837,39.7555411177042,-5.41618161597411,-2.48462894076041,3.14542055086722,-29.6551274625421,27.0261260272179,0.696343614436329,950.655248547173,5372.45817431073
0.8,3.99709817338178,0.147311776544227,40.2461378126841,-7.12434130880802,-3.97677987211257,0.428621529931633,-40.648134701625,-4.27047927058529,1.5002677501964,982.839530766705,5372.45817431073
0.81,4.14709871653432,0.11991436757948,32.7504940621385,-5.77335101525123,3.47510537780426,2.26637371882674,23.6113553981635,23.4185896142592,-0.963987070787971,1015.07802256852,5372.45817431073
0.82,4.03494847692452,0.0778435618673243,38.3623740022575,-3.69122516541785,-1.16355133929105,3.86432621712941,-15.2802123149183,35.3809552432084,0.311756245370341,1047.28297937023,5372.45817431073
0.83,4.08690182368176,0.138445755549957,35.7690493623175,-6.72658576537107,-3.99210938119643,-0.886000243908863,-32.9580714129089,-15.4414175866206,1.82305681294757,1079.43473818466,5372.45817431073
0.84,4.03469311119348,0.173944880624916,38.3838546464018,-8.49090671877299,1.51653793236806,-3.74287563548357,23.6578559571177,-31.3962043236962,-2.71354323223583,1111.43396558506,5372.45817431073
0.85,3.99844738112149,0.0758551109624741,40.2005174686805,-3.5345986972909,2.72943568877731,2.92292940015409,24.2459758652943,32.2600007290785,-0.732210314801484,1143.37012033496,5372.45817431073
0.86,3.98689051206274,0.167476944264589,40.7826749588673,-8.07872128160556,-3.95706815482864,0.514738865908862,-41.3320668850736,-4.48916042866511,1.48342402440451,1175.24092043882,5372.45817431073
0.87,3.99243149896174,0.0828057500999497,40.5098918777473,-3.95396993052314,2.78206956121841,-2.86469108678292,31.5979725716145,-25.6564484588525,-2.35008740570215,1207.34516834232,5372.45817431073
0.88,3.99697410206895,0.146017275139215,40.2870400526673,-7.03714218775436,-1.17057695586588,3.82450945974052,-19.8386864776196,35.7630184019555,0.333534206480324,1239.13087045618,5372.45817431073
0.89,3.87723811458565,0.103899383910889,46.2780022495241,-5.00710477708247,0.318312240552258,-3.86554624816304,10.0095032427505,-45.4591512821017,-3.03264117839205,1271.00428745873,5372.45817431073
0.9,3.93358699852365,0.287745604267714,43.4646837508161,-14.1080420605201,-0.176176759849603,3.94016065116876,-19.114597945006,41.507200938399,0.117704211962437,1302.71832873606,5372.45817431073
0.91,3.93077430041375,0.241361172933359,43.6093303289986,-11.8621677980264,1.15643522374646,-3.76455832600206,26.4409802364391,-36.6518659927225,-2.78222655438244,1334.58532734232,5372.45817431073
0.92,3.88954663060033,0.0746177704056312,45.6747131358992,-3.52754940313881,-2.82869551790867,2.6706970008292,-36.1784598551299,28.1023498545766,0.833302267882508,1366.23686985518,5372.45817431073
0.93,3.7704008069653,0.169955233700398,48,-8.1636583195851,-3.41557865380743,1.60581116146381,-47.4514759356285,10.9088380998802,1.17636381471331,1397.75216353134,5372.45817431073
0.94,3.84422901693989,0.28128356511803,47.9483789232845,-13.7268663629759,3.43609935479991,1.74655042945566,33.9478253378326,36.5379125888424,-1.02749496991598,1429.36392364648,5372.45817431073
0.95,3.76267063274415,0.220613563488296,48,-10.6863802601591,0.313192134158679,-3.75609788504126,17.3606662889849,-46.0087599166422,-2.99983765265579,1460.88684418351,5372.45817431073
0.96,3.77813648560307,0.181154040284659,48,-8.85611811693111,-3.77126176313693,0.29106151249845,-48.2374651946169,-7.45505061680706,1.5416815007697,1492.40163961413,5372.45817431073
0.97,3.77799296204437,0.132562045411531,48,-6.40611689976984,0.017437765210414,3.78027769369989,-7.86503609034368,47.7826280255817,0.0304607717078924,1523.89074786275,5372.45817431073
0.98,3.73989569019817,0.216521307935256,48,-10.5257270593893,3.61795743322601,0.971640500245581,42.2472361604182,25.0990431477898,-1.25059619986159,1555.17393044257,5372.45817431073
