t,iq,id,vq,vd,ia,ib,va,vb,theta_e,omega,r
0,0,0,0,0,0,0,0,0,0,0,0
0.01,0.000364836237051876,0.000182267930777707,-0.0138919298033048,-0.00911466461180853,0.000297245250465527,0.000279235276302701,-0.0133583660523095,-0.00988012555882802,-0.353311030272663,-0.00877230545523231,0
0.02,0.000551405488553802,0.000258899476883538,-0.0222937467912478,-0.0129467762818279,0.000433728830410142,0.000427733858384951,-0.0198620592833936,-0.0164355943946951,-0.353384143024833,-0.0105797174727745,0
0.03,0.000640315825642112,0.00029800787569185,-0.0271226004940445,-0.0149024601593729,0.000501226986766994,0.000497578695563414,-0.0233695387789446,-0.0202875191588484,-0.353458013944488,-0.00947603289218753,0
0.04,0.000644927363117284,0.000306673484029299,-0.0287179727011586,-0.0153358065469751,0.000510982076858446,0.000498875983219788,-0.024329579106656,-0.0216328569311522,-0.353515985302022,-0.00669296885201371,0
0.05,0.000639592391166542,0.00031738622133638,-0.029530810648249,-0.0158715230653209,0.000519204977052826,0.00049014144094934,-0.0251144582660762,-0.0222089623340953,-0.353555940452314,-0.00452437533845103,0
0.06,0.000621038431170937,0.000321731788408519,-0.029530846092794,-0.0160888272494097,0.000516869564203577,0.000471217497832803,-0.0253188906464694,-0.0221331201968851,-0.353581094318931,-0.00271211694387227,0
0.07,0.000604181423918148,0.000325731023126218,-0.0292839656212877,-0.0162888106251194,0.000514790366157565,0.000454011862560852,-0.0254213001099778,-0.021831937495518,-0.353594012918534,-0.00156579829674372,0
0.08,0.000586847483436085,0.000325117049813829,-0.0288735393052107,-0.0162581153348056,0.000508215179257876,0.000437959354811379,-0.0252505344925976,-0.0214573552444733,-0.353600989793784,-0.000704605387395449,0
0.09,0.000574677735465983,0.000324867962515455,-0.028518079327969,-0.0162456600036367,0.000503768317576836,0.000426627677155453,-0.0251158079493614,-0.0211281449389407,-0.353603179193299,-0.000236368800045245,0
0.1,0.000567194666896785,0.000324767009896278,-0.028260659057022,-0.0162406110376328,0.0005010822805394,0.00041964264440421,-0.0250219272584558,-0.0208884047616247,-0.353602962344774,-2.71522196158261e-05,0
0.11,0.000563205692603669,0.00032472617669956,-0.0280978291970099,-0.0162385611426917,0.000499662194835407,0.00041591517532708,-0.0249635956962639,-0.0207363874260381,-0.353601816927285,3.2526946328653e-05,0
0.12,0.00056148253140901,0.000324709717006318,-0.0280080153322258,-0.0162377434895761,0.000499049529672328,0.000414304960541896,-0.0249317015914189,-0.0206524451879168,-0.353600539539251,1.89029818793063e-05,0
0.13,0.000577817397392075,0.000333394721841862,-0.0285614360170757,-0.016672054505453,0.00051285367269092,0.000426621724351208,-0.0255307829303835,-0.0210212309761332,-0.353600680408516,-0.0004545424805249,0
0.14,0.000588406409472159,0.000338569824159094,-0.0292662066852323,-0.0169308429387468,0.000521376033865335,0.000434762762722258,-0.0260176414880883,-0.0215927447944108,-0.353602269337622,-0.000686048153551367,0
0.15,0.000575025363592679,0.00033032637791922,-0.0285552209077992,-0.0165186136925778,0.000509009844735959,0.000425063127883375,-0.0253847575565682,-0.0210684437776521,-0.353604217072467,-0.000194340626724766,0
0.16,0.000566977477942258,0.00032698172689635,-0.0282708540311075,-0.0163513536665767,0.000503085068277933,0.000418671618686615,-0.0251293636790193,-0.0208596029555993,-0.353603681045314,1.54238986948396e-05,0
0.17,0.000562805877831687,0.000325624777806828,-0.0280948545709321,-0.016283501208278,0.000500366934541269,0.000415228711508989,-0.0250047343763724,-0.0207180241270464,-0.35360225309666,6.62477650387818e-05,0
0.18,0.000561094024253913,0.00032507431537525,-0.0280002684286741,-0.0162559779286128,0.000499257134307449,0.000413814123022949,-0.0249461300419601,-0.0206388576821239,-0.353600768259604,4.18470915222613e-05,0
0.19,0.000560743557832368,0.000324851049769757,-0.0279588147356642,-0.0162448179213689,0.000498925830204813,0.00041356324563657,-0.0249212814335716,-0.0206038628036187,-0.353599576945378,-7.82573355863491e-06,0
0.2,0.000561019513191684,0.000324760511757176,-0.0279477207626409,-0.0162402849953021,0.000498936111835606,0.00041385388784568,-0.0249131705068914,-0.020595045225727,-0.353598758530335,-5.71463292925689e-05,0
0.21,0.000561490293848521,0.000324723803540952,-0.0279512733903312,-0.0162384457170918,0.000499064490579361,0.000414308499689499,-0.0249126650577802,-0.0205990272383633,-0.353598265668504,-9.58090352732767e-05,0
0.22,0.000561939655814775,0.000324708920923642,-0.0279599911971999,-0.0162377005851241,0.000499206025704503,0.000414735342121863,-0.0249149795162598,-0.0206074700956714,-0.353598009771083,-0.000121911171943131,0
0.23,0.000562284535728796,0.000324702885104777,-0.027968930667201,-0.0162373981456975,0.000499319743029131,0.000415061027966294,-0.0249177891351714,-0.0206159638587123,-0.353597904428473,-0.000137359865138694,0
0.24,0.000562513524473031,0.000324700434654118,-0.0279760400205983,-0.0162372751125754,0.000499396728248213,0.000415276709309137,-0.0249201350561558,-0.0206226765260606,-0.353597882537148,-0.000145199039428415,0
0.25,0.000562646761730294,0.000324699437560264,-0.0279808809870687,-0.0162372252011454,0.000499441936506073,0.000415402040554211,-0.0249217648819468,-0.0206272348659285,-0.353597899120474,-0.000148284183212791,0
0.26,0.000564443102748068,0.000325859107220758,-0.0280311532794987,-0.0162952270808985,0.000501151719056615,0.000416685887072235,-0.0249935779665896,-0.0206543225554557,-0.353597490295444,-0.000221716743302797,0
0.27,0.000561951799941705,0.000323702863343507,-0.0279721062460042,-0.0161873944834793,0.000498266615613958,0.000415094867420833,-0.0248719908146194,-0.0206362433819484,-0.353598492544875,-9.79635070864388e-05,0
0.28,0.000561069462013717,0.000323371242668078,-0.0276417510033052,-0.0161708110875004,0.000497650023427849,0.000414381896288099,-0.0247420415051699,-0.0203320661004434,-0.353598599655622,-6.66142855958147e-05,0
0.29,0.000561579714487225,0.000324160110271143,-0.0279514385445039,-0.016210257920965,0.000498566595761557,0.000414587629344249,-0.0248862763688367,-0.0206089453166645,-0.353598169506276,-0.000103281055220821,0
0.3,0.000550535298983737,0.000319462374792441,-0.0275096725422016,-0.0159753461733285,0.000490333942687841,0.000405854590935394,-0.0245128681268202,-0.0202759232819116,-0.353595356772543,8.00039235074133e-05,0
0.31,0.000557114753814274,0.000322574374653859,-0.0277137311520019,-0.0161309624559462,0.000495531413889217,0.000410949746258372,-0.024729502676064,-0.0204134892048158,-0.353594655001438,-0.000148881561124362,0
0.32,0.000560971691997604,0.000323836997582739,-0.0278542122065265,-0.0161941062575084,0.000498051652098184,0.000414130646135162,-0.0248373935348755,-0.020523403653376,-0.353595084270049,-0.000240730211613129,0
0.33,0.000562903391522755,0.000324349230466157,-0.0279389737836896,-0.0162197128972452,0.000499201420883235,0.000415765069335998,-0.0248907830042848,-0.0205940346699806,-0.353595880216632,-0.000257481313368329,0
0.34,0.000563643227219767,0.000324557007714804,-0.0279830749924725,-0.0162301080214828,0.000499652851784271,0.000416386799203993,-0.0249158220832209,-0.0206317886364857,-0.35359665501281,-0.000240238107108425,0
0.35,0.000563742536114744,0.000324641271572066,-0.0280012918339336,-0.0162343268317654,0.000499766540929479,0.000416450485412605,-0.0249261003216703,-0.0206474026164001,-0.353597256053465,-0.000212899648096546,0
0.36,0.000563561221936134,0.000324675436739874,-0.0280051283249141,-0.0162360370940848,0.000499735975436166,0.000416268356889207,-0.0249290415673345,-0.0206503995009664,-0.353597658561533,-0.000187300060338591,0
0.37,0.000563304973160227,0.000324689286523287,-0.0280023136751722,-0.0162367187226275,0.000499660334090277,0.000416023047566884,-0.0249287112606657,-0.0206475170643546,-0.35359789482639,-0.000167862766772507,0
0.38,0.000563072783245202,0.000324694900988802,-0.0279973815950337,-0.0162370005091278,0.000499585248854174,0.000415803219187802,-0.0249272702032313,-0.0206427895868375,-0.353598013372534,-0.000155065944613872,0
0.39,0.000562900023087443,0.00032469717816273,-0.0279926400759092,-0.0162371147510867,0.000499527581489612,0.000415640335903318,-0.0249257364464275,-0.0206383007164492,-0.353598058955544,-0.000147687554803114,0
0.4,0.000562788089827112,0.000324698103122373,-0.0279889704410199,-0.0162371603738078,0.00049948969209954,0.000415535004191973,-0.0249245086720774,-0.0206348421561343,-0.353598065261775,-0.000144077319245271,0
0.41,0.000562724701714458,0.000324698479976756,-0.0279865070994993,-0.01623717961742,0.000499468091339231,0.000415475412693444,-0.0249236735044063,-0.0206325248237931,-0.353598054312684,-0.00014276331566784,0
0.42,0.00056269443374237,0.000324698634332457,-0.0279850424738762,-0.0162371870911581,0.000499457748605187,0.000415446971658535,-0.0249231730298474,-0.0206311486113162,-0.353598038707336,-0.000142659691169625,0
0.43,0.000562684130991018,0.00032469869805869,-0.0279842872132232,-0.0162371901214737,0.000499454234914364,0.00041543729131631,-0.0249229140522277,-0.0206304393801567,-0.353598024543158,-0.000143068499214409,0
0.44,0.000562684072785656,0.000324698724636051,-0.0279839661283648,-0.0162371916565441,0.000499454235305158,0.000415437232783331,-0.0249228040906545,-0.020630137891533,-0.353598013982687,-0.000143597741837066,0
0.45,0.000562688089116545,0.000324698735834661,-0.0279838728429582,-0.0162371931756971,0.000499455633722539,0.000415441000178212,-0.0249227730720868,-0.0206300500220679,-0.353598007134021,-0.00014406293899764,0
0.46,0.000562693036767707,0.000324698740580714,-0.0279838863239268,-0.0162371932360484,0.000499457349811167,0.000415445642029342,-0.0249227777166886,-0.0206300627449304,-0.353598003249192,-0.000144403010078218,0
0.47,0.00056269722771928,0.000324698742579675,-0.027983924046709,-0.0162371932994074,0.000499458802139203,0.000415449573933416,-0.0249227908003211,-0.0206300981582185,-0.353598001393654,-0.000144619887551413,0
0.48,0.000562700254517638,0.000324698743396044,-0.0279839531682885,-0.0162371933673701,0.000499459850746077,0.000415452413508324,-0.024922800935011,-0.0206301254704897,-0.353598000755945,-0.000144740619272638,0
0.49,0.000562702117162781,0.00032469874370392,-0.0279839580302648,-0.0162371934399338,0.000499460496019711,0.000415454160814553,-0.0249228026864961,-0.0206301300067506,-0.353598000747596,-0.000144796661030058,0
0.5,0.000562703164900674,0.000324698743798809,-0.0279839425502788,-0.0162371935157166,0.00049946085901804,0.000415455143574756,-0.0249227974023863,-0.0206301154520216,-0.353598000996495,-0.000144814547923693,0
0.51,4.72508589314029,-0.00022500888013971,3.74615495570463,0.0303344411539382,-1.65615362431948,4.42533523259378,-1.28445838279215,3.51919931139818,0.358059786861083,111.206969496049,4856.74387973231
0.52,4.73475272940404,0.0366866845936524,3.26340362439988,-1.79128984478744,-4.72434097889054,-0.315961447966395,-3.12096643726576,-2.02930801537015,1.64532458445961,242.063454318534,4856.74387973231
0.53,4.71776397077133,0.0703015299758669,4.11357930172711,-3.45512351439714,3.31461408467823,-3.35791194921453,5.3556080759721,-0.420565462110423,-2.34778302714577,379.367369230898,4856.74387973231
0.54,4.71674111201915,-0.00210635689665351,4.16562810022223,0.183486910603607,-3.71682807139909,2.90393530269026,-3.16836973129277,2.71063796209522,0.907119469244927,512.306412574579,4856.74387973231
0.55,4.68976395301153,0.0475613678096787,5.51552841469889,-2.2816787223985,4.29292598584397,1.88863297089187,4.08582427892689,4.35122413204933,-1.14619793457914,644.14171523419,4856.74387973231
0.56,4.65287713366128,0.0510281863525064,7.36102936489517,-2.43234261573986,3.64591212092119,-2.89122712758275,7.30777503596117,-2.58794666385842,-2.23029096812429,775.759400539371,4856.74387973231
0.57,4.64164239659187,0.0385035326247851,7.92406244968472,-1.76867429051146,3.27178735444269,-3.2926788739828,6.8759626379225,-4.31741962916665,-2.35108194690782,905.510580448748,4856.74387973231
0.58,4.62522038918267,0.0848485987888372,8.74659933515954,-4.08183564783099,4.62152382173071,0.20342197128894,8.47535588194506,4.61873628388722,-1.50846579670084,1037.93267403396,4856.74387973231
0.59,4.61668006344673,0.099743447416939,9.17520329474476,-4.81383642018321,-1.23798094658539,4.44871742633994,-7.25880920691059,7.39371797391864,0.293012993898751,1168.89481492495,4856.74387973231
0.6,4.6172890222725,0.0794783101246519,9.14644329777688,-3.77648395488431,-0.493428443699144,-4.59153602707493,2.94061918386904,-9.44838689281973,3.05175021331662,1299.05768688828,4856.74387973231
0.61,4.55787792309777,0.102195160588073,12.1188170759372,-4.87444906504902,-2.0219520894845,4.08612343921949,-9.93616176884788,8.4793083627776,0.481924031652649,1428.18898664965,4856.74387973231
0.62,4.52502978444792,0.111378926459352,13.7631746562401,-5.347280646233,4.15117866251714,1.8044432734953,10.2317180330207,10.6456720323569,-1.13614447895128,1558.82969517617,4856.74387973231
0.63,4.50344217940085,0.190911868416045,14.844653503549,-9.26597089649793,4.3353828768132,-1.23365072696599,16.5933746282882,5.55714609673497,-1.80565591536788,1687.3284762553,4856.74387973231
0.64,4.532254918735,0.1664581327449,13.4062325838523,-8.01916843381027,4.53524909261959,0.0236352754946032,13.0583697174127,8.57397893544896,-1.52887397050448,1816.14998942198,4856.74387973231
0.65,4.46716952651822,0.141706027163533,16.6628657301743,-6.81631915771632,1.49044908882222,4.21357872721236,-1.43915167341189,17.9455326937537,-0.308278619034535,1945.2210542615,4856.74387973231
0.66,4.47499887024461,0.199855589848396,16.2738988065948,-9.67946085632636,-4.35380546268637,-1.05353459296148,-12.9368658338545,-13.8263967552392,1.85284361112523,2073.03999625344,4856.74387973231
0.67,4.4416828115469,0.163835162817253,17.9422652505906,-7.891062116721,4.35372233632955,0.894701054605214,15.5576448338407,11.9228113663082,-1.33124637636593,2201.24170760153,4856.74387973231
0.68,4.42206014651001,0.164943500215531,18.9261445375593,-7.87047632560339,-2.02481472871633,-3.93471061349992,-0.899180787325766,-20.4776663357955,2.70361370475622,2328.21354516252,4856.74387973231
0.69,4.37061323287448,0.170952144646829,21.5013013038111,-8.18681646564681,-4.26709260095217,0.960939853495574,-22.6296650469562,-4.15068445705318,1.3883876928675,2455.57813403854,4856.74387973231
0.7,4.41466266022397,0.193758160702064,19.3017735162422,-9.33343129502345,-4.27432913052333,1.12111512003634,-20.8368348762147,-5.04952601266657,1.35814571485695,2582.73455471839,4856.74387973231
0.71,4.40445679795034,0.272040677518515,19.8151387358971,-13.1737733972526,-4.2524591995778,-1.17891330095212,-14.4369181207727,-18.9146351754168,1.90292194984311,2708.62574717908,4856.74387973231
0.72,4.38514615694135,0.282081399312206,20.7839176655903,-13.6997346394491,0.732299923682774,-4.33276050057577,18.1057977866919,-17.0831510333656,-2.90992228122475,2834.99501241243,4856.74387973231
0.73,4.32752055237882,0.198492756183546,23.6685552371953,-9.52105416023225,2.31326861641378,3.66273419917874,3.43402570119602,25.2796053533627,-0.517473579867454,2960.7785009157,4856.74387973231
0.74,4.3451161703813,0.280879212894235,22.7922702257953,-13.605880812775,-1.74068365826996,-3.9911086264567,5.05118006484201,-26.0594158547281,2.79487666037715,3085.90956113465,4856.74387973231
0.75,4.31431951899535,0.328622308960382,24.3357355712631,-15.9342432200013,-2.66943428992912,3.4052116095305,-28.1826218572454,7.20194126886029,0.740885991018452,3210.49539501468,4856.74387973231
0.76,4.29272947922939,0.194680342201677,25.4189945887628,-9.28792450545705,1.84656211671737,3.88015916768746,1.31309293718224,27.0308456112816,-0.398861090762008,3335.46422475306,4856.74387973231
0.77,4.20061289058955,0.203218582567697,30.0287135420707,-9.72800875389001,2.62919521301429,3.28234351961379,9.74123618116359,30.0244252063264,-0.627016835699771,3459.57749678288,4856.74387973231
0.78,4.15934162465035,0.271713034473949,32.0963221661898,-13.1426812549565,-1.39476359495536,3.92792378208122,-24.7608927718515,24.2858427135255,0.406434760967122,3583.23473539966,4856.74387973231
0.79,4.18357408188181,0.221593945946872,30.8888441936136,-10.6166955667244,-3.90740165259099,-1.51116124248961,-23.8318105088497,-22.3356156898377,1.99274066468644,3706.81649345834,4856.74387973231
0.8,4.23571883718163,0.35260391398433,28.2858836016395,-17.0823820070776,4.04390106274383,-1.308628206387,31.4345594491718,10.1866313567199,-1.80071247931838,3829.58079760134,4856.74387973231
0.81,4.16439452343513,0.411853977607813,31.8565568970417,-20.1101895206703,-4.1713473332408,0.33416593356107,-31.4762070431262,-20.7004427505787,1.58943553040069,3952.42157247722,4856.74387973231
0.82,4.0989084711183,0.296318129593757,35.13538588209,-14.2461497728146,1.89141571547663,3.64847936540408,0.792107238909725,37.9054176939775,-0.406102111123127,4074.54867277291,4856.74387973231
0.83,4.17996104502105,0.489506515467527,31.0874219980333,-23.8830336309346,4.2028638093675,-0.218235575668871,29.478272690174,25.8429592172395,-1.50609825349331,4196.53089297587,4856.74387973231
0.84,4.03546405074931,0.235600962875352,38.3171115401142,-11.2726966259052,3.96088695554322,-0.807373794475272,39.5311754003507,5.70621568677115,-1.71356178221672,4318.22104597319,4856.74387973231
0.85,3.74581314515979,0.360217848337662,32.5831223415792,-17.4589704970905,2.6382247861994,2.68340138521915,6.9501277642822,36.3066279955155,-0.68103846466859,4436.56537728226,4856.74387973231
0.86,2.78960462184097,0.380507613848277,32.8246252000774,-18.6977138858716,-1.70931850534044,2.23716567059611,-36.4576762939741,9.89436017776155,0.788001407844545,4531.26504854057,4856.74387973231
0.87,2.07706978324678,0.319866154418604,32.5798478812265,-15.6576528776426,-0.881676581810311,-1.90766339963492,6.03943691185129,-35.6389363391835,2.86145767197752,4602.54488321854,4856.74387973231
0.88,1.53868249784963,0.140346589742809,32.3979310803809,-6.76974857464673,1.28495394227998,0.85798272748369,20.942964976313,25.6290392339231,-0.891107976612906,4656.68318267173,4856.74387973231
0.89,1.1474134726211,0.0808809490950704,31.4702132646629,-3.87152201520275,-1.08256118227963,-0.3887938935995,-27.2351907851278,-16.235990531386,1.98596611524072,4697.65739472003,4856.74387973231
0.9,0.839633738122107,0.0102936071353161,31.4536890540466,-0.395594598514467,0.612630656248135,0.574259916384331,22.4086756664675,22.0758307900312,-0.80545667524117,4728.53089518478,4856.74387973231
0.91,0.593285299598345,0.000240537552562661,32.1157258511737,0.0710366510255676,-0.340467426771703,-0.485869772557696,-18.4777116642312,-26.2678332720282,2.53077697261624,4751.96205404295,4856.74387973231
0.92,0.443467552569976,-0.0103027146693009,30.7817836906836,0.582938961354045,0.106592913592361,0.430589789572225,8.65123039815547,29.5468143394636,-0.26590034871922,4769.79780397217,4856.74387973231
0.93,0.284228517069505,0.00761081287666319,32.1005031994173,-0.331835879080665,0.0470760153961246,-0.280406175328928,6.48597093631205,-31.4401749632498,-2.9484880260233,4783.32429284708,4856.74387973231
0.94,0.144458409136066,0.0458186676072805,34.0468812860452,-2.26898042915019,-0.0634530220368175,0.137627381962401,-24.6127316047652,23.6337013699867,0.739143231183478,4793.65507109387,4856.74387973231
0.95,0.00144573925125278,0.0718595166063668,37.4199305543829,-3.72030625224909,0.0110082440204917,-0.0710260434803223,36.5904916825784,8.67339608991321,-1.43714717903792,4801.42911458736,4856.74387973231
0.96,-0.0192215036017973,0.064601271878492,35.5894224872876,-3.35795812991375,-0.0327108475716762,0.0589303909725306,-22.4997549842862,-27.7784791057393,2.36672730195699,4807.43282876531,4856.74387973231
0.97,-0.00316433723778452,0.107924924206531,32.6678652887163,-5.49907053029184,0.10739276479306,-0.0111622741967,-3.06037673826658,32.9858044230957,-0.0742555029865159,4811.93358682303,4856.74387973231
