t,iq,id,vq,vd,ia,ib,va,vb,theta_e,omega,r
0,0,0,0,0,0,0,0,0,0,0,0
0.01,0.000575851498512405,0.000326102647788713,-0.0280443253087143,-0.0163214086706992,-0.000131509823196646,0.000648577714415612,0.00607245658240653,-0.0318747209253941,0.715322937049376,-0.00326674870968017,0
0.02,0.000648222399062464,0.000366588225779166,-0.0316630036774423,-0.0183477064170172,-0.000148395318974016,0.000729765739969213,0.00691530843735183,-0.0359355345286399,0.715298327582135,-0.00348901331513559,0
0.03,0.000676485535700737,0.000382718860790171,-0.0330585948045433,-0.019155043877083,-0.000154735521817961,0.00076168453096053,0.00722020411130784,-0.0375187293091731,0.715273396330029,-0.00344694065666086,0
0.04,0.00066048405166146,0.000374136748877184,-0.032314749842481,-0.0187255130184009,-0.000150703022779404,0.000743979897769206,0.00705578870098659,-0.0366756559722039,0.715250410935865,-0.00315867625381212,0
0.05,0.000675984075666416,0.000383230326513271,-0.0330907468399522,-0.0191806429089304,-0.00015398612105777,0.000761648362589738,0.00722026778296094,-0.0375601161069564,0.715228206372924,-0.00306383413959058,0
0.06,0.000676462876326331,0.000383850809747506,-0.0331401390943297,-0.0192116883069987,-0.000153815607710076,0.000762419980074164,0.00722842799607425,-0.037617916150451,0.715207120775164,-0.0028893039612696,0
0.07,0.000692282927566709,0.000393273338807434,-0.0339282109559343,-0.0196832950099843,-0.000157061107649197,0.000780545565153686,0.00738842842527994,-0.038522288697908,0.71518756159962,-0.00281861404931645,0
0.08,0.00067646467764478,0.000384534108046304,-0.0331880201516241,-0.019245888116464,-0.000153271619239934,0.000762875318179577,0.00723256024970965,-0.0376767695431864,0.715168702031821,-0.00256614068900476,0
0.09,0.000674771979287331,0.00038393289564298,-0.0331280735237058,-0.0192158097904308,-0.000152602238387283,0.000761205786385874,0.00721530163088769,-0.0376119133210394,0.715151219688278,-0.00240904170104271,0
0.1,0.000674142530810138,0.000383889558253105,-0.03311810357925,-0.0192136279699997,-0.000152209735577925,0.000760704634650112,0.00720979471930266,-0.0376030736052387,0.715134822983036,-0.00226738029431936,0
0.11,0.00067362139103881,0.000383884584435632,-0.0331121080935111,-0.0192133931415184,-0.000151860066346385,0.000760310247781556,0.00720546192322598,-0.0375985039181062,0.715119430392634,-0.00213480877908035,0
0.12,0.000673137338276881,0.000383882361756075,-0.0331067271281143,-0.0192132718247659,-0.000151533365477652,0.000759945513176387,0.00720148190260567,-0.0375944657330598,0.715104979396915,-0.00201037715579759,0
0.13,0.000703980471452042,0.000401629704477407,-0.0346134253620654,-0.0201015300447435,-0.00015834614650582,0.000794871952952931,0.00751820428146846,-0.0393145943615995,0.715090785786519,-0.00207393225800306,0
0.14,0.000729454131943353,0.000416674656593788,-0.0359590823102749,-0.0208545269564072,-0.000163678383633041,0.000823972382296917,0.00783144769091801,-0.0408244451552872,0.715077389168242,-0.00211234192394554,0
0.15,0.000675961918960855,0.000386124365156091,-0.0332932591442097,-0.0193254819477028,-0.00015166188558287,0.000763554329248341,0.00723754476246948,-0.0378091695593244,0.715064666737667,-0.00168802520160217,0
0.16,0.000671718850626517,0.000384029156093947,-0.0331022897844016,-0.0192206163812523,-0.000150453365984354,0.000758978518590096,0.00719109175574601,-0.0375963014458365,0.715053503977011,-0.00156895678610474,0
0.17,0.000671087730713367,0.000383884202318821,-0.0330847767095417,-0.0192133720956886,-0.000150141110934142,0.000758408511233514,0.00718468734928989,-0.0375784031712441,0.715043080985677,-0.00147753684827169,0
0.18,0.000670739924206185,0.000383872992030178,-0.0330801405030765,-0.0192128000393383,-0.000149914120524941,0.000758140011080772,0.00718171203241251,-0.0375745977135934,0.715033299685294,-0.00139319373324987,0
0.19,0.00067043105057525,0.000383871025623668,-0.0330766359301835,-0.0192127022693458,-0.000149706134970203,0.000757906874913458,0.00717914309649298,-0.037571953334216,0.71502411697394,-0.00131411785615493,0
0.2,0.000670142433249399,0.000383869765795698,-0.0330734077153411,-0.0192126365003579,-0.000149511326388988,0.00075768940946464,0.00717675233719253,-0.037569534533857,0.715015495957284,-0.00123988665247145,0
0.21,0.000669871386022502,0.000383868623002175,-0.0330703687513695,-0.0192125896047905,-0.000149328351986117,0.00075748520568418,0.00717449125603798,-0.0375672671868835,0.715007402257768,-0.00117019647169395,0
0.22,0.000669616986183176,0.000383867552666264,-0.0330675152782137,-0.0192125412329739,-0.000149156615402173,0.000757293542991616,0.00717237153475023,-0.0375651353500972,0.714999803620334,-0.00110476902270165,0
0.23,0.000669378369235876,0.00038386654781356,-0.0330648434887841,-0.0192124783363161,-0.000148995531631156,0.000757113769050022,0.0071703993865182,-0.0375631278170365,0.714992669763498,-0.0010433435312114,0
0.24,0.000669154237376918,0.000383865604283379,-0.0330623257702111,-0.0192124299285261,-0.000148844230940247,0.0007569449058334,0.00716853372648496,-0.0375612429680693,0.714985972258552,-0.000985675209585322,0
0.25,0.00066894365928942,0.00038386471833075,-0.0330599504223711,-0.0192123989041364,-0.0001487020849436,0.000756786251999924,0.00716676369087821,-0.0375594740615521,0.714979684415272,-0.000931534245547999,0
0.26,0.000675457709043297,0.000387671545555417,-0.0333816274458545,-0.0194029228262428,-0.000150093714247758,0.000764201688615419,0.00723356984146712,-0.0379273243517596,0.714973880932296,-0.000921354901305652,0
0.27,0.000655790873383983,0.000376480082449307,-0.0324393903107559,-0.0188427860850953,-0.000145646625317722,0.000742014812944003,0.00703859055355315,-0.0368486482004653,0.714968023077626,-0.000755421698631426,0
0.28,0.000654795606711027,0.00037595123621487,-0.0323038407991974,-0.0188163214726222,-0.000145389614467639,0.000740917322367686,0.00696951766060703,-0.0367289791271067,0.714962813288872,-0.000705694452696888,0
0.29,0.000667232279871136,0.000383319493157808,-0.0330039844996266,-0.0191851035489951,-0.000147975536673999,0.000755139715339376,0.00714987539111398,-0.0374994729686805,0.714958142032581,-0.000740170092001354,0
0.3,0.00066194250341622,0.000380509640057128,-0.0327530212003336,-0.0190444640631364,-0.00014662674610873,0.000749303717681224,0.00709141475943781,-0.0372177893743197,0.714954583554705,-0.000678859150576336,0
0.31,0.000667511087171929,0.00038363087882325,-0.0330271452184726,-0.0192006955262755,-0.000147917264758527,0.000755555547574436,0.00715299135485593,-0.0375272400351021,0.714950306376385,-0.000675912148623097,0
0.32,0.00066779046058048,0.000383844256712301,-0.0330456911453444,-0.019211373480899,-0.00014793619022161,0.000755907002399121,0.00715693255665849,-0.0375482741371095,0.714946206700347,-0.00064308275548655,0
0.33,0.000667691817039941,0.000383858376561199,-0.0330456811670295,-0.0192120754972161,-0.000147857945697583,0.000755842340499914,0.00715625115038215,-0.0375487544157773,0.714942351652531,-0.000610069318468282,0
0.34,0.000667572974303378,0.000383858871008059,-0.0330444021404327,-0.0192120937201906,-0.000147776926533932,0.000755753457720191,0.00715526298153821,-0.0375478264297289,0.714938731956422,-0.000578915348900546,0
0.35,0.000667459303358417,0.000383858460546011,-0.0330430959326759,-0.0192120812821063,-0.000147700149091184,0.000755667853842479,0.00715428846545457,-0.0375468562273774,0.714935333631599,-0.000549655297145765,0
0.36,0.000667352442704658,0.000383858015212915,-0.0330418588933793,-0.0192120659099706,-0.000147628020216578,0.000755587338614145,0.00715336932046532,-0.0375459348401937,0.714932143167147,-0.000522184124713106,0
0.37,0.000667252284540188,0.000383857592980261,-0.0330407019721351,-0.0192120331511202,-0.000147560415759829,0.000755511870597336,0.00715252316020899,-0.0375450611539503,0.714929147851873,-0.000496393200381944,0
0.38,0.000667158171363672,0.000383857196265468,-0.0330396078835503,-0.0192120177357725,-0.000147496893755254,0.000755440956709825,0.00715171197769785,-0.0375442449699877,0.714926335748864,-0.000472179807047416,0
0.39,0.00066706976253776,0.000383856823773078,-0.0330385742063542,-0.0192120022997666,-0.000147437223330588,0.000755374340592733,0.00715094687641541,-0.0375434731574703,0.7149236956521,-0.000449447457166445,0
0.4,0.000666986708813911,0.000383856474042484,-0.0330375972922007,-0.0192119853891521,-0.000147381168620528,0.000755311759166232,0.00715022616683773,-0.0375427420841591,0.714921217040094,-0.000428105561094708,0
0.41,0.000666908893781941,0.000383856145684749,-0.0330366842244523,-0.0192119699143842,-0.000147328646840559,0.000755253125121329,0.00714955192322743,-0.0375420590782452,0.714918890036085,-0.000408069069936758,0
0.42,0.000666835735362681,0.000383855837395262,-0.0330358179383637,-0.0192119544224257,-0.000147279270333154,0.000755197999460565,0.00714891370715957,-0.0375414103676681,0.714916705366101,-0.000389258136907556,0
0.43,0.000666767117140808,0.000383855547948091,-0.03303500406032,-0.0192119389135481,-0.000147232957087107,0.000755146294792062,0.00714831487950489,-0.0375408002640688,0.714914654324699,-0.000371597799144819,0
0.44,0.000666702689870358,0.000383855276192757,-0.0330342357789452,-0.0192119233889737,-0.000147189472808588,0.00075509774786826,0.00714775066679936,-0.0375402236835106,0.714912728738109,-0.000355017678989876,0
0.45,0.000666642220718042,0.000383855021048704,-0.0330335114888541,-0.0192119063942875,-0.000147148659848621,0.000755052183317775,0.00714722082643252,-0.0375396785154765,0.714910920932109,-0.000339451703526416,0
0.46,0.000666585476858494,0.000383854781500851,-0.0330328289934414,-0.0192118908406257,-0.000147110360874591,0.000755009425744527,0.00714672144930528,-0.0375391650614142,0.714909223703634,-0.000324837841272184,0
0.47,0.000666532042225999,0.000383854556596516,-0.0330321762739412,-0.0192118911650071,-0.000147074298719314,0.000754969161350377,0.00714623350010056,-0.0375386837581027,0.714907630287992,-0.000311117854980414,0
0.48,0.000666481992247284,0.000383854345441291,-0.0330315654312893,-0.0192118755846102,-0.000147040518686253,0.000754931447462979,0.00714578867385247,-0.0375382229540602,0.714906134336061,-0.000298237069563428,0
0.49,0.000666435085482097,0.000383854147194784,-0.0330309921539942,-0.0192118599920732,-0.000147008858612058,0.00075489610210263,0.00714537191875153,-0.0375377898546913,0.714904729886258,-0.000286144154203924,0
0.5,0.000666390847657304,0.00038385396106845,-0.0330304401019143,-0.0192118588213173,-0.000146979003940267,0.000754862767441928,0.00714496141289811,-0.0375373816229179,0.714903411341463,-0.000274790917804009,0
0.51,2.94961310120899,-0.0208657961405448,3.49232512483859,1.04837269349983,-0.42933920976243,2.91827357717416,0.554392840986771,3.60389631647715,0.138999117133117,42.5575997220003,706.714133068572
0.52,2.79947200422624,-4.90499747033968e-05,3.67972570956132,0.0106337932005885,-1.62732874633368,2.27790356604673,-2.1303136780631,3.00037631110194,0.620306019993,88.4364473558906,706.714133068572
0.53,2.67677379204739,-0.00820753621923365,2.58840444186135,0.42320538209435,-2.65239904713364,0.360506022428323,-2.50545911863736,0.77563841763936,1.43264096332578,133.154610368609,706.714133068572
0.54,2.47766254681924,-0.0271872187029287,4.91297412218931,1.37364689914425,-1.30595212919568,-2.10571600103644,-3.79443171312886,-3.40976663471746,2.57548441848829,178.935400042276,706.714133068572
0.55,2.3511225413983,-0.0232441641075773,4.05764810214996,1.17786526129517,1.86231326160484,-1.43530721850307,2.46103006291833,-3.43441490272496,-2.23730797700592,220.905648835076,706.714133068572
0.56,2.20589701450296,0.03447978557368,5.21157972214447,-1.70656988645452,1.05234724823448,1.93900380694304,0.901599683091916,5.40925706442848,-0.481611746862873,257.734980422869,706.714133068572
0.57,2.14494604898991,0.0246172969410345,1.84159952612723,-1.21597271469046,-2.14358502137743,0.0802671820385806,-1.87253211522809,-1.16777649186098,1.54484489451795,295.681465938326,706.714133068572
0.58,1.99295431133847,-0.0104126866135563,3.57128778238941,0.541878622827315,1.28951549866713,-1.51958056378146,1.88147591299489,-3.08346838079153,-2.44313684215313,329.493386337243,706.714133068572
0.59,1.88494442847432,-0.0462297469842315,3.35479480248899,2.33093451952423,-0.216861607343522,1.87299859348666,2.01731654229005,3.55222998542039,0.0907489772004797,362.481141109414,706.714133068572
0.6,1.75204211025889,0.0365673280493722,4.67714981285455,-1.80761182354473,-0.519077396317184,-1.67378235808413,0.445412072092842,-4.99447684573049,2.86174355300093,392.61063671474,706.714133068572
0.61,1.643060096447,0.044980451471191,4.89690501323304,-2.23475551295409,0.733500531895658,1.47093395203856,0.0380953757757889,5.38259785360657,-0.435208355605968,422.313147967363,706.714133068572
0.62,1.52957329581796,0.00286744020372104,5.91453172382202,-0.118102665037108,-0.575654579080154,-1.41711837722781,-2.10614970677354,-5.52808892513893,2.75761478946939,448.715158894992,706.714133068572
0.63,1.47745029764605,0.0367049739176006,3.79187652308681,-1.81531091010509,0.23876460644832,1.45849172086518,-1.27872098958156,4.00481633754746,-0.137428812624823,474.682231602357,706.714133068572
0.64,1.38912240999596,0.0285429705806978,3.75917891247158,-1.41245531704799,0.369883439788052,-1.33927667496045,2.42845070336794,-3.19829381075909,-2.85158375144121,499.222825170395,706.714133068572
0.65,1.31743026009085,0.0196312619885711,3.26884471158104,-0.96500714274543,-1.01082827968007,0.845123698430791,-3.14665674200636,1.30963196431935,0.889344925119818,521.655408037492,706.714133068572
0.66,1.24135628025996,0.0105107420576187,3.12788286429932,-0.500623779194619,1.238219993906,0.0888095542770225,3.07782091849438,0.749195418266054,-1.49072842896846,542.700911407997,706.714133068572
0.67,1.12522987957843,-0.0288389890238424,5.13177004613478,1.46505179508212,-0.590552259835756,-0.958239008591743,-4.03057770533656,-3.49798283728257,2.56365808029458,562.784945713061,706.714133068572
0.68,1.07896909169291,0.0283109112414498,3.80508794079901,-1.39938851898551,-0.470156878852447,0.971559734546297,-2.98997903539943,2.73806644042003,0.476933632461635,581.845088368185,706.714133068572
0.69,1.02191405746419,0.0127428106130348,3.24192351833738,-0.623764558398282,1.01854637184095,0.0838689959096103,3.16848436683764,0.927284821491388,-1.47617091175183,599.543616642576,706.714133068572
0.7,0.932988777320701,0.00126505134101598,4.47422768468258,-0.0524899048159773,-0.152715403432744,-0.92040624971566,-0.674580064478336,-4.42339352772236,2.97852477220575,616.008729035554,706.714133068572
0.71,0.86734099054477,-0.00909585557755338,4.71952698882904,0.464185816614576,-0.830255913391787,0.251074185741665,-4.36389562590897,1.85629158183847,1.26664718630994,631.391999335206,706.714133068572
0.72,0.820945686843503,0.0665752801482748,4.14809946855224,-3.32439324920221,0.333443716883334,0.753126401306447,-1.7713820528379,5.01203803848578,-0.335886402416496,645.788695188732,706.714133068572
0.73,0.795512455999498,0.0139570279427492,2.67274524353273,-0.690967888271775,0.764026786249106,-0.222031385558915,2.76040808777131,-0.0339256306698951,-1.83607049134499,659.206952378106,706.714133068572
0.74,0.693851995353947,0.0176972952321629,5.16390407639239,-0.880062226775205,-0.0867243879163407,-0.688638269525971,0.361304916985971,-5.22588495760672,3.04181644607569,671.662543607226,706.714133068572
0.75,0.653391612436721,0.0083410789759632,4.71433289597121,-0.412548969288482,-0.646909222215612,-0.0921880199024439,-4.59489986759877,-1.13226609630337,1.72511372498525,683.353478110788,706.714133068572
0.76,0.623140965466361,-0.049011067044528,3.88794404051897,2.45742301337262,-0.337027359533962,0.526421225313681,0.33399418699685,4.58731780149497,0.490981822031293,694.176183319783,706.714133068572
0.77,0.552092557012644,-0.00296780479768324,5.20650323259679,0.151190840765915,0.338963999602592,0.435796289965267,3.33743647543295,3.9990064208278,-0.666434871949947,704.31994859139,706.714133068572
0.78,0.535906099458533,0.0128254434390384,3.89850906751067,-0.639483195489887,0.52480349099007,-0.109275501741709,3.94991268834571,-0.074171835776631,-1.75215708141475,713.772011737276,706.714133068572
0.79,0.519709577726334,0.0103942163828722,2.71265275142525,-0.517354188390648,0.178373103886759,-0.488251083690043,1.46389882880025,-2.34161066898355,-2.77132863698052,722.484346767201,706.714133068572
0.8,0.489494774360417,0.0164607062579976,2.32003891627208,-0.820158377374028,-0.284945755119387,-0.398349100182378,-0.602876379741723,-2.38574525206344,2.55427611871525,730.591137376705,706.714133068572
0.81,0.4525175055374,-0.011076401706183,2.40183922060448,0.559673856954438,-0.450054286584807,-0.0484346840516989,-2.43987519154851,0.35927081353529,1.65353095332686,737.934410075973,706.714133068572
0.82,0.422479379486978,0.0307883351352659,2.22593956279517,-1.5334186717801,-0.283176181583209,0.315036502418461,-2.66732715316684,0.437659248913443,0.804936004951512,744.752876179649,706.714133068572
0.83,0.385862470184013,-0.00079820507646098,2.47585424934626,0.0501550552939709,-0.0024766628977555,0.385855347466824,0.0393848481778076,2.47604899533743,0.00434991945574836,751.016938379709,706.714133068572
0.84,0.315055282562414,0.0230449313704933,4.51252083266554,-1.14184753330757,0.232002084119846,0.214396671840776,2.247775965359,4.07604750513478,-0.751800849866547,756.817139662483,706.714133068572
0.85,0.284603272731367,-0.00654315869882527,4.62720725491036,0.340354022113784,0.282411189419267,0.0358574380841348,4.63763613365505,0.138632363036639,-1.46748960058982,762.090503458959,706.714133068572
0.86,0.284892692982255,0.00681773702750689,3.28842291686913,-0.330996110146023,0.235272805517109,-0.160801228344084,2.93869326673793,-1.51240391071665,-2.14641368340462,766.891960850768,706.714133068572
0.87,0.256383279396602,-0.0423544653011012,3.45160806611041,2.11552326133014,0.127662055651335,-0.226337549319537,-0.804379311435065,-3.96762029869324,-2.79175983520611,771.271744200033,706.714133068572
0.88,0.221268549698681,0.00568329494465214,4.00006242815773,-0.288433544666662,-0.0633755062919453,-0.212074553234058,-0.768143492019663,-3.9361972657015,2.87688352128874,775.322458587671,706.714133068572
0.89,0.195061738932136,-0.0241669267267848,4.17292354806783,1.2089666431935,-0.130750973651616,-0.146755937637293,-3.93487560277742,-1.84164200458195,2.29053918206383,778.971792503349,706.714133068572
0.9,0.15524553084074,-0.00311327101604729,5.12222505219277,0.159339303495268,-0.152806654285428,-0.0275861144153401,-5.08313280898036,-0.651413344365162,1.72935097009193,782.150279516838,706.714133068572
0.91,0.133647696210325,0.0415357678446622,5.21193541891947,-2.07139987295085,-0.108669157570902,0.0881926352118098,-5.60846003479753,0.0120117745111734,1.19036233075095,785.025664165091,706.714133068572
0.92,0.123868944965218,-0.00251012965747632,4.77655823715179,0.135062620201046,-0.0790092879442037,0.0954324300028216,-2.8651558445543,3.82421658522298,0.671266357383423,787.587627426002,706.714133068572
0.93,0.113938115113726,-0.00529094394223532,4.39103981515483,0.257125847828249,-0.0244901201897733,0.111400727899592,-0.489432914222641,4.37124693678725,0.169992176655951,789.852970554796,706.714133068572
0.94,0.12343567130072,-0.000623922595568795,3.10006830057056,0.0241638996127443,0.0377466209901837,0.117524239341032,0.985864122614152,2.93923107189434,-0.315828997235411,791.831473647183,706.714133068572
0.95,0.09844170984418,-0.0344954272839842,3.59143759016162,1.72323597114627,0.0454919358756164,0.0938679312163594,3.76189418118308,1.31000700221764,-0.788326652016119,793.47209797665,706.714133068572
0.96,0.1217665330529,-0.0359869608893954,1.70009632914398,1.80433841539113,0.104163729436885,0.0726090035434812,2.18301557224515,-1.1749075099599,-1.2494027925559,794.982574973186,706.714133068572
