t,iq,id,vq,vd,ia,ib,va,vb,theta_e,omega,r
0,0,0,0,0,0,0,0,0,0,0,0
0.01,0.000465980048808298,0.000255629011991698,-0.0219302540955317,-0.0127874408820743,0.000306634421274229,0.000434118566003637,-0.0151830452537135,-0.0203452654401661,-0.113211861660127,-0.00293331280315964,0
0.02,0.000591692221981126,0.0003194212519249,-0.0280559964986247,-0.0159785490168794,0.000384232945871358,0.00055181035242305,-0.019046362311113,-0.0260708467628014,-0.113235296607842,-0.00335782795777796,0
0.03,0.00063951491926968,0.000344864924295377,-0.0304651394184662,-0.0172513222780012,0.000414931649041966,0.000596441845112393,-0.0205838820541418,-0.0283202514061443,-0.113259316712756,-0.00323746238244703,0
0.04,0.000629627723784325,0.000341113777455888,-0.0301826976692312,-0.0170636853128763,0.000410099649892657,0.000587033182099594,-0.0203661258126268,-0.0280603904896803,-0.113280675802448,-0.00277112889078826,0
0.05,0.000640665669658032,0.000349681275102826,-0.0308482969341455,-0.0174922550617051,0.000419871243664358,0.000597023980405861,-0.0208677295322714,-0.0286728839681139,-0.113299594854725,-0.00249377414073339,0
0.06,0.000639946612580925,0.000351583378059023,-0.0309515824057871,-0.0175874027061856,0.000421689794760911,0.000596087456398551,-0.0209744238885746,-0.02876440039205,-0.113316267191592,-0.00217774382937443,0
0.07,0.00064507960906799,0.000356937671423487,-0.0313049361684574,-0.0178552432001246,0.000427598657897576,0.000600576049373203,-0.02128091339628,-0.0290849009499228,-0.113330422032356,-0.00194880713296814,0
0.08,0.000635369686612443,0.000353192289387229,-0.0309594988075556,-0.0176678835201795,0.000422786719766294,0.000591346617084975,-0.0210560552586351,-0.0287626009158242,-0.113343092557769,-0.00164581335412312,0
0.09,0.000630596794494434,0.00035235776867911,-0.0308266145449301,-0.0176261413797236,0.000421424035795322,0.000586694210325242,-0.0209998591017834,-0.0286350649020558,-0.113353828747054,-0.0014127596622389,0
0.1,0.00062741941431162,0.000352170690572713,-0.0307548269472463,-0.0176167848291106,0.00042088412024908,0.00058355451679835,-0.0209827049513263,-0.0285646036414972,-0.113363012697666,-0.00121960803078688,0
0.11,0.000624928666310624,0.000352127776436123,-0.0307041138095075,-0.0176146399089994,0.000420564305537506,0.000581081297085338,-0.0209750617718019,-0.0285142933915606,-0.113370891579726,-0.00105551528107341,0
0.12,0.000622850793758268,0.000352117098916127,-0.030663377674651,-0.0176141096740257,0.000420322547751177,0.000579015128028943,-0.020970119165797,-0.0284737368850519,-0.113377656752777,-0.000915034770055613,0
0.13,0.000644511361758288,0.000365104501383069,-0.0317167195834018,-0.0182637823196887,0.000435680885643679,0.00059906456934995,-0.02173497488861,-0.029446679139499,-0.113383921265338,-0.000946632367799668,0
0.14,0.000656305584270496,0.000372683758073188,-0.0324306138765025,-0.0186429133507374,0.000444549363066137,0.000609923001102339,-0.0221926139170329,-0.0301129676740672,-0.113389620289233,-0.000921143531811332,0
0.15,0.000627270276027372,0.000356684587336035,-0.0310071616537742,-0.01784257815171,0.00042537062872215,0.000582882254191236,-0.0212365047086895,-0.0287891044786213,-0.113394675109374,-0.000627773343387575,0
0.16,0.00061905265457922,0.000353126759444623,-0.0306568738406769,-0.0176646163675647,0.000420907911170917,0.000575118446662229,-0.021020154054877,-0.0284611262708567,-0.113398326107421,-0.000503312372530804,0
0.17,0.000616317631521433,0.00035233522152805,-0.030554544272734,-0.0176250108719497,0.000419813667428438,0.00057248931509129,-0.020969307670807,-0.0283638734970709,-0.113401283572056,-0.000429376412756189,0
0.18,0.000615085930988251,0.00035215881069153,-0.0305179664008141,-0.0176161849705013,0.000419500437334439,0.000571284441870747,-0.0209564700221821,-0.0283284770216388,-0.11340377776206,-0.000374392127536646,0
0.19,0.000614316881772063,0.000352119226692613,-0.0304998124849372,-0.0176142134495724,0.000419375296820953,0.000570523918388258,-0.0209525171677962,-0.0283106181740462,-0.113405908255692,-0.000329366162507252,0
0.2,0.000613731182375517,0.000352110115604345,-0.0304876548229921,-0.0176137500099324,0.000419301006021153,0.000569942246267641,-0.0209507326076878,-0.0282985527760604,-0.11340773519822,-0.000291260001400229,0
0.21,0.000613247295314496,0.000352107823474795,-0.0304780895679304,-0.0176136384063624,0.000419244862829683,0.000569461069392476,-0.0209495836419812,-0.0282890287363936,-0.113409303688284,-0.000258675273087854,0
0.22,0.000612836633607495,0.000352107084941426,-0.0304700980589135,-0.0176136021983844,0.000419198422511388,0.000569052564638171,-0.020948681393503,-0.0282810644424186,-0.113410650767173,-0.000230724065190771,0
0.23,0.00061248516911849,0.000352106724039747,-0.0304632884142439,-0.0176135832363144,0.000419158947518781,0.000568702913847868,-0.0209479246361353,-0.028274276451764,-0.113411807813607,-0.000206724672773435,0
0.24,0.000612183705014452,0.000352106474782191,-0.030457455440276,-0.0176135670021114,0.000419125148428602,0.000568402998077478,-0.0209472764900466,-0.0282684619688409,-0.113412801667608,-0.000186112469358023,0
0.25,0.000611924622714231,0.000352106274140166,-0.0304524340302169,-0.0176135666563463,0.00041909611379406,0.000568145245140307,-0.0209467320025316,-0.0282634549752217,-0.113413655354596,-0.00016840787097919,0
0.26,0.000615787639405852,0.000354460451057823,-0.0306360802178226,-0.0177313231555519,0.000421872692909223,0.000571716764829113,-0.0210845325653078,-0.0284325819872544,-0.113414260972727,-0.000183588863627768,0
0.27,0.000606747797656466,0.000349148891639279,-0.0302256023987663,-0.0174656316386001,0.000415572740599025,0.000563335722074257,-0.0207741202500925,-0.0280547902636657,-0.113415207870598,-0.000103949129781418,0
0.28,0.000606021280144451,0.000348904459319226,-0.0300784207234905,-0.0174533952815101,0.00041524796262483,0.000562641309589589,-0.0207453207873323,-0.0279099277229917,-0.11341575095695,-8.88342725797269e-05,0
0.29,0.000609834606121623,0.000351393935125983,-0.0303753001557347,-0.0175779307624266,0.000418153181887817,0.000566148267633076,-0.0209026634425915,-0.0281907993935147,-0.113416056358433,-0.000109277497445984,0
0.3,0.00060072473703853,0.000346793942787997,-0.0299495565748408,-0.0173478173507269,0.00041255145929146,0.00055761773813334,-0.0206258311789677,-0.0277938445350854,-0.113415532560662,-5.65992395020027e-05,0
0.31,0.000608545908956091,0.000350924743245194,-0.0303130056718724,-0.0175544568017364,0.000417540976533924,0.000564921084439232,-0.0208722811701793,-0.0281315684813338,-0.11341573403334,-0.000106457251453484,0
0.32,0.00061047114303693,0.000351843113886222,-0.0304050831016946,-0.0176004008861085,0.000418671541271373,0.000566729859632807,-0.0209283612053864,-0.0282178469594964,-0.113416105118036,-0.000112731673093713,0
0.33,0.000610885772637564,0.00035204723926102,-0.030427266996554,-0.017610616294721,0.000418921489924886,0.000567118568873753,-0.0209410320501606,-0.0282387244724974,-0.113416475064937,-0.000108671241299788,0
0.34,0.000610921741993897,0.000352092567576574,-0.0304316147728575,-0.0176128729170304,0.000418970785525794,0.000567149038489374,-0.020943775575814,-0.0282427819930154,-0.11341680607409,-0.000102740312810394,0
0.35,0.000610869646954434,0.00035210259672579,-0.0304315333614912,-0.0176133780920993,0.000418975017627019,0.000567096022553252,-0.0209442764183907,-0.0282426379054231,-0.113417093822965,-9.70141897805968e-05,0
0.36,0.000610803465025461,0.000352104784319917,-0.0304304750170895,-0.017613490474636,0.000418969841739378,0.000567029914326366,-0.0209442753071036,-0.0282415684466364,-0.113417341875171,-9.1932324615773e-05,0
0.37,0.000610741182868507,0.00035210523436597,-0.0304293127901064,-0.0176135155414102,0.000418963361085059,0.000566967892025509,-0.0209441747021798,-0.0282404063825258,-0.113417555173262,-8.75249383381079e-05,0
0.38,0.00061068611843088,0.000352105303204392,-0.0304282380136145,-0.0176135216640512,0.000418957301489428,0.000566913096794851,-0.0209440643237154,-0.0282393339798807,-0.113417738448848,-8.37282125066315e-05,0
0.39,0.0006106386725623,0.000352105291686287,-0.0304273049625636,-0.0176135073775373,0.00041895200962101,0.000566865891103575,-0.0209439489771358,-0.0282384052429761,-0.113417895892232,-8.04641184907551e-05,0
0.4,0.000610597694369153,0.000352105266083093,-0.030426488666874,-0.0176135076241026,0.000418947423139029,0.000566825122429783,-0.0209438606568847,-0.0282375913314987,-0.113418031135484,-7.76596313517961e-05,0
0.41,0.000610562420526756,0.000352105240597116,-0.0304257798605983,-0.0176135078474826,0.000418943471543159,0.000566790029434896,-0.0209437839399592,-0.0282368846209214,-0.113418147306164,-7.52504734950588e-05,0
0.42,0.000610532152543181,0.000352105217928063,-0.0304251686056234,-0.0176135080504936,0.000418940079991898,0.000566759916682153,-0.0209437177804204,-0.0282362751803335,-0.113418247093496,-7.31810313306434e-05,0
0.43,0.0006105061919265,0.000352105198282647,-0.0304246414480775,-0.0176135082359909,0.000418937170950895,0.000566734089175796,-0.0209436607237519,-0.0282357495935873,-0.113418332807812,-7.1403430780648e-05,0
0.44,0.000610483840184783,0.000352105181368891,-0.0304241820436848,-0.0176135084067965,0.000418934666204974,0.000566711852112964,-0.0209436109790741,-0.0282352915795245,-0.113418406433958,-6.98765226590542e-05,0
0.45,0.000610464631656745,0.000352105166831799,-0.0304237829707074,-0.0176135085648023,0.000418932513667515,0.000566692742150163,-0.020943567756466,-0.0282348937281759,-0.113418469676434,-6.85649541319331e-05,0
0.46,0.000610448217096422,0.000352105154342664,-0.0304234404205738,-0.0176135087114442,0.000418930674316966,0.000566676411708837,-0.0209435306676929,-0.0282345522246012,-0.113418523999823,-6.74383563988483e-05,0
0.47,0.000610434014427206,0.000352105143614302,-0.0304231370093301,-0.0176135088490882,0.000418929082704885,0.00056666228195761,-0.0209434977832035,-0.0282342497699218,-0.113418570662116,-6.64706431187298e-05,0
0.48,0.000610421907233776,0.000352105134398528,-0.030422877008209,-0.01761350897821,0.000418927726022047,0.000566650236804612,-0.020943469617381,-0.0282339905852491,-0.113418610743532,-6.56394067998753e-05,0
0.49,0.000610411429854846,0.000352105126482642,-0.0304226457989834,-0.0176135091006985,0.000418926551881949,0.000566639813215676,-0.020943444543887,-0.0282337601266271,-0.113418645172093,-6.49254000545793e-05,0
0.5,0.000610402465875095,0.000352105119682872,-0.0304224449677823,-0.0176135092170264,0.000418925547378838,0.000566630895210124,-0.0209434227652249,-0.0282335599532379,-0.113418674745277,-6.43120899519998e-05,0
0.51,4.71938857023247,-0.0207851094645163,4.03117505777416,1.05104962389891,-0.674157211482239,4.67103549031934,0.482658036093434,4.13788821484015,0.138933191306858,43.0838676241316,2503.40061253598
0.52,4.74330457234632,0.0484804055046106,2.83607420550778,-2.40027984276854,-2.77522989145663,3.84699722710129,-3.61483539567147,0.858851142485275,0.635165957876371,92.5637385497205,2503.40061253598
0.53,4.70836995365432,0.00455399746136331,4.5835817411975,-0.192982733467244,-4.69824659340123,0.308621624260847,-4.58647625729075,0.103438169762488,1.50616909655231,146.140654839398,2503.40061253598
0.54,4.67951133367723,0.0512014046854121,6.0274075767109,-2.51239161048203,-1.73968980679888,-4.34441334151983,0.163113678002387,-6.52802785136989,2.77164563604316,197.744812088693,2503.40061253598
0.55,4.70054343998026,-0.00346076364950421,4.97679095540595,0.230733767387264,4.48069933557137,-1.42072308077147,4.67301634390526,-1.72760080308428,-1.87858105109659,249.281880836329,2503.40061253598
0.56,4.64308409736387,0.0206607435871398,7.8508883079528,-0.953991017172009,-0.610605509579668,4.60280541769797,-2.01220815620613,7.64837004994478,0.136339094102077,299.556038972418,2503.40061253598
0.57,4.6562194006976,0.0381817622945866,7.19530267400492,-1.82031090292344,-2.72054102508181,-3.77895401999699,-2.66994109227258,-6.92512288104974,2.52582288902497,351.196293739765,2503.40061253598
0.58,4.65863225680352,0.0664079769190664,7.07597079588264,-3.22034852265264,3.93988136407574,2.48688547394877,4.17165194494354,6.56028409154541,-0.99349127260653,402.39040642249,2503.40061253598
0.59,4.65547767287062,0.0435753908800849,7.23503461609402,-2.06192449254848,-3.93344362277265,-2.49066104553718,-4.95683658287605,-5.65924284685785,2.14463112910476,453.266031766489,2503.40061253598
0.6,4.61003290867672,0.104987568644431,9.50869741220709,-5.11903271161031,2.78905189372815,3.67214043069483,1.43137357380363,10.7037840071475,-0.626794233857999,504.341733894462,2503.40061253598
0.61,4.64181814881319,0.0742688070099597,7.92094945059955,-3.58847325737466,0.471436052382278,-4.61841310742775,4.49396719163484,-7.44465173116621,-3.02386892495343,555.834726764633,2503.40061253598
0.62,4.61921322858418,0.0688570775515682,9.05275058785134,-3.28588438027159,-4.33761043748018,1.58965651664725,-9.62997410154671,-0.113702110337484,1.23441981315367,605.951797914986,2503.40061253598
0.63,4.61051124821868,0.105463941976619,9.48951476506258,-5.1218936991728,1.96822937206275,4.17061263508824,-0.828066357326593,10.75169715207,-0.418068288686977,657.146624121161,2503.40061253598
0.64,4.60990784731401,0.0736929241789142,9.5214394091371,-3.53050810486741,4.56219241933227,-0.665643550850229,9.89626635353595,2.27732478146526,-1.6996939179132,707.894126215412,2503.40061253598
0.65,4.58005151587564,0.0424394501615009,11.0160933333987,-1.957530604126,2.28317023386048,-3.97061792145986,7.26744196248138,-8.5070867938564,-2.61048019854112,758.265346549294,2503.40061253598
0.66,4.59093970158662,0.045510680275293,10.4735881520492,-2.10043141117746,-0.0893063543604458,-4.59029660704994,2.00041738388436,-10.4931497264672,3.13205246957969,808.732961542565,2503.40061253598
0.67,4.57041852127562,0.132238071431476,11.5016422658175,-6.42724676026071,-0.951673147444896,-4.47219527610182,4.25498496063485,-12.4696583238232,2.96084778160387,859.14106302553,2503.40061253598
0.68,4.55367669815868,0.102047399987586,12.3407461420152,-4.88852619152882,-0.0249492055586287,-4.55475165956823,5.09672699980552,-12.2562260731589,-3.12466407926708,909.190291748443,2503.40061253598
0.69,4.52005896793793,0.122849724215914,14.0237554100392,-5.90198716112251,2.38448045147024,-3.84191073620046,12.6445047410994,-8.46260409702431,-2.55895571861775,959.308782405087,2503.40061253598
0.7,4.53975712216297,0.159207535591083,13.0410917837989,-7.7300416736082,4.52433170912091,-0.406404175004957,13.4430225500572,7.00776454426384,-1.62532698857313,1009.51188610662,2503.40061253598
0.71,4.51556716321936,0.10694045486087,14.2528514177694,-5.12587660098281,1.54308845083605,4.24507492269891,-0.306886738977557,15.1434541962841,-0.324973141158169,1059.71036262521,2503.40061253598
0.72,4.48359309153624,0.142700419037931,15.8538725972627,-6.86107411103433,-4.334404787265,1.15581380862115,-16.9968003127482,-3.08680958530106,1.3420163570569,1109.43254396605,2503.40061253598
0.73,4.47729492546987,0.121287398709518,16.171175736864,-5.77698383095458,0.918532484976682,-4.38374024741048,9.36378154990609,-14.3944455253159,-2.9079662217913,1159.26256153312,2503.40061253598
0.74,4.48851745250157,0.162038872231022,15.6125391511458,-7.80388600544809,2.3305076423343,3.83950252592006,0.801336220682983,17.4358789796646,-0.50945218533827,1209.11683285062,2503.40061253598
0.75,4.45787177519503,0.148732868810987,17.1474143264355,-7.18110442833719,-3.55193022393329,-2.69787581527661,-8.76980930606227,-16.3918432041193,2.25373448478959,1259.02518961353,2503.40061253598
0.76,4.46378664859133,0.15230843094252,16.8542684527134,-7.32912558335453,3.27428619846623,3.03770291384987,6.79264973347695,17.0775395327022,-0.788754528995719,1308.62545111819,2503.40061253598
0.77,4.42113373206159,0.201308184844438,18.9895862547907,-9.73720129178453,-2.06242014622879,-3.91578492801735,0.736856014463934,-21.3277874693747,2.70232038815102,1358.03643782259,2503.40061253598
0.78,4.45784554166463,0.14909749279792,17.1567482454593,-7.14681958119078,-1.06113847672127,4.33227446832718,-11.5173485148112,14.5870395787678,0.273642371036037,1407.71285039073,2503.40061253598
0.79,4.43841091602464,0.175946715041659,18.1312556398175,-8.50570277552377,4.29128365147784,-1.14687982307637,19.5570799461907,4.31393495086238,-1.79232961760801,1457.27792307751,2503.40061253598
0.8,4.39581373826103,0.229151145397724,20.2639844927025,-11.1082748268715,-1.73997999590531,-4.04328558016508,3.38804538582374,-22.8592210193916,2.78729151565646,1506.49484693063,2503.40061253598
0.81,4.39705367991007,0.236920689426448,20.204909071602,-11.4758320816851,-4.33294833940179,0.784710879983347,-21.4809499307304,-8.86012768712694,1.44546463896,1555.76937034021,2503.40061253598
0.82,4.36175143606614,0.235474436612049,21.9730527957771,-11.4308547273476,-1.74453029210989,4.00461457074632,-20.0670766562333,14.5186749890129,0.464773655829593,1605.05112049425,2503.40061253598
0.83,4.3815804461984,0.181104557361493,20.9846686151056,-8.7292541894961,0.856966026763613,4.30077380202427,-5.37675433002707,22.0827242084207,-0.155372898461413,1654.33741562351,2503.40061253598
0.84,4.37450258108732,0.205151375360402,21.3416389716768,-9.88423172561102,1.95188741310109,3.92026726707879,-0.438120626357367,23.5153490537506,-0.41510066668426,1703.33652790692,2503.40061253598
0.85,4.32015584824444,0.174632489958545,24.0621555383425,-8.3619753115234,1.50512398159225,4.05325114688267,-0.491733967950927,25.4689646033496,-0.315155081519243,1752.40194264788,2503.40061253598
0.86,4.3869632679254,0.216263351478591,20.7250322497701,-10.4118085847327,-0.907335096194678,4.29755274249576,-15.34347847215,17.3928257662116,0.257329560359329,1801.31408647275,2503.40061253598
0.87,4.32753325517932,0.232972006505529,23.6998500196232,-11.2850896308875,-3.69626567795282,2.26261796786071,-26.2152173455406,1.34108853393968,1.07528382936211,1850.34675992595,2503.40061253598
0.88,4.32487067521261,0.204746563543813,23.8363577721331,-9.87604478852681,-3.49045120438765,-2.56187000107066,-12.3139490386181,-22.6732192593031,2.25126232806064,1899.15997152433,2503.40061253598
0.89,4.28592684089222,0.271557060934955,25.7870086075616,-13.2143782143395,2.35333287148542,-3.5923163166417,26.0402501199952,-12.7080674457668,-2.49836370108298,1947.87223381473,2503.40061253598
0.9,4.27590519188703,0.209370819766523,26.2916392349185,-10.093292361507,2.61414333132266,3.39019999313867,6.73223210568408,27.3459667086237,-0.607935351975295,1996.52275170546,2503.40061253598
0.91,3.95892155394364,0.274905735106144,22.1293805449894,-13.3727243713689,-3.96833555260129,0.0307567136473993,-21.2644945145462,-14.7091982602177,1.63237421320538,2042.58879016704,2503.40061253598
0.92,3.58881901631351,0.250271803399237,22.4793066606577,-12.1236099657581,2.99608246903987,-1.99141852611201,25.5337859209918,-0.571771883429538,-2.08779440043853,2084.45410560619,2503.40061253598
0.93,3.19539790260924,0.172145633507114,25.7308607758883,-8.33463974835122,-2.09817762212472,2.41616484146884,-23.8816824476567,12.6967972131648,0.768895956294332,2122.82228559505,2503.40061253598
0.94,2.93602795857871,0.19214956007777,23.6806069709059,-9.28455359429984,1.86360432279868,-2.27687517335492,22.9489463851722,-10.9690447061918,-2.39032509897267,2157.45280068608,2503.40061253598
0.95,2.67166237620776,0.191302900904105,23.3219042005782,-9.33454834727303,-2.28020802330821,1.4053569022776,-24.9947682089465,2.51128862729103,1.08993954730135,2189.15875207594,2503.40061253598
0.96,2.38107283825975,0.227013076856392,25.4056084549546,-11.1189567981983,2.37189720712286,-0.30845816086617,25.7716417232976,10.2420029355906,-1.60506421111909,2217.91141961763,2503.40061253598
0.97,2.18548363176601,0.133768671321453,23.8812158621746,-6.43633382767079,-1.86354155505671,-1.1495414889081,-15.8138328552728,-19.0174013635537,2.18465120977547,2244.06516863585,2503.40061253598
