t,iq,id,vq,vd,ia,ib,va,vb,theta_e,omega,r
0,0,0,0,0,0,0,0,0,0,0,0
0.01,0.000969267621774928,0.000538442842495844,-0.047417191746987,-0.0269447171960728,0.000527938042677687,-0.000975029148461666,-0.0255025529142658,0.0482081699798068,-2.13826305937962,-0.00373138460706788,0
0.02,0.00111451370350197,0.000616742864041065,-0.0546942149734349,-0.030862997600088,0.000608301687651552,-0.00111914324929364,-0.0295313995531795,0.0554245271775395,-2.13829099694981,-0.00388506546746976,0
0.03,0.00116708073511121,0.000647285945359068,-0.0573486943806334,-0.0323914425265657,0.000636179402870473,-0.00117317189903717,-0.0309466378178449,0.058141068995042,-2.13831818677834,-0.00366352452274367,0
0.04,0.00113640569646345,0.000633033807046672,-0.0559477119874255,-0.0316782274481816,0.000617947135180313,-0.00114467945117444,-0.0301473179471727,0.0567872854737636,-2.13834189045049,-0.00315064250323362,0
0.05,0.00116076917488254,0.000648888099902596,-0.0572114686254074,-0.032471619181567,0.00062994303674392,-0.00117115866303868,-0.0307851945261717,0.0581363052879563,-2.13836344572166,-0.00290266297666164,0
0.06,0.00115975148112728,0.000650453510025958,-0.0572343630735053,-0.0325499615006209,0.000628220702315512,-0.00117194369142217,-0.0307612579903352,0.0582152670437384,-2.13838278709127,-0.00258452941205095,0
0.07,0.00118128050219206,0.00066485979335683,-0.0583425390234489,-0.0332708764932184,0.000638609128124809,-0.00119567577175306,-0.0313071128560477,0.0594194224723562,-2.13839957143139,-0.00240212768782778,0
0.08,0.001155816750612,0.000652027297826313,-0.0571635148881962,-0.0326287197090528,0.000624019176250348,-0.00117117548889046,-0.0306573039696527,0.058244574833518,-2.13841497006541,-0.00204580404296613,0
0.09,0.00115038712504716,0.000650752928683841,-0.0569496519958745,-0.032564922833228,0.000620110583302959,-0.00116719011996355,-0.0305105031381611,0.0580762107910078,-2.13842829701259,-0.00180683395766845,0
0.1,0.00114750979855728,0.000650623736549207,-0.0568537375720084,-0.0325584621887782,0.000617740283139635,-0.00116554147370773,-0.0304324236217119,0.0580195529844343,-2.13844002087421,-0.00160454782247607,0
0.11,0.00114518676939952,0.000650608317422849,-0.0567795461379071,-0.032557705874511,0.000615777831041356,-0.00116428586794889,-0.0303696750134387,0.0579793403810013,-2.1384503561996,-0.00142711296511124,0
0.12,0.00114316257891772,0.0006506044746131,-0.0567152968364236,-0.0325575080424365,0.000614062570341811,-0.00116319990712242,-0.0303150805507984,0.0579449058707974,-2.13845946988507,-0.00127075125393289,0
0.13,0.00119316232057446,0.00067949877282487,-0.0591759554815802,-0.0340034247666254,0.000640674348199751,-0.00121445102209515,-0.031611865169522,0.0604873258089782,-2.13846818998394,-0.00133821469440093,0
0.14,0.0012279869089222,0.000700788593597613,-0.0610210537952797,-0.0350688140697198,0.000658580135176252,-0.00125113097114253,-0.0325942505338832,0.0623779252514658,-2.1384760474353,-0.00135625256320605,0
0.15,0.00114784762931491,0.000655568582562319,-0.0570312209737896,-0.032805909381577,0.000615316109542675,-0.00116991898518825,-0.0304465184256868,0.0583249292487164,-2.13848313708188,-0.000906250163819115,0
0.16,0.00113784196464835,0.000651088378051195,-0.056565301147609,-0.0325817357082225,0.000609282579564113,-0.0011607648990161,-0.0301739040306866,0.0578855622001469,-2.13848849070381,-0.000777550717899432,0
0.17,0.00113582795242419,0.000650643455390055,-0.0564847343223632,-0.0325594564748266,0.000607818350209906,-0.00115930966385093,-0.0301176866992908,0.0578235969590914,-2.13849311088876,-0.00069415371431189,0
0.18,0.00113481587378848,0.000650598351058317,-0.056450738750111,-0.0325572026763501,0.000606984568974519,-0.00115872991453096,-0.0300900006145332,0.0578035398099425,-2.13849717380902,-0.000623989190178795,0
0.19,0.00113400938710832,0.000650592969395145,-0.0564249265988636,-0.0325569301039735,0.000606303333449702,-0.00115829390472538,-0.0300681769564066,0.0577895386207606,-2.13850075536077,-0.000562494842716154,0
0.2,0.00113330767446985,0.000650591629866614,-0.0564026184117656,-0.0325568551514721,0.000605708756535847,-0.00115791737879719,-0.0300492259161649,0.0577775752597533,-2.13850391355251,-0.000508309583048562,0
0.21,0.00113268993603686,0.000650590785773192,-0.056382991831819,-0.032556827359462,0.000605185149146603,-0.00115758619419228,-0.0300325321070093,0.0577670822429369,-2.13850669853731,-0.000460531949832048,0
0.22,0.00113214519001022,0.000650590074642203,-0.0563656785770503,-0.032556799351914,0.000604723395261787,-0.00115729416818252,-0.0300178079204377,0.0577578229605639,-2.13850915443056,-0.00041840054009002,0
0.23,0.00113166524858374,0.000650589450696773,-0.056350427287592,-0.0325567441716073,0.000604316570522602,-0.00115703688394183,-0.0300048536579511,0.0577496407219527,-2.1385113201202,-0.0003812476868194,0
0.24,0.00113124180732532,0.000650588900687708,-0.0563369619847217,-0.0325567187224608,0.000603957640208937,-0.00115680988635642,-0.0299934040413097,0.0577424361596924,-2.13851322989944,-0.000348485040966009,0
0.25,0.00113086811413914,0.000650588415609229,-0.0563250677992966,-0.0325567171723575,0.000603640880945374,-0.0011566095559665,-0.0299832792868141,0.0577360897432892,-2.13851491400768,-0.000319593823693268,0
0.26,0.001141373581304,0.000656673231680871,-0.0568402819425396,-0.03286120511795,0.000609224901266703,-0.00116738956864514,-0.0302538663225729,0.0582698895283599,-2.13851627366581,-0.000341436863275054,0
0.27,0.00111232013426548,0.000640089387886035,-0.0554356628314544,-0.0320313152612643,0.000593644479977718,-0.00113778589241064,-0.0295157356167116,0.0568149559705328,-2.13851796890125,-0.000192494122673696,0
0.28,0.00111147651694889,0.000639686842694686,-0.0552800201043991,-0.0320111623945147,0.000593148353509776,-0.00113699355106974,-0.0293952803156089,0.0567143071522304,-2.13851911441804,-0.000170377667570028,0
0.29,0.00112769246163627,0.000649507338215777,-0.0561892862343976,-0.0325026094858373,0.000601538954693012,-0.0011539934819635,-0.0298976052023571,0.0576176076740773,-2.13851989211475,-0.000225533225771622,0
0.3,0.00111625319724539,0.000643631102481298,-0.0556327223794614,-0.0322085458754582,0.000595054251604336,-0.00114288784843022,-0.0295864890601375,0.0570703941799607,-2.13851961449916,-0.000182226816339301,0
0.31,0.00112813079266341,0.000649897874202161,-0.0562123811536856,-0.0325221583749129,0.000601697953139248,-0.00115455874923535,-0.0299065368012365,0.0576465231985974,-2.1385203889837,-0.000219302150469197,0
0.32,0.00112930146981949,0.000650518361941787,-0.0562722563047392,-0.0325531959999673,0.000602350388807765,-0.00115571188367301,-0.0299402824130796,0.0577049121692736,-2.13852120971414,-0.000210874931724188,0
0.33,0.00112928925054194,0.000650579629488628,-0.0562743812911953,-0.0325562721317915,0.000602306287570266,-0.00115575741470624,-0.0299403773037581,0.0577086705074264,-2.1385219489243,-0.000198828069134012,0
0.34,0.00112916150462482,0.000650585530517671,-0.0562705760265034,-0.0325565483949141,0.000602194653215984,-0.00115569409260566,-0.0299369827176215,0.0577068768476489,-2.13852260252079,-0.000187686699265744,0
0.35,0.00112903542687286,0.000650585967433299,-0.0562665631244995,-0.0325565780232754,0.00060208745259122,-0.0011556270140436,-0.0299335501347192,0.0577047612832872,-2.13852317907894,-0.000177803715482121,0
0.36,0.00112892285326106,0.000650585880575605,-0.0562629513658294,-0.0325565814126388,0.000601991998069054,-0.00115556671416247,-0.0299304738074639,0.057702837255478,-2.13852368752955,-0.000169082037419239,0
0.37,0.00112882331816115,0.000650585757210892,-0.0562597478620191,-0.0325565818456118,0.000601907625755207,-0.00115551335828183,-0.0299277467483492,0.0577011284598027,-2.13852413590111,-0.000161390231898077,0
0.38,0.00112873596793451,0.000650585643786769,-0.0562569385341899,-0.0325565553251928,0.000601833582730854,-0.00115546653084711,-0.0299253695806546,0.0576996073066637,-2.13852453129056,-0.000154607253359445,0
0.39,0.00112865855174569,0.00065058554330258,-0.0562544362175523,-0.0325565556816474,0.000601767962399525,-0.00115542502786313,-0.029923239506386,0.057698272499706,-2.13852487995864,-0.000148625782421204,0
0.4,0.00112859033236727,0.000650585454643745,-0.0562522264750607,-0.0325565560053086,0.0006017101373966,-0.00115538845530888,-0.029921358504256,0.0576970937533955,-2.13852518742567,-0.000143351116400358,0
0.41,0.00112853026206136,0.000650585376454378,-0.0562502766535243,-0.0325565562998972,0.00060165921944318,-0.00115535625159671,-0.0299196987603417,0.0576960536587799,-2.13852545856087,-0.000138699735971558,0
0.42,0.00112847717667475,0.000650585307501943,-0.0562485459993633,-0.0325565565695617,0.000601614222709768,-0.00115532779229383,-0.0299182256641888,0.057695130434173,-2.13852569765699,-0.00013459799012957,0
0.43,0.00112843037771549,0.00065058524669597,-0.0562470149212629,-0.0325565568167845,0.000601574554487812,-0.00115530270317453,-0.0299169224779419,0.0576943136605862,-2.13852590850018,-0.000130980930814257,0
0.44,0.00112838916669167,0.000650585193073977,-0.0562456621177109,-0.0325565570440577,0.000601539622518917,-0.00115528060984941,-0.0299157710477224,0.0576935919859644,-2.13852609442856,-0.00012779128460461,0
0.45,0.00112835303920627,0.000650585145787574,-0.0562444742484258,-0.0325565303519551,0.000601508998584776,-0.00115526124215565,-0.0299147744203642,0.0576929356456952,-2.13852625838695,-0.000124978545839069,0
0.46,0.00112832090857334,0.000650585104087881,-0.0562434075809491,-0.0325565276372297,0.00060148176387637,-0.00115524401669473,-0.0299138682059989,0.0576923641140194,-2.13852640297078,-0.0001224981769083,0
0.47,0.00112829261965021,0.000650585067315092,-0.0562424635922257,-0.0325565278190699,0.000601457785297287,-0.00115522885086713,-0.0299130648532901,0.0576918604799634,-2.13852653046949,-0.000120310903029104,0
0.48,0.00112826770677141,0.000650585034887477,-0.0562416272760389,-0.0325565279887705,0.000601436668212317,-0.00115521549500187,-0.0299123531576537,0.0576914142824761,-2.13852664290252,-0.000118382090356749,0
0.49,0.00112824570427564,0.000650585006290826,-0.0562408825310057,-0.032556528148021,0.000601418018230865,-0.0011552036993423,-0.0299117194400161,0.0576910169182433,-2.13852674204954,-0.000116681197589325,0
0.5,0.00112822626291694,0.000650584981073665,-0.0562402182906127,-0.0325565282980574,0.000601401539323154,-0.00115519327665715,-0.0299111542786463,0.057690662484643,-2.13852682948096,-0.000115181292362952,0
0.51,4.68025549682361,-0.0429068016022562,5.988056008263,2.15452439599885,-0.659031013335443,4.63382246451387,1.34698533278459,6.21968010787629,0.132107094006329,40.5777424182995,2325.22061421678
0.52,4.67927737015302,0.0860849403747255,6.03804571518197,-4.29189841354503,-2.55822039103347,3.91899933078408,-6.94315356981534,2.58282917684817,0.596717735335161,86.2442080134195,2325.22061421678
0.53,4.65628974519514,0.0345790852399892,7.18860186314908,-1.70365069492856,-4.58303933426036,0.82339563088943,-7.37336054759829,-0.460409244392448,1.40045748463311,133.54550738699,2325.22061421678
0.54,4.60569359461775,-0.0121816075178658,9.71966294811782,0.635312843469085,-2.49676793328334,-3.87023407126659,-5.82358831213834,-7.80777109070296,2.56601030914005,184.711407746332,2325.22061421678
0.55,4.64064490213686,0.0374583720166295,7.97352605226712,-1.83544501182008,3.76162341221275,-2.71793626526743,7.5633747763602,-3.12111167533557,-2.18842080200484,231.552995939389,2325.22061421678
0.56,4.57629617759304,0.02470575929259,11.1924964624728,-1.18162324000116,1.47388926801575,4.33252207209875,2.42676088119027,10.9899518729293,-0.322512000713735,278.534671184498,2325.22061421678
0.57,4.54887073764799,0.0679224501118694,12.5653770668937,-3.34578663741947,-4.32433188540077,-1.41314974152266,-10.797545108292,-7.24541294135484,1.90157725095469,326.837056389726,2325.22061421678
0.58,4.50891122274121,0.00484627127625936,14.5650739744307,-0.192227283691702,4.37363316030649,-1.09619199047174,14.1784099513758,-3.33931466920421,-1.81529911345369,374.729068897952,2325.22061421678
0.59,4.5587449261858,0.0675959786007601,12.0751742866829,-3.30090326272875,-4.03736990654749,2.11810499174438,-12.2649864486662,2.50517540657261,1.10247005620422,420.948987860743,2325.22061421678
0.6,4.53670638081395,0.014141381287492,13.1789593716018,-0.625294226688367,4.26524392698323,-1.54583278776051,12.615475966679,-3.86338311877104,-1.91538029513646,468.718365813108,2325.22061421678
0.61,4.56869553414343,0.0678701283151599,11.5814237357284,-3.31325506478388,-4.54151263086897,-0.502243229598218,-11.0780002209517,-4.73127318756825,1.69579256482053,516.409901181902,2325.22061421678
0.62,4.56444644469292,0.0706860800040283,11.7959954845764,-3.44971323473698,2.74701083444232,3.64597028839138,4.16454297761095,11.5629845914322,-0.630212502973339,563.602766938958,2325.22061421678
0.63,4.62287594903085,0.0628545518898678,8.87671277213726,-3.04650223141866,2.28509626217247,-4.01911281347346,7.1195325032404,-6.1146923406143,-2.61101807096535,610.504896949866,2325.22061421678
0.64,4.53623354534841,0.1264968704869,13.2111461896961,-6.21674142947495,-4.11204521216255,-1.91950525118278,-9.02508894071891,-11.4773702239923,2.03541213498009,657.114434995617,2325.22061421678
0.65,4.46794251019253,0.0542540491741805,16.6280790025384,-2.5824831098381,-2.97799622814822,3.33121482966384,-13.1361897727167,10.5167841369132,0.741614316527347,703.71599160546,2325.22061421678
0.66,4.50016290986224,0.0427524666433774,15.0194493198303,-2.04094634835465,0.9736128069701,4.39378789779476,1.11315367245627,15.1165541301353,-0.208565032888002,751.158424133271,2325.22061421678
0.67,4.50512741367374,0.0309728854882793,14.7737067255761,-1.42629027923578,3.3000741861214,3.06702505682058,9.77417468049979,11.1697011459149,-0.815108997943932,797.752104985092,2325.22061421678
0.68,4.45591017598152,0.041007013690223,17.2371545485653,-1.89255396994595,3.95061946082655,2.06141285222683,14.3169154840019,9.78402721195267,-1.08066268060244,844.030443104622,2325.22061421678
0.69,4.47337913861985,0.0557340752066849,16.3664327771343,-2.65344754102855,3.8043864456916,2.35390547321179,12.3852488091955,11.0229994845218,-1.00425675959779,890.834063699142,2325.22061421678
0.7,4.42292316912907,0.0278947205872014,18.8920033565245,-1.27622313021853,2.47725549874305,3.66418240121896,9.42042688648328,16.4253491158472,-0.588179805308234,937.29461681007,2325.22061421678
0.71,4.41576499641534,0.175055180771476,19.2527155084855,-8.58085053646777,-0.568327734708512,4.38253675464827,-11.6895304869245,17.5400378384752,0.168582872460758,983.25519006523,2325.22061421678
0.72,4.41622873011427,0.0425533280772015,19.2324688669882,-1.96309977521514,-4.1980497850759,1.37159213487147,-18.92982639274,3.9247028152262,1.26464376428269,1029.72442007519,2325.22061421678
0.73,4.33084389565928,0.0723621874038116,23.504694657488,-3.46837113243099,-1.91774224005272,-3.88377520403186,-6.91800451774642,-22.7297488491727,2.69963799881585,1076.113901724,2325.22061421678
0.74,4.35801990683065,0.0768867285174633,22.1489077057203,-3.69392485017593,4.21574815182966,-1.10712085957185,22.3935054762603,-1.65834430681987,-1.80997196681754,1122.33852778971,2325.22061421678
0.75,4.37316634838035,0.0734665012681901,21.3947155854043,-3.51259989179151,-1.2293394889419,4.19746419381309,-9.71138382343046,19.3845618267261,0.301706722908936,1168.35629756539,2325.22061421678
0.76,4.40162043299923,0.0777798498671745,19.9752307094026,-3.70547995382989,-1.74927791503947,-4.03984392238077,-4.18627729454033,-19.880027816764,2.75062907197342,1214.18735350918,2325.22061421678
0.77,4.38076950954045,0.048299565951909,21.0210255277194,-2.19776274314898,3.01189137494429,3.18150666969702,12.6698654357883,16.9170974209887,-0.74699362508699,1259.92301455725,2325.22061421678
0.78,4.22143615571487,0.127671239970871,28.9910299764367,-6.162907963602,-3.02077899709115,-2.95156185993542,-15.6756652220969,-25.1542197952396,2.3748397329348,1305.87878648903,2325.22061421678
0.79,4.29200343847435,0.118227401189607,25.4660874676255,-5.74217233626046,1.97502821271007,3.81241849660645,5.91766567956702,25.4258802591561,-0.450445105457163,1351.87612910688,2325.22061421678
0.8,4.36557898650879,0.0902505985623356,21.7907696101963,-4.26835173318083,0.782201122148869,-4.29588017320048,8.52839678448854,-20.501778337723,-2.94081380860128,1397.21866246186,2325.22061421678
0.81,4.27104814730785,0.124493427966419,26.5208300312599,-6.05185120542601,-3.9135906395881,1.71498081504053,-26.8572019129804,4.32088347042528,1.18692872796552,1443.24895282876,2325.22061421678
0.82,4.07417074622865,0.11996717857428,29.4736961964854,-5.7495233777785,-4.05657543476755,0.396806168551894,-29.7965088582274,-3.73146705947115,1.50272580070064,1487.84823137898,2325.22061421678
0.83,4.03371247331573,0.140058723382141,23.6803053161702,-6.78973214602553,0.125375696363679,4.03419554535222,-6.87587987482233,23.6554348602773,0.00363985577766865,1531.20818734762,2325.22061421678
0.84,3.80585811351991,0.0967392844661913,27.5716710553914,-4.67247683922091,3.5614794821037,1.34528003328629,23.7754228583324,14.7227155276209,-1.18422074693709,1573.07450706739,2325.22061421678
0.85,3.66177174262475,0.121475735277272,27.5201004530522,-5.92744523334216,3.15166869250161,-1.86823796719033,26.9774542978798,-8.0440969378894,-2.07272629318941,1613.11856758167,2325.22061421678
0.86,3.51004083973516,0.135332581613905,28.01843926313,-6.5787128755519,1.46485204173605,-3.19263372469764,18.5259915292618,-22.0249867127855,-2.67288948588133,1651.55616063602,2325.22061421678
0.87,3.26419794003736,0.105851169337823,33.4291928480587,-5.06720523702981,0.369352343855292,-3.24496094088711,9.86862130185818,-32.338797395503,-2.99584050111597,1688.60087998266,2325.22061421678
0.88,3.22415643193746,0.16819745703069,28.7742638806722,-8.21289858977816,0.120600584564362,-3.22628743002821,10.7514360010633,-27.9251963114958,-3.05210879391651,1724.31668071532,2325.22061421678
0.89,3.02218177664614,0.0845478860138049,32.4063209307933,-4.10756772548591,0.782219061786809,-2.92042195161911,13.1928571784015,-29.8829427660551,-2.85192243145206,1758.6897065049,2325.22061421678
0.9,2.95776537099804,0.125185175892708,29.3528516081689,-6.14028099027882,1.89400338046095,-2.27525790031393,24.2652700221493,-17.6207156189226,-2.40508602074444,1791.71887790886,2325.22061421678
0.91,2.81374552576247,0.0367551396081987,30.4233097973265,-1.68969578672217,2.77649508866443,-0.457809836786246,30.3331701371538,-2.88645809016051,-1.72115163528334,1823.36547240708,2325.22061421678
0.92,2.72503607002584,0.152886123234544,28.977994260358,-7.45123842431112,2.07840120213259,1.76902351386107,15.8404081819613,25.3835886753258,-0.809591645459706,1853.66155217646,2325.22061421678
0.93,2.59338690607439,0.161953954825778,29.8922547175616,-7.92679178119935,-0.662895054650029,2.5124599249744,-16.9360921922901,25.8756584707776,0.320332203792468,1882.94071390341,2325.22061421678
0.94,2.52092589525941,0.0999313895287548,27.9669836484918,-4.88069031661329,-2.51977551276374,-0.125638438699491,-27.419252021018,-7.35920722425931,1.66023603772373,1911.04264676405,2325.22061421678
0.95,2.42972614757751,0.0449128402584279,27.1650607331032,-2.04799176535392,0.100257619299059,-2.42807222405233,3.6664899223279,-26.9942891470328,-3.08184243071311,1937.82944663022,2325.22061421678
0.96,2.2499842248414,-0.0166403901362621,30.9989477677497,0.915782763574952,-1.6109889398679,1.57080251790043,-21.3898300476176,22.4554802066616,0.790631970325326,1963.73882453898,2325.22061421678
0.97,2.20083306042456,0.0933193973399384,28.4136830821468,-4.48923639963794,-1.00533895337349,-1.96001741283273,-7.80737305723743,-27.6863785224726,2.71003626074076,1988.35086960076,2325.22061421678
0.98,2.00691385602554,0.0617115000611375,33.2657099332999,-3.01673582365748,2.00375619753325,0.128345765782126,32.8313678152626,6.14893810142265,-1.47609135749769,2012.20183473713,2325.22061421678
