t,iq,id,vq,vd,ia,ib,va,vb,theta_e,omega,r
0,0,0,0,0,0,0,0,0,0,0,0
0.01,0.000965981301273195,0.000536375070168762,-0.0473996860839389,-0.0268560528239363,0.00100781826477413,0.000452902236134524,-0.0498825553648437,-0.0219022483871249,-0.64157477130108,-0.00289875909572563,0
0.02,0.00106361038630285,0.000593309598714884,-0.052416403978185,-0.0297067249603499,0.00111186863506004,0.000497022607280835,-0.0551691715959097,-0.0242142813086664,-0.641595167804359,-0.00279088022525568,0
0.03,0.00109744394630504,0.000614346593724414,-0.0541703642749026,-0.0307600539093808,0.00114898033939159,0.000511516502367178,-0.0570632052077319,-0.0249879949896731,-0.641613877261683,-0.00250289958773502,0
0.04,0.00107014253552113,0.00060226583483897,-0.0529349366898148,-0.030155167801806,0.00112297004924212,0.00049685757582131,-0.0558395937386072,-0.0243594219680411,-0.641629127465963,-0.00208199337237076,0
0.05,0.00108922291607646,0.000614580307852097,-0.0539423723822196,-0.0307717398761493,0.00114426195978748,0.000504757449760772,-0.0569368328864576,-0.0247967049038183,-0.641642765743131,-0.00185313126352256,0
0.06,0.00108641418691772,0.000614909424130386,-0.0538753315467353,-0.0307882342718423,0.00114285043902433,0.000502296983310022,-0.0569102114635388,-0.0247324594414668,-0.641654469070622,-0.0015916669489152,0
0.07,0.00111421362991018,0.000632047066085398,-0.0552830853891607,-0.0316462951765207,0.00117322310080139,0.000514298612258235,-0.0584404280345692,-0.0253460825312522,-0.641664219008143,-0.0014760869774298,0
0.08,0.0010818459184048,0.000615375735427405,-0.0537623380051237,-0.0308115672929494,0.00114049895530732,0.000498337255144409,-0.0568617272347175,-0.0246269292180268,-0.641672847598225,-0.00118053605160496,0
0.09,0.00107873762562861,0.00061492377254569,-0.0536536375983352,-0.0307889384259806,0.00113828000073466,0.000496109615827159,-0.0567787132616248,-0.0245529891721253,-0.641679977509341,-0.00101650693462472,0
0.1,0.00107687737438462,0.00061490988444813,-0.0535990705217581,-0.030788256336079,0.00113715842272368,0.000494620831629753,-0.0567456541297052,-0.0245093416150737,-0.641686015044733,-0.00088022685108865,0
0.11,0.00107532527488453,0.000614908076568974,-0.0535540129694856,-0.0307881618208994,0.00113623049479746,0.000493372731438988,-0.0567187345910668,-0.02447301288836,-0.641691132334207,-0.000764802090534952,0
0.12,0.00107401054623537,0.000614906812270997,-0.0535158600876036,-0.0307880845442265,0.00113544468520068,0.000492315354271641,-0.0566959422567236,-0.0244422495372391,-0.641695469794625,-0.000666969687187777,0
0.13,0.00112611732178236,0.000644380309407295,-0.0560720143997042,-0.0322638202156433,0.00119024636257236,0.000516410497524387,-0.0594082364938774,-0.0256063728480924,-0.641699810190404,-0.000750300772725625,0
0.14,0.00118557694804165,0.000679822324945463,-0.059147004756885,-0.0340383871085037,0.00125423021884477,0.00054282377560182,-0.0626704627095064,-0.0270072781382296,-0.641703403569131,-0.000874656580088301,0
0.15,0.00107427186860336,0.000616655780200231,-0.0535943287505204,-0.0308756621696675,0.00113700762562642,0.00049146521565038,-0.0568133384431382,-0.0244520584732601,-0.641706574973296,-0.00042879596936357,0
0.16,0.00107015157303669,0.000614950304983758,-0.0534061106180779,-0.0307902736935691,0.00113317613475489,0.000489183109371623,-0.0566323242105262,-0.0243522783326144,-0.641708581534814,-0.00037162309615823,0
0.17,0.00106953078904593,0.000614903801272275,-0.0533858986146982,-0.0307879446466065,0.00113276812284328,0.000488711748791057,-0.0566184011376291,-0.0243373860362993,-0.641710260623643,-0.000333371676058794,0
0.18,0.00106909603856799,0.000614902146418497,-0.0533732000744607,-0.0307878561111232,0.0011325072648812,0.000488362861347125,-0.0566107639012321,-0.0243271860400375,-0.641711683145722,-0.000301274323398268,0
0.19,0.00106873067167201,0.000614901762916188,-0.0533625861340794,-0.0307878285645042,0.00113228884939498,0.000488069040347501,-0.0566044179961849,-0.0243186317449713,-0.641712888867438,-0.000274078625764335,0
0.2,0.00106842065767026,0.000614901465316839,-0.0533535704221096,-0.0307878292996731,0.0011321035449345,0.000487819718064038,-0.0565990469100053,-0.0243113512304815,-0.641713910848769,-0.000251027607210685,0
0.21,0.00106815820192089,0.000614901213775985,-0.0533459415469846,-0.0307878044681061,0.00113194666786965,0.000487608642389407,-0.0565944816620328,-0.0243052057984799,-0.64171477709028,-0.000231489341760252,0
0.22,0.00106793549941044,0.00061490100056182,-0.0533394602891373,-0.0307878050240872,0.00113181355192146,0.000487429538579563,-0.0565906204629533,-0.0242999719702643,-0.641715511325404,-0.000214928511144309,0
0.23,0.00106774679017393,0.000614900819821805,-0.0533339666616277,-0.0307878055074258,0.00113170075459659,0.000487277773133329,-0.0565873476466283,-0.024295535683461,-0.641716133670406,-0.000200891384013969,0
0.24,0.00106758701273558,0.000614900666611768,-0.0533293161056386,-0.0307877775658116,0.00113160525068741,0.000487149275046111,-0.0565845543892653,-0.024291797140296,-0.641716661176062,-0.000188993373415914,0
0.25,0.0010674515053011,0.000614900536740057,-0.0533253674998739,-0.0307877779386062,0.00113152425352967,0.000487040295999131,-0.0565822020249797,-0.0242886085109444,-0.64171710829513,-0.000178908499573866,0
0.26,0.00107858293765094,0.000621021726869402,-0.0538678679726393,-0.0310942672561744,0.00114309087314236,0.000492292996470826,-0.0571524546984155,-0.0245397143027718,-0.641717435693974,-0.000209622813612761,0
0.27,0.00104001482361249,0.000599407863612163,-0.0519982481774105,-0.0300120551350445,0.00110269115277972,0.000474334103639153,-0.0551664394786837,-0.0236897704124217,-0.641718007611352,-6.647279977242e-05,0
0.28,0.0010344118245712,0.000595695751271215,-0.0515733097118258,-0.029826197409151,0.00109636383478103,0.000472067360320031,-0.0547632051478373,-0.0234605986380875,-0.641718304406667,-4.10760437354323e-05,0
0.29,0.00106605048502085,0.000614381845921562,-0.0532643156937745,-0.0307617996007204,0.00113027071412288,0.000486227109494456,-0.0565248765758371,-0.0242551843754554,-0.641718299278105,-0.000148517120028204,0
0.3,0.00106125051355439,0.000611905388371667,-0.0530268945060037,-0.0306378192763387,0.00112541341636056,0.000483865166253369,-0.0562834283543367,-0.0241392461283008,-0.641717568738722,-0.000147960483984162,0
0.31,0.00106703659759532,0.000614819486022743,-0.053309475493134,-0.0307837311953215,0.00113121133044847,0.00048675561308122,-0.0565694655633735,-0.0242782587829762,-0.641717840114153,-0.000161747455014361,0
0.32,0.00106714283257188,0.000614898064905891,-0.0533161947616791,-0.0307876431337348,0.00113133799647684,0.000486793378203021,-0.0565766277289772,-0.0242812847356197,-0.64171810638153,-0.000156375371637523,0
0.33,0.00106708008480758,0.000614900122006445,-0.0533144738323146,-0.0307877510291342,0.00113130219567483,0.000486741624989904,-0.0565756895670929,-0.0242798287361433,-0.64171833322609,-0.000151279001343321,0
0.34,0.00106702199356458,0.000614900123435568,-0.0533127742627562,-0.0307877541462459,0.00113126751857756,0.000486694871519085,-0.0565746794170048,-0.0242784545188614,-0.641718525538418,-0.000146941985363639,0
0.35,0.00106697251705285,0.000614900077622459,-0.0533113192030046,-0.0307877543343022,0.00113123794590324,0.000486655080477757,-0.0565738125655662,-0.0242772795821562,-0.641718688545462,-0.000143265336818253,0
0.36,0.00106693072395236,0.000614900037520638,-0.0533100902405959,-0.030787754505566,0.00113121296478743,0.000486621469063187,-0.0565730804330717,-0.0242762871804705,-0.641718826711725,-0.000140148954905229,0
0.37,0.00106689510086391,0.000614900003495259,-0.0533090357880291,-0.0307877546633626,0.0011311916714895,0.00048659282043477,-0.0565724522353366,-0.0242754357724291,-0.641718943823079,-0.000137507477593171,0
0.38,0.00106686506571091,0.000614899974653552,-0.0533081471685358,-0.0307877548089606,0.00113117371844308,0.000486568665212777,-0.0565719228576653,-0.0242747182250447,-0.641719043087309,-0.000135268534751489,0
0.39,0.00106683945434013,0.000614899950206564,-0.0533073834609842,-0.0307877549448858,0.00113115840951121,0.000486548068224343,-0.0565714678738939,-0.0242741016022373,-0.641719127224941,-0.000133370784205565,0
0.4,0.00106681780109029,0.000614899929484935,-0.0533067360672618,-0.0307877550721644,0.00113114546654824,0.000486530654235738,-0.0565710821942341,-0.0242735788853129,-0.641719198540483,-0.000131762231694592,0
0.41,0.00106679952388478,0.000614899911920908,-0.0533061883218497,-0.03078775519207,0.00113113454163583,0.000486515955092368,-0.0565707558916439,-0.0242731366127118,-0.641719258988239,-0.00013039880635554,0
0.42,0.001066784040647,0.000614899897033316,-0.0533057216547755,-0.030787755305879,0.00113112528677953,0.000486503502925366,-0.0565704778918793,-0.0242727598141514,-0.641719310224373,-0.000129243153279221,0
0.43,0.00106677076930032,0.000614899884414403,-0.0533053158958464,-0.0307877554148593,0.00113111735392053,0.000486492830107769,-0.0565702361567002,-0.0242724322517613,-0.641719353652531,-0.000128263610069989,0
0.44,0.00106675959342944,0.000614899873718561,-0.0533049727971404,-0.0307877555192544,0.00113111067367815,0.000486483842243718,-0.0565700317639433,-0.0242721552616101,-0.641719390462541,-0.000127433339361143,0
0.45,0.00106675016378838,0.000614899864652297,-0.0533046812996111,-0.0307877556198261,0.00113110503725887,0.000486476258598049,-0.0565698581190572,-0.0242719199271293,-0.641719421663047,-0.000126729593531807,0
0.46,0.00106674213113118,0.000614899856968211,-0.0533044294013376,-0.0307877557173485,0.00113110023583118,0.000486469798582053,-0.0565697080593845,-0.0242717165851391,-0.64171944810891,-0.0001261330914641,0
0.47,0.00106673537904252,0.000614899850454653,-0.0533042158757305,-0.0307877558120715,0.00113109619989485,0.000486464368246604,-0.0565695808685037,-0.0242715442119375,-0.64171947052432,-0.000125627490292717,0
0.48,0.00106672955827643,0.000614899844933736,-0.0533040271791517,-0.0307877559047606,0.0011310927205571,0.000486459687233066,-0.056569468455087,-0.0242713919229159,-0.641719489524032,-0.000125198937638062,0
0.49,0.00106672466883292,0.000614899840254614,-0.0533038666311105,-0.0307877559954109,0.00113108979795017,0.000486455755043446,-0.0565693728187265,-0.0242712623478077,-0.6417195056281,-0.000124835692085145,0
0.5,0.00106672059429666,0.000614899836287899,-0.0533037312022643,-0.0307877560842788,0.00113108736250213,0.000486452477999121,-0.0565692921570624,-0.0242711530347698,-0.641719519278097,-0.000124527801488357,0
0.51,4.60456884655337,0.00273785296417897,9.77294144004649,-0.12735414720183,-0.755717846342467,4.54213081000627,-1.735315448963,9.61848656296706,0.165463938037451,50.7774767003233,4272.9676370281
0.52,4.65309904739375,0.0171812512855508,7.34809194917978,-0.836592965622436,-3.15093119554034,3.42392443567657,-5.60928807798536,4.81977492647748,0.747593618030392,108.28107986767,4272.9676370281
0.53,4.51572651397753,0.0535851280110029,14.2186692393606,-2.64507645455385,-4.44446500628616,-0.800867106879397,-13.462471113665,-5.28477586114214,1.76094320644008,169.225248031916,4272.9676370281
0.54,4.56721762964466,0.000431359628179084,11.6462403643049,0.0128269377207258,0.420874367389631,-4.54778427692899,1.06153748344122,-11.5977677733582,-3.04921613180175,231.164616535011,4272.9676370281
0.55,4.43616370586735,0.0591222826564249,18.2010981384113,-2.89632023715246,4.06648054419084,1.77391652940001,15.391042386378,10.1382670422974,-1.14612667759073,288.524833290858,4272.9676370281
0.56,4.44707001942321,0.0508495433971483,17.6582700534799,-2.49016436350023,-4.12087271974325,1.67255058560043,-17.3468585899775,4.13544639648454,1.1966712690783,349.341274958915,4272.9676370281
0.57,4.44231390846471,0.00198706302322305,17.8987001670801,-0.0488850052981211,3.26981394104102,-3.00707060122177,13.2130265958193,-12.0740128206387,-2.3139127315527,408.799825849674,4272.9676370281
0.58,4.43514561545824,-0.00393317078846356,18.2597895190363,0.291056225671638,-3.46007734208491,2.77459850914353,-14.0529429438932,11.6627364551246,0.894017700936533,466.939812949352,4272.9676370281
0.59,4.3300429012372,0.062754274750998,23.5178996879195,-3.0279453642693,4.24984928929134,-0.831859750116638,23.6814860071309,-1.2030292407533,-1.74959934835834,525.333069041344,4272.9676370281
0.6,4.32281787689912,0.0754285878650875,23.8822069105428,-3.65523162637362,-3.21933050564987,-2.88588893828195,-15.0153048981415,-18.9277876144114,2.31908004632463,584.118691513789,4272.9676370281
0.61,4.40149580815539,0.00353355726104621,19.9515747705064,-0.0993728686328718,-2.23359348567908,3.79265579455457,-10.2240550384858,17.1331231642144,0.53303984335394,642.988734730655,4272.9676370281
0.62,4.37771676239787,0.108436402704404,21.1438772097368,-5.32510935493868,3.2914463617976,2.88834612756506,11.9318471995253,18.2496946689435,-0.825769634797811,700.973223024693,4272.9676370281
0.63,4.37376866919309,0.0979672482900282,21.3448141112367,-4.74366143271056,4.27696530924487,-0.920335643593417,21.8563006755309,0.636815524483175,-1.76035353219042,758.200589104252,4272.9676370281
0.64,4.30402630360758,0.0655478748477107,24.8355516393421,-3.17962484411699,3.25105111523622,-2.82127729799187,21.0502674146551,-13.5573183613598,-2.27030827258865,816.826934895695,4272.9676370281
0.65,4.2464337647085,0.08355416554479,27.7189589187192,-3.99785753043923,2.93945440124801,-3.06574441850915,22.4044571051076,-16.8036856134815,-2.35754772931805,873.705493031934,4272.9676370281
0.66,4.25752091151942,0.0842389632317981,27.1684273807602,-4.05264376438257,3.7937328966277,-1.93421074963312,26.2125012401959,-8.21292557846219,-2.02250449747538,931.430088873574,4272.9676370281
0.67,4.16009402107021,0.091450633494961,32.0437706639678,-4.44243727893914,3.99665299894947,1.15823585184494,29.243923933978,13.8322594064013,-1.2667427692692,989.053272409274,4272.9676370281
0.68,4.21809308327899,0.128664522989768,29.1479017325671,-6.30893177851933,0.512605217744681,4.18880647791506,-3.62585791669858,29.60162073207,-0.0912760035333808,1046.32828262878,4272.9676370281
0.69,4.22651869700523,0.0936087817186106,28.7307845682317,-4.54051121046169,-4.2104586616961,0.379816743045775,-28.9724371911022,-2.58304223080209,1.50297624429147,1103.37938835849,4272.9676370281
0.7,4.15060875378392,0.029695598548759,32.5306303613272,-1.30599035752536,1.48718463701677,-3.87514086337286,13.0884843205862,-29.8100503305349,-2.76799616753547,1160.03090499737,4272.9676370281
0.71,4.12115136785962,0.114142333806068,34.0078661649038,-5.47545646383715,1.48037795494333,3.84777834336851,6.16524648098666,33.8896049018879,-0.339589068386602,1216.57299865051,4272.9676370281
0.72,3.99614558366311,0.0985684285607999,40.26267665454,-4.80620015559119,-2.45700151958214,-3.15309987055757,-20.0942405034904,-35.2193723668031,2.50430387924894,1273.55242651043,4272.9676370281
0.73,4.01065410892409,0.132326891238724,39.5417304720082,-6.40946142668689,2.10712735517218,3.41509459556535,14.0795055530803,37.5019621870897,-0.519846900224836,1329.88008379568,4272.9676370281
0.74,4.03209655381608,0.139016330561434,38.4741002360396,-6.81921720020784,-0.0934184153013157,-4.03341061127439,7.25378996013734,-38.3945392394627,-3.13028588055144,1386.52489854062,4272.9676370281
0.75,3.96275703378632,0.197674083937726,41.9455420296347,-9.61531645396498,-3.12271000094783,2.44769291420799,-39.8082115451632,16.3459199877302,0.95583106346879,1442.50236922771,4272.9676370281
0.76,4.0278681796079,0.0674539294773593,38.6943926686768,-3.12559200268064,3.0145337948078,2.67223840719002,26.4094968097422,28.452835142059,-0.828771894870732,1498.79492651459,4272.9676370281
0.77,4.02507588577533,0.108832255636792,38.838333116126,-5.22212041693023,3.18473275832315,-2.46385015862988,34.4322950972348,-18.7110586345356,-2.20222684695552,1554.91696707411,4272.9676370281
0.78,3.99198145625471,0.111957982615409,40.4972534067863,-5.37465153930343,2.22048693580219,-3.31932045829935,27.8337237363463,-29.9031475873553,-2.52396685220482,1610.82621951076,4272.9676370281
0.79,3.98168323928989,0.170291400974059,41.0162729675224,-8.25596839010178,0.0833347512721299,-3.98445176887839,10.8483588374853,-40.4080285678208,-3.07793806900425,1666.48921739447,4272.9676370281
0.8,3.86137486901609,0.199071855385096,47.0356717941294,-9.64346000494751,-0.517637731712675,-3.83169631643517,5.7216697959284,-47.6719334277355,3.05882103492835,1721.83309746787,4272.9676370281
0.81,3.76985707732127,0.115641573567983,48,-5.62981293696919,0.550726397107949,-3.73120567544796,14.0031725625595,-46.2558747824365,-2.96438489714014,1777.52025302232,4272.9676370281
0.82,3.85516523491934,0.136309883548224,47.3537357196939,-6.56251677074181,2.7859898048156,-2.66817169244169,39.7042678113721,-26.6273173740752,-2.29925333673499,1832.4993903969,4272.9676370281
0.83,3.70613168887022,0.135473998501101,48,-6.57107167805043,3.53984107036138,1.10602463629917,43.07467121407,22.1754748043384,-1.23141892934493,1887.41900161563,4272.9676370281
0.84,3.77255246135124,0.129297353616026,48,-6.15140942475083,-0.765722983529068,3.69628708189647,-17.3184350300748,45.1875164843123,0.238530405253373,1942.07014445023,4272.9676370281
0.85,3.84264863105289,0.123129873712985,47.9903412349484,-5.93136614400561,-3.36227864510388,-1.8644548211774,-38.1615609334117,-29.6976299274293,2.10913609740481,1996.78623271636,4272.9676370281
0.86,3.71061062163147,0.156556220447272,48,-7.65585029523082,3.45436357207638,-1.36400635901624,47.8580357388531,-8.49826211419994,-1.9047014386458,2051.04973591439,4272.9676370281
0.87,3.68143757098089,0.188328785750604,48,-9.25142225218414,-2.40460994976618,2.79397589647038,-39.8236954905065,28.348934568474,0.761751074509374,2105.14176642305,4272.9676370281
0.88,3.75052355290652,0.221475477866144,48,-10.8991039185538,2.19384549143379,-3.05000332260773,38.7341970438478,-30.3719022386779,-2.45905211117058,2159.10581130806,4272.9676370281
0.89,3.71857620508486,0.135754674963295,48,-6.57591149207843,-3.05140181540377,2.12959744687776,-43.9020170120214,20.4903761368072,0.997966793120615,2212.81109355947,4272.9676370281
0.9,3.69565162813479,0.269850246410968,48,-13.1899073132196,2.82280498198988,2.40050664353934,24.9505150304994,43.0748819457947,-0.793182511522533,2266.36592582433,4272.9676370281
0.91,3.59588244467048,0.167501941497586,48,-7.9696318368736,0.932419454672256,-3.47692700769566,22.1700653981783,-43.3128529637082,-2.83303610981159,2319.80617358744,4272.9676370281
0.92,3.65409571660001,0.00649333256376439,48,-0.0897741712838949,-3.55834785663843,-0.831034416013563,-46.7021431370352,-11.0868338947467,1.80200600518481,2373.31272015256,4272.9676370281
0.93,3.58917031776392,0.156712120273801,48,-7.41260761419775,-1.72373605714241,3.15205270639078,-31.1879981463831,37.2324525550395,0.544065146245771,2426.2362215707,4272.9676370281
0.94,3.73886261615938,0.374642473588323,48,-18.4243969793559,1.54760959477873,3.42408457659553,-2.15216077296033,51.3695104907593,-0.324628395043761,2479.4120401966,4272.9676370281
0.95,3.67138341469896,-0.00270303106810987,48,0.361070380270035,2.6440215755217,2.54719716399797,34.8429960929631,33.0166018100783,-0.804783820198692,2532.48140806748,4272.9676370281
0.96,3.71934641747002,0.371685241387533,48,-18.3925219557155,3.13872618715481,2.02979940237478,26.0403154197392,44.3191475181097,-0.897145533706409,2585.22364706071,4272.9676370281
0.97,3.48768124870982,-0.00894115310559451,48,0.707176565725786,1.96835628281848,2.87916202751946,27.7741168596607,39.1548021494302,-0.602236016199235,2638.024152833,4272.9676370281
0.98,3.76081617501834,0.380950074387702,48,-18.8422181883157,0.0831656698546242,3.7791460322159,-22.5690638476684,46.3644965819318,0.078947271683324,2690.57353545301,4272.9676370281
0.99,3.55371220818398,-0.083714911941051,48,4.41185956984143,-3.45347588635276,-0.842248744408179,-47.8321902660824,-5.96205327159147,1.78645818366843,2743.11003747321,4272.9676370281
