t,iq,id,vq,vd,ia,ib,va,vb,theta_e,omega,r
0,0,0,0,0,0,0,0,0,0,0,0
0.01,0.00102718017719168,0.000585458542219845,-0.0508361007986876,-0.0293309686713992,0.000836906832465872,0.000835133387457153,-0.0417626275981226,-0.0412370925710998,-0.268415382176347,-0.00160755478549967,0
0.02,0.00114766542795787,0.000654946832410398,-0.056903843924243,-0.0328122705967342,0.000935871045271059,0.000932864767497085,-0.0467290046110548,-0.0461637594128548,-0.268427149171982,-0.0017125981627955,0
0.03,0.00117679861438163,0.000671687318547064,-0.0583607908501129,-0.0336509530712502,0.000959749930342801,0.000956503478255284,-0.0479246182510134,-0.0473455332291098,-0.268438987605989,-0.00166688515848425,0
0.04,0.00116048805215627,0.000662899898759165,-0.0575818962408403,-0.0332106909843637,0.00094696135494206,0.000943097549153142,-0.0472940417091274,-0.0467107952101558,-0.268449727048378,-0.00155514818294669,0
0.05,0.00117570557287891,0.000671731376669708,-0.0583522404562085,-0.0336531474696577,0.000959522880626341,0.000955417436545742,-0.0479254756767676,-0.0473356850803837,-0.268460311873183,-0.00149646932057475,0
0.06,0.00117525441121197,0.000671784720978875,-0.0583512781298535,-0.033655817292337,0.00095946421175663,0.000954958673855622,-0.0479282688103305,-0.0473335689109473,-0.268470330022162,-0.00141651045636161,0
0.07,0.00120666035794849,0.000689886387167581,-0.059914687173406,-0.0345627110111175,0.000985257276339216,0.000980428756240934,-0.0492178364750038,-0.0485999516897385,-0.268479710585693,-0.00139396953229479,0
0.08,0.00117444815975378,0.00067189510109369,-0.0583505043802497,-0.0336613423650985,0.000959374298985886,0.000954134404194755,-0.0479342600556107,-0.0473304769062282,-0.268488697198339,-0.00126994873631824,0
0.09,0.00117376410392803,0.000671777100890589,-0.0583346710685733,-0.0336554573465069,0.000959087075451126,0.000953498099973745,-0.047924783276821,-0.0473163693213134,-0.268497099579221,-0.00120238387599224,0
0.1,0.00117332088583986,0.000671773777934636,-0.0583296599090039,-0.0336552802920063,0.000958973844992267,0.000953064045324003,-0.0479236580585245,-0.0473112049616493,-0.26850502296269,-0.00113900217933528,0
0.11,0.00117290455970377,0.000671771335558818,-0.0583250145174415,-0.0336551411359091,0.000958868161253453,0.000952656119902032,-0.0479226449931694,-0.0473064048538502,-0.268512495115269,-0.00107923227150137,0
0.12,0.00117251166131474,0.000671769036354267,-0.0583206185173008,-0.0336550299953373,0.000958768419785086,0.000952271154318034,-0.0479217049067071,-0.0473018581776876,-0.268519541737932,-0.00102286620315106,0
0.13,0.00122630078752028,0.000702538827964697,-0.0609792252901297,-0.0351965727110793,0.00100271307779223,0.000995962303450938,-0.0501136946034483,-0.0494558617434071,-0.268526592853957,-0.00105554519881511,0
0.14,0.00132685063558748,0.000760792791623191,-0.0660688941508904,-0.0381150401932819,0.00108556341767867,0.00107744621542911,-0.054278268393083,-0.0535884749130399,-0.268533126004533,-0.00116919887767087,0
0.15,0.00117246038180955,0.000672333018024214,-0.0583600252917318,-0.0336833045746467,0.000959317447034142,0.000952053081426892,-0.0479603587072501,-0.0473314013292644,-0.2685393520867,-0.000866134258060457,0
0.16,0.00117110680287973,0.000671764424025435,-0.0583051765633117,-0.0336547971179358,0.000958415344075499,0.000950893586779326,-0.0479185813179611,-0.0472858176158806,-0.268544871641405,-0.000820263338342494,0
0.17,0.00117080962599944,0.000671759093604342,-0.0583015779091931,-0.0336545306962246,0.000958336300982602,0.000950603489574944,-0.0479176156208169,-0.047282169327353,-0.268550074473997,-0.000778634097762866,0
0.18,0.00117053608157161,0.000671757468202732,-0.0582985129075704,-0.033654447614015,0.000958266816121688,0.000950335479431956,-0.047916954244139,-0.0472790011252746,-0.268554980995072,-0.000739386657400994,0
0.19,0.00117027793224396,0.000671755957010274,-0.0582956122149135,-0.0336543924381896,0.000958201258281991,0.000950082550677991,-0.0479163501319642,-0.0472759973340199,-0.268559608095587,-0.000702374386674798,0
0.2,0.00117003477221116,0.000671754531883397,-0.0582928900680858,-0.0336543093589161,0.000958139508181447,0.000949844304163012,-0.0479157540096326,-0.0472731857251438,-0.268563971687919,-0.000667469920748331,0
0.21,0.00116980514463472,0.000671753187796869,-0.0582903061725046,-0.0336542541728761,0.00095808118902943,0.000949619322127066,-0.0479152096953675,-0.0472705119230354,-0.268568086779075,-0.000634553222180036,0
0.22,0.0011695891093652,0.000671751920148036,-0.0582878941216347,-0.0336541681821433,0.000958026326034071,0.000949407649850113,-0.0479146701821688,-0.0472680232133825,-0.268571967520629,-0.000603511090016261,0
0.23,0.00116938497674154,0.000671750724595505,-0.0582855983609213,-0.0336541129836012,0.000957974479613062,0.000949207646531296,-0.0479141807513712,-0.0472656490479985,-0.268575627258468,-0.000574236769965564,0
0.24,0.00116919260206433,0.000671749597044012,-0.0582834389677314,-0.0336540577758522,0.00095792561962298,0.000949019161619344,-0.0479137176311752,-0.0472634163539378,-0.268579078578547,-0.000546629587260209,0
0.25,0.00116901117042631,0.000671748533630231,-0.0582814008699991,-0.0336540025591958,0.000957879537588255,0.000948841399015435,-0.0479132773859826,-0.0472613100300635,-0.268582333350026,-0.000520594600438992,0
0.26,0.00117829821014452,0.000677067786096369,-0.0587443031927176,-0.0339205144378293,0.000965475457961425,0.000956380990543724,-0.0482932177219405,-0.0476367461040966,-0.2685853858747,-0.000511726507018217,0
0.27,0.00113410619550783,0.000652002201469651,-0.0565786237101392,-0.0326647446674179,0.000929584162445203,0.000920422195702367,-0.0465079065680359,-0.045881813736817,-0.268588381292106,-0.00041538420410272,0
0.28,0.00111203251672542,0.000639092155229912,-0.0553785741328391,-0.0320179530158673,0.000911281788827821,0.000902563350952083,-0.0455659715140701,-0.0448963030581761,-0.268591161388797,-0.000357109251777394,0
0.29,0.00116799934051047,0.00067153562490194,-0.0582554706359709,-0.0336433526310204,0.000957416436840265,0.000947911557801371,-0.047896660481715,-0.0472385959780027,-0.268593598996714,-0.000429849710112875,0
0.3,0.00116611309926819,0.000670563635948043,-0.0581668169293278,-0.0335946614787259,0.000955980546057967,0.000946349061234507,-0.0478262788264479,-0.0471659509092628,-0.268595511837884,-0.000411623021501455,0
0.31,0.00116813267826268,0.000671735906221474,-0.0582709634166647,-0.0336533733406444,0.000957648928647583,0.000947982917141688,-0.047910633027723,-0.0472506715041588,-0.268597825811667,-0.000396645854893268,0
0.32,0.00116802531545674,0.000671742707540636,-0.0582703031466576,-0.0336537212893183,0.000957629067283369,0.000947875504576326,-0.0479108966184561,-0.0472498377842517,-0.268600012916133,-0.000379175142677078,0
0.33,0.00116791038525098,0.000671742081515372,-0.0582690070582867,-0.0336536967497826,0.000957599918151256,0.000947762886386888,-0.0479106264545524,-0.0472484958619567,-0.268602075500969,-0.000362676640778516,0
0.34,0.00116780185788446,0.00067174144600604,-0.0582677766745879,-0.03365366928761,0.000957572347324522,0.000947656556564712,-0.0479103653548349,-0.0472472236928871,-0.26860402062415,-0.000347117554430643,0
0.35,0.00116769961694506,0.000671740846375491,-0.0582666206275083,-0.0336536418129879,0.000957546374056934,0.000947556384408506,-0.0479101187328073,-0.0472460285064805,-0.268605854974844,-0.000332444538328183,0
0.36,0.00116760319677148,0.000671740280869839,-0.0582655292788598,-0.0336536143268638,0.000957521879119537,0.000947461915362017,-0.0479098843303415,-0.0472449007074866,-0.268607584861408,-0.000318607132877291,0
0.37,0.00116751224811776,0.000671739747550554,-0.0582644980828194,-0.0336535868296831,0.000957498773651241,0.000947372807505386,-0.047909661223177,-0.047243835627797,-0.268609216232822,-0.000305557751061427,0
0.38,0.00116742653815325,0.000671739244586392,-0.0582635275288469,-0.0336535593217817,0.000957476999461852,0.000947288831457178,-0.047909449807189,-0.0472428334702928,-0.26861075469954,-0.000293251515880973,0
0.39,0.00116734571763199,0.000671738770250609,-0.0582626116033653,-0.0336535318037668,0.000957456467257113,0.000947209645875228,-0.0479092487374971,-0.0472418881832678,-0.268612205552418,-0.00028164610602772,0
0.4,0.0011672694373046,0.000671738322914251,-0.0582617436888486,-0.033653501365926,0.000957437087544309,0.00094713490967851,-0.0479090536886515,-0.0472409939195756,-0.268613573780776,-0.000270701610340968,0
0.41,0.00116719758076256,0.000671737901041603,-0.0582609281388325,-0.0336534738290576,0.000957418832441378,0.000947064506525474,-0.0479088716508332,-0.0472401531062851,-0.268614864090205,-0.000260380390552604,0
0.42,0.00116712947779941,0.000671737503183684,-0.0582601410651026,-0.03365347411008,0.000957401526915003,0.000946997786371539,-0.0479087205175367,-0.0472393358862721,-0.268616080917684,-0.00025064695184852,0
0.43,0.00116706565391429,0.000671737127974076,-0.0582594177952261,-0.0336534465544886,0.000957385313105512,0.000946935252219026,-0.0479085562039369,-0.0472385908901689,-0.268617228448468,-0.000241467820800572,0
0.44,0.00116700543890389,0.000671736774123714,-0.0582587333940621,-0.0336534189910833,0.000957370015662094,0.000946876254455965,-0.0479083991098756,-0.0472378865022419,-0.268618310628688,-0.000232811430253023,0
0.45,0.00116694827898097,0.000671736440417426,-0.0582580682123086,-0.0336534192425661,0.000957355489983943,0.000946820255908653,-0.0479082710213906,-0.047237196215344,-0.26861933117961,-0.000224648010762003,0
0.46,0.00116689481605896,0.000671736125708819,-0.0582574619533445,-0.0336533916630657,0.000957341908673579,0.000946767872408437,-0.0479081289915066,-0.0472365729092009,-0.268620293611795,-0.000216949488218109,0
0.47,0.00116684405897873,0.000671735828916792,-0.0582568722398363,-0.0336533918965269,0.00095732901078485,0.000946718145455229,-0.0479080155782072,-0.0472359607996713,-0.268621201234267,-0.00020968938729787,0
0.48,0.00116679653323786,0.000671735549021312,-0.0582563321066355,-0.0336533643026476,0.00095731693777326,0.000946671578979363,-0.0479078860517095,-0.0472354063543625,-0.26862205716846,-0.000202842740415181,0
0.49,0.00116675136409308,0.000671735285061104,-0.0582558041952136,-0.0336533645203251,0.000957305459353746,0.000946627327040952,-0.0479077842797349,-0.047234858646717,-0.268622864358337,-0.000196386001859572,0
0.5,0.00116670907704142,0.00067173503612907,-0.0582553208005764,-0.0336533369136749,0.000957294716760542,0.000946585893871507,-0.0479076653241089,-0.0472343634465053,-0.268623625579632,-0.000190296966819099,0
0.51,4.58810397388485,0.0731921121161622,10.5965300781948,-3.66037076468521,-0.437032002610325,4.56782860768094,-4.81505711236462,10.1242278143924,0.111336981352765,34.1705848665459,4081.08094520136
0.52,4.54371969551874,0.00530241917519436,12.8177150708747,-0.250618663283264,-2.18494962661074,3.98389406438821,-6.39639201816244,11.110481470328,0.50281609546382,72.7015557916315,4081.08094520136
0.53,4.51508548363356,0.0795501854679992,14.251494091635,-3.96076342301608,-4.14430266812419,1.79362218750361,-14.6857013964466,1.76717436361421,1.17996104012451,112.418792989592,4081.08094520136
0.54,4.56307588793195,0.068919774651838,11.8541847150082,-3.42981514852796,-3.83247361174196,-2.4776112507142,-7.95136689208131,-9.43721843331599,2.15979454104589,155.420040245602,4081.08094520136
0.55,4.53224369387603,0.0549142172316555,13.3980584053053,-2.71739870460137,1.32170507639882,-4.33559040534906,6.65138264175555,-11.9436733756702,-2.8335764569375,195.659357245323,4081.08094520136
0.56,4.42463020541631,0.0214059546473214,18.7810772222797,-1.02170690023581,4.21718872067409,1.33907802752341,17.5587256767608,6.74269228331568,-1.25849895409231,234.580287115749,4081.08094520136
0.57,4.5043214280103,-0.0443469105445868,14.7989848029216,2.26624584295508,-2.64147800299629,3.64876309658414,-6.71104391558864,13.3831129032395,0.616766590587871,276.297918968938,4081.08094520136
0.58,4.40973684172757,0.017486366340004,19.5307548696363,-0.808413810511456,-1.56327262631632,-4.12338010400537,-6.09417742491014,-18.5732312800052,2.78317665433693,315.441654739974,4081.08094520136
0.59,4.48198048430679,0.0667375853426276,15.9211996959042,-3.27479662264478,3.889450422193,2.22817826493011,12.0254971029957,10.9360098803168,-1.03566959699226,355.673762543228,4081.08094520136
0.6,4.467297549156,0.0411946090338682,16.6581222180206,-2.00226759903638,-4.42424412273168,-0.620087357541537,-16.1786700161917,-4.44440635809119,1.71926704066551,396.338924597819,4081.08094520136
0.61,4.37511114062081,0.0624707202270072,21.2702822591022,-3.06969864779714,4.3720117896235,0.176105068249411,21.0713331068591,4.22455657672501,-1.51626030234979,436.219729755355,4081.08094520136
0.62,4.33377633501943,0.0275458436239455,23.3398725320447,-1.31260387731733,-4.20209537292907,-1.06055201300244,-22.2641846029205,-7.12591486883747,1.82437581173449,475.790423548117,4081.08094520136
0.63,4.40734678318689,0.0209403325374038,19.6644076755948,-0.962842599237597,3.25596453530139,2.97049475839535,13.8116411158119,14.0304869762568,-0.826462732745805,515.388312018409,4081.08094520136
0.64,4.3843617046607,0.064145514863493,20.816715780185,-3.13684945138901,-0.259658901697976,-4.37713598819381,2.20513663078182,-20.9359225445947,3.09696993025474,555.246569270645,4081.08094520136
0.65,4.36624696501097,0.01664466674605,21.7256279366349,-0.751795174383205,-3.73025710362424,2.26926674176032,-18.992111304448,10.5767581718018,1.02807871620999,595.01525739892,4081.08094520136
0.66,4.37052096135397,0.0357054197442777,21.5150831768128,-1.68833539491906,3.00619239679327,3.172622830419,13.4352389823095,16.8891572909705,-0.750299599102157,634.450458036127,4081.08094520136
0.67,4.31955021698279,0.0671919926061331,24.0668509672586,-3.23446752052778,3.34846972959944,-2.72961156776247,20.892807431009,-12.3760128180429,-2.23917208340081,673.551660469524,4081.08094520136
0.68,4.33958264139856,0.0297409783815259,23.0686005719675,-1.39279128015645,-1.30003551932189,-4.14038279339293,-5.42798877554123,-22.4641300243668,2.84420495544615,713.338470479976,4081.08094520136
0.69,4.35794955642512,0.0758000785765556,22.1536169469306,-3.67026442130156,-4.10007892882053,-1.47879098107203,-19.4006100616233,-11.3079579938397,1.93434002453846,752.701255986005,4081.08094520136
0.7,4.22062496143388,0.0947725272147149,29.0232917503944,-4.61495351157975,-4.05638483936508,1.16978584876145,-29.2392553420154,2.95215294098708,1.31248345326601,792.017664088953,4081.08094520136
0.71,4.24652693429647,0.09578126708861,27.7317339380571,-4.64906725597858,-3.47195781248867,2.44697241568625,-25.6140400067782,11.6010278895005,0.979419732141206,831.178445332487,4081.08094520136
0.72,4.28977116151736,0.0942101672986775,25.573089372745,-4.60016023336065,-3.3921564764114,2.62760092353246,-23.2926509849344,11.5150677085734,0.933687534805368,870.787239082518,4081.08094520136
0.73,4.24902951169445,0.0806829448026667,27.6137748588551,-3.89820934182285,-3.89032693035176,1.71058992859546,-26.985569114224,7.0353150327227,1.17552425869518,909.777868006069,4081.08094520136
0.74,4.29782911803143,0.124129241011219,25.1775056167064,-6.02479425012307,-4.27593012906535,-0.450737981119855,-24.1478359073192,-9.33203921063263,1.70469513466351,948.671466615944,4081.08094520136
0.75,4.26441700943626,0.0538738903757986,26.8518784495137,-2.50478367976959,-2.52569365957222,-3.43642639444383,-13.5908859578823,-23.2934569445958,2.52040861261964,987.751749284015,4081.08094520136
0.76,4.32612412558432,0.124444925319051,23.7703703607923,-6.03266126829396,1.88952587232933,-3.89365233003647,16.337908099992,-18.2892391307955,-2.66102928600355,1026.76692622485,4081.08094520136
0.77,4.20775964297007,0.112641394181066,29.6924233149838,-5.43404331827158,4.05598709159587,1.1255656398,26.795784768405,13.8980123667509,-1.27333715582087,1065.77404043268,4081.08094520136
0.78,4.19658257998451,0.0947021768738696,30.255169738415,-4.52368869769648,-1.54730279119103,3.90206713490511,-15.9505385498542,26.104010712984,0.400077660384,1104.79068976436,4081.08094520136
0.79,4.21260323500464,0.122374220473076,29.4581674111394,-5.98756490369334,-3.05776161791905,-2.90018884788371,-16.5309983356505,-25.1069841822027,2.35879455583709,1143.90765999412,4081.08094520136
0.8,4.13524221078677,0.0445002962058607,33.3303268455844,-2.05953896919947,4.10522049546465,-0.499372708357264,33.3545090298722,-1.62145483295414,-1.6810841270406,1182.6377710179,4081.08094520136
0.81,4.23569718243523,0.143000525388624,28.3116231835589,-6.92622779908306,-3.07712690396753,2.91425286967867,-25.7914307518682,13.5765510562958,0.846324180569647,1221.19004981241,4081.08094520136
0.82,4.13185599942767,0.114265852041703,33.5078194244247,-5.56993936144775,1.94130894908191,-3.6491930956259,21.3922560231951,-26.3850254748433,-2.62503935733805,1260.26853874427,4081.08094520136
0.83,4.11705785719848,0.11640673772045,34.2518885397709,-5.59211774701444,-2.68746084610558,3.12110078798425,-27.2068858308794,21.5464385182995,0.739147813866239,1298.68163648579,4081.08094520136
0.84,4.12055848909241,0.125913709597801,34.081122813384,-6.13501669358596,3.34446204051264,-2.41027595595738,31.6780773609932,-13.987879637832,-2.16471698883354,1337.59886728306,4081.08094520136
0.85,4.03462262638763,0.142501820622192,38.3822009727849,-6.87824189535432,-4.01338449657624,0.43730011305867,-38.7825644077399,-4.05169853836203,1.49756911788459,1375.99725072821,4081.08094520136
0.86,4.13635876359352,0.149280735798942,33.2997298506519,-7.21899666336686,3.18077891337746,2.64847013640912,19.9887174225753,27.594149683448,-0.840388238051306,1414.50048192359,4081.08094520136
0.87,4.12684755443347,0.128344324780321,33.7796616674886,-6.20035541110703,0.879652815938999,-4.03404932129584,14.2332415495381,-31.2557960158839,-2.8958065480247,1453.15287972619,4081.08094520136
0.88,4.0395605347648,0.149035376267674,38.1484477732643,-7.26017504605567,-4.0422276943078,-0.025614932746581,-37.7991897490733,-8.90143042001651,1.61401030964538,1491.68263840628,4081.08094520136
0.89,4.01650360348049,0.0971802962532011,39.3057835039721,-4.66551369995352,-0.393937217834275,3.99831948137672,-9.42960411471991,38.4420889284809,0.122399262650081,1530.10204966986,4081.08094520136
0.9,4.12724329860142,0.161430939654757,33.7732755403871,-7.8640355399747,3.7302566154235,1.77352270276344,26.2596428449889,22.6474800663234,-1.0878934001234,1568.45456454452,4081.08094520136
0.91,4.07230848910389,0.217970208505276,36.5245050520334,-10.6678013491491,3.57961762723776,-1.95385390574428,37.55235212938,-6.13696215337609,-2.01695652797088,1606.72683925429,4081.08094520136
0.92,3.96257518299686,0.180314790880236,42.0156956902231,-8.74165278250192,1.65748841024841,-3.60378241221706,27.0411071692476,-33.324370973276,-2.66503843636326,1644.92533245777,4081.08094520136
0.93,4.02193441150805,0.146411088499788,39.0522218476042,-7.05095116822727,0.291297598614719,-4.01404264132179,11.250894966207,-38.0553453022121,-3.03276292852225,1683.24624519154,4081.08094520136
0.94,4.04849769342215,0.112390585937802,37.7285264992648,-5.4102903656998,-0.0255331981350539,-4.04997694724858,6.21824126304548,-37.6038087065854,-3.12014316797292,1721.55292113751,4081.08094520136
0.95,4.02115656039746,0.157900900067382,39.1000448851335,-7.59072686470139,0.699777514202053,-3.9629464048971,15.722210233635,-36.5956930488184,-2.92756687253203,1759.55810180518,4081.08094520136
0.96,3.93277615336828,0.0860723474506671,43.5234694778993,-4.10700504501328,2.42543020881534,-3.09700258696435,30.7560462751556,-31.0680785269041,-2.45532594598554,1797.90201393079,4081.08094520136
0.97,4.0232269226841,0.204112226855963,39.0053587934767,-9.88490953722512,4.01393135039999,0.341133092558307,37.312920401533,15.0623843489614,-1.43532278384048,1835.75880094349,4081.08094520136
0.98,3.9616955096894,0.125796781721182,42.0862497022626,-6.04132304029109,1.67607422631468,3.59188409190333,11.0241382222051,41.0635894015132,-0.40485292700688,1873.9136601535,4081.08094520136
