t,iq,id,vq,vd,ia,ib,va,vb,theta_e,omega,r
0,0,0,0,0,0,0,0,0,0,0,0
0.01,0.00084557200036991,0.00048285058654013,-0.0416075054838182,-0.0241737820725869,-0.000825646907639967,0.000516182022775182,0.0406105383910703,-0.0258135705369539,1.5309128410115,-0.00181318032016198,0
0.02,0.000936363476003322,0.000534702023564379,-0.0461648338588809,-0.0267697013932173,-0.000914290965935203,0.000571624739497985,0.0450603481912313,-0.0285897502399915,1.53089928578157,-0.00194522800103987,0
0.03,0.000971218383407629,0.000554628523122696,-0.0478849298481752,-0.0277673100359817,-0.000948315083527812,0.000592938824233859,0.0467388713893074,-0.0296558242922495,1.53088536268777,-0.00195201537076116,0
0.04,0.000950719448991957,0.000543196022688889,-0.0468975800074316,-0.0271949513859797,-0.000928281042764871,0.000580709648103045,0.0457747654373617,-0.0290451242137775,1.53087228993673,-0.0018409627722853,0
0.05,0.000971096186222928,0.00055491175985623,-0.0479087185008143,-0.027781504899103,-0.000948166213835004,0.000593241683519666,0.0467613010261129,-0.029672176347454,1.53085928749665,-0.00182044449545196,0
0.06,0.000971511089665917,0.00055530743140066,-0.047943395121643,-0.0278012949452133,-0.000948557496668614,0.000593665576083394,0.0467947851151537,-0.0296939256826597,1.53084666742777,-0.00175781088204134,0
0.07,0.0009977918542725,0.000570521785934753,-0.0492420553114246,-0.0285630165830991,-0.000974202302842018,0.000609929148193495,0.0480616194250748,-0.0305074854070122,1.53083462840988,-0.00175516975716498,0
0.08,0.000971877059808907,0.000555833107917414,-0.0479884611025583,-0.027827624671354,-0.000948887990064787,0.000594228109021062,0.0468380537875459,-0.0297231527808956,1.53082278770181,-0.00163837222225589,0
0.09,0.000970690911860855,0.000555331217463401,-0.0479433331935258,-0.0278024856500659,-0.000947716143474026,0.000593689918103181,0.0467936312590961,-0.0296967587392176,1.53081149689954,-0.00157890000368238,0
0.1,0.000970386879790028,0.000555311818754775,-0.0479408575425367,-0.0278015206678015,-0.000947406674877327,0.00059366868278127,0.0467908732732424,-0.0296962043312502,1.53080062376729,-0.00152347775747869,0
0.11,0.000970123709918306,0.000555308911720594,-0.0479399237736006,-0.0278013792850392,-0.000947137613283785,0.000593665176244206,0.0467896348442468,-0.0296965158345434,1.53079014905104,-0.00147015160107117,0
0.12,0.000969871250265608,0.000555306647530115,-0.0479390745404353,-0.0278012641390771,-0.000946879455573197,0.000593662371635862,0.0467884912265021,-0.0296968389609346,1.53078005801782,-0.00141878105544038,0
0.13,0.001016139183175,0.000581860419592393,-0.0502128038856059,-0.029130665921891,-0.000992041764893466,0.000622055885093011,0.0490069024710209,-0.0311166335149384,1.53076995473781,-0.00146998294033107,0
0.14,0.00106667298149843,0.000611239073073695,-0.0528044915791873,-0.0306015189813772,-0.00104135313788254,0.000653443261601899,0.0515373398142873,-0.0326905169700745,1.53076024696795,-0.00153258813153179,0
0.15,0.000972572148468684,0.000557202201623796,-0.0481044411194995,-0.0278961690102307,-0.000949484936373384,0.000595692230158685,0.046949057133955,-0.029799656627206,1.53075080992568,-0.00127746084543275,0
0.16,0.000969043714279997,0.000555362888582046,-0.0479417827650987,-0.0278040890400072,-0.000946027822593357,0.000593721329479612,0.0467899582082688,-0.0297015439482364,1.53074214427682,-0.00122604034819839,0
0.17,0.00096871840189428,0.000555298556039358,-0.0479353590054148,-0.0278008689419177,-0.000945700400230626,0.000593651902642987,0.0467834210627314,-0.029698459060545,1.53073381106196,-0.00118336064507492,0
0.18,0.000968513407256602,0.000555294644869873,-0.047934468034596,-0.0278006694302617,-0.000945490961285977,0.000593647374106438,0.0467823003951624,-0.0296985995674406,1.53072578361377,-0.00114248618910933,0
0.19,0.000968319937823623,0.000555292851238882,-0.0479338041549288,-0.0278005746981051,-0.000945293128144299,0.000593645141904588,0.0467814111719785,-0.0296988400963114,1.53071805022165,-0.00110311745748096,0
0.2,0.000968133569724432,0.000555291190300777,-0.0479331631054827,-0.0278004828958794,-0.000945102553564479,0.000593643056136367,0.0467805530551003,-0.0296990712043296,1.5307106000964,-0.00106519106252421,0
0.21,0.000967953921400077,0.000555289592350069,-0.0479325380464769,-0.0278004141890192,-0.000944918852917103,0.000593641041984058,0.0467797180939025,-0.0296993132532216,1.53070342286144,-0.00102865388244471,0
0.22,0.000967780792331781,0.000555288052884086,-0.0479319307346249,-0.0278003454908418,-0.000944741820082604,0.00059363909664807,0.0467789086720358,-0.0296995437138752,1.53069650852127,-0.000993455021518711,0
0.23,0.000967614331243889,0.000555286569694561,-0.0479313598429664,-0.0278002537305582,-0.000944571598029467,0.000593637233255942,0.0467781440867253,-0.0296997407342373,1.530689847446,-0.000959545458165646,0
0.24,0.000967453775025767,0.000555285140725817,-0.0479307981797634,-0.0278001850504702,-0.000944407418828701,0.000593635428174405,0.0467773950427746,-0.0296999497642976,1.53068343035924,-0.00092687796675957,0
0.25,0.000967299155987094,0.000555283763999595,-0.0479302577783324,-0.0278001163766032,-0.000944249309531006,0.000593633689395338,0.0467766742235415,-0.0297001486500445,1.5306772483238,-0.000895407051512545,0
0.26,0.000976993717867416,0.000560888482631743,-0.0484109791855471,-0.0280807116700628,-0.000953707729753218,0.000599628369000581,0.0472455772481564,-0.0300000784013837,1.53067133633849,-0.000887025637954898,0
0.27,0.000943868195460156,0.000541967918164195,-0.046798011826667,-0.0271334783395115,-0.000921364438915979,0.000579399659493761,0.0456717348374039,-0.0289891737493753,1.53066544243105,-0.000784265114175938,0
0.28,0.000939532755167332,0.000539450555569593,-0.0464897160523079,-0.02700744107869,-0.000917130287943234,0.000576715471332112,0.0453685839185545,-0.0288511206969192,1.53065989691381,-0.00074677536355591,0
0.29,0.000965770711775586,0.000554740483789711,-0.0478811070421511,-0.0277729163210719,-0.00094273051369807,0.000593050799359834,0.0467279849676001,-0.0296720527336235,1.53065470084988,-0.000778497009195691,0
0.3,0.000960967023314329,0.000552128883363181,-0.047651420264819,-0.0276421705132214,-0.000938032810854526,0.000590252801350263,0.0465035955776697,-0.0295324066456655,1.53065014378539,-0.00074495218584614,0
0.31,0.00096629787984716,0.000555169554120886,-0.0479176643712233,-0.0277944106337867,-0.000943234403285919,0.000593509635033633,0.046763368329872,-0.0296954407900857,1.53064520664593,-0.000731852269482195,0
0.32,0.000966370801189123,0.000555271920758838,-0.0479266456690715,-0.0277995215380046,-0.000943300318721783,0.000593619356215327,0.0467719952342377,-0.0297011317063703,1.53064042561056,-0.00070793798786482,0
0.33,0.000966262308737704,0.000555274411419001,-0.0479265571485673,-0.0277996505138612,-0.000943189079064962,0.000593621834501078,0.0467717647795663,-0.02970147249233,1.53063581882638,-0.000684501188823692,0
0.34,0.000966151487757647,0.000555273542134772,-0.047926161692503,-0.0277996107157484,-0.000943075747821426,0.000593620701932024,0.0467712394227352,-0.0297016244233253,1.53063138075342,-0.000661908796772717,0
0.35,0.000966044508474585,0.000555272593496943,-0.047925767955662,-0.0277995650948769,-0.000942966354890702,0.000593619490066546,0.0467707208455005,-0.0297017629981205,1.53062710524162,-0.000640143444545435,0
0.36,0.00096594142910393,0.000555271675782768,-0.0479253856039577,-0.0277995194705127,-0.000942860950476441,0.000593618317147145,0.0467702182955651,-0.0297018946982282,1.53062298633725,-0.000619175317040222,0
0.37,0.000965842249645682,0.000555270791514606,-0.0479250213704302,-0.0277994738422644,-0.000942759531069391,0.000593617191199607,0.0467697383302326,-0.0297020200623545,1.53061901830419,-0.000598975229630294,0
0.38,0.000965746562646215,0.000555269939594013,-0.0479246613422953,-0.027799428211008,-0.000942661686305458,0.000593616100060863,0.0467692668838082,-0.0297021387914036,1.53061519561579,-0.000579515050403741,0
0.39,0.00096565454272851,0.000555269118842941,-0.0479243205059885,-0.0277993825758047,-0.000942567587551627,0.00059361505466921,0.0467688187726073,-0.0297022517357132,1.5306115129489,-0.000560767677316093,0
0.4,0.000965565575515693,0.000555268328122193,-0.0479239741249658,-0.0277993599579212,-0.000942476617925567,0.000593614034116573,0.0467683682028043,-0.029702381144403,1.5306079651741,-0.000542707001023263,0
0.41,0.000965480133062359,0.000555267566334601,-0.0479236516705397,-0.0277993143136877,-0.000942389246209942,0.000593613060999434,0.0467679463250541,-0.0297024824263441,1.53060454735088,-0.000525307868536727,0
0.42,0.000965397833817492,0.000555266832422243,-0.0479233395242928,-0.0277992657553718,-0.000942305088376633,0.00059361212348405,0.0467675385826201,-0.0297025753533524,1.53060125471909,-0.000508546048197816,0
0.43,0.000965318354452276,0.000555266125366152,-0.0479230270245807,-0.027799243118672,-0.000942223818674761,0.000593611211942245,0.0467671330274796,-0.0297026885241008,1.53059808269268,-0.000492398195923955,0
0.44,0.0009652419923918,0.000555265444184799,-0.0479227341151612,-0.0277991974617283,-0.000942145731705042,0.000593610341564401,0.0467667514228768,-0.0297027740445138,1.53059502685485,-0.000476841822705606,0
0.45,0.000965168275584354,0.000555264787931855,-0.0479224423111161,-0.027799174812328,-0.000942070353306858,0.000593609496497298,0.0467663733226195,-0.029702877361596,1.53059208294908,-0.000461855263281103,0
0.46,0.000965097178121427,0.000555264155695735,-0.0479221549804012,-0.0277991521563079,-0.00094199765519413,0.00059360867869936,0.0467660028950777,-0.0297029758070253,1.53058924687552,-0.000447417645963206,0
0.47,0.000965029023339387,0.000555263546598373,-0.0479218929980552,-0.0277991064852795,-0.000941927958131202,0.000593607904057181,0.0467656618060412,-0.029703047415037,1.53058651468441,-0.000433508863574431,0
0.48,0.00096496310635762,0.00055526295979392,-0.0479216255784541,-0.0277990838174174,-0.000941860555581158,0.000593607147017962,0.0467653173319477,-0.0297031371072413,1.53058388257065,-0.000420109545441098,0
0.49,0.000964899575889729,0.00055526239446648,-0.0479213644336338,-0.0277990611432461,-0.000941795593993142,0.000593606416235482,0.0467649819914075,-0.0297032225351125,1.53058134686864,-0.00040720103041806,0
0.5,0.000964838697063549,0.000555261849831145,-0.0479211269826826,-0.0277990154589785,-0.000941733336214619,0.000593605724948197,0.0467646740094467,-0.0297032815791301,1.5305789040467,-0.000394765340897686,0
0.51,4.67863009837368,0.0649146595717737,6.0697800211025,-3.24515170858456,-0.404359591290647,4.66157557391991,-3.83719426226527,5.71394603666703,0.100400355549062,30.9439221835042,4324.89547579022
0.52,4.64297402994198,-0.0147130888739325,7.85395303671733,0.747477313841063,-2.05502098494508,4.16344965973353,-2.78255602913279,7.38245776028588,0.455334473971339,65.8990347271957,4324.89547579022
0.53,4.62913603707415,0.0534376269499244,8.54733799496901,-2.65813058548904,-4.03021045993655,2.27797271237622,-8.7701910658194,1.79064057777507,1.06788305589841,101.419717905305,4324.89547579022
0.54,4.60608173153786,-0.055351477947952,9.70156101784785,2.79543160793905,-4.26283737321169,-1.74564321476855,-10.0496766251125,-0.968877592039687,1.94745124576633,139.049916034138,4324.89547579022
0.55,4.62082456758668,-0.00596648771254671,8.96594532391699,0.323482065422927,-0.128725791638345,-4.61903506740914,-0.584687773403393,-8.9527066525019,3.11244010251686,178.323930942937,4324.89547579022
0.56,4.60331762741699,0.0166339769964077,9.84280709329107,-0.79969805969191,4.54155319672441,-0.751734281113318,9.84416403513185,-0.782817291475258,-1.73121917534126,213.955060128583,4324.89547579022
0.57,4.55283806698571,0.0209492065606576,12.3684499440707,-1.00649064793318,0.173970490543927,4.54956125377707,-0.590185075557592,12.395291808584,-0.0336190197275517,249.822750212579,4324.89547579022
0.58,4.64597041900208,0.037976866723535,7.71356002983957,-1.86027347059269,-4.34578751343951,-1.64335457667594,-6.52020524041918,-4.52178607876798,1.94049874558102,288.057618299011,4324.89547579022
0.59,4.57674542468573,0.0681135177841208,11.1765639354479,-3.35568712251703,3.90916460706837,-2.38110692925175,11.333517380943,-2.77985633500068,-2.10300521209366,323.255285376925,4324.89547579022
0.6,4.60099582695203,-0.00975678763541388,9.96577326379705,0.540382722091362,-1.8337196279612,4.219802142348,-3.4563767443403,9.36280460294513,0.407812035726602,361.147600566056,4324.89547579022
0.61,4.55983840421479,0.0351396264131048,12.0254394156181,-1.69652856275446,0.158886216618221,-4.55720487097796,2.2066034978431,-11.9423742742492,-3.09903575150994,397.217904527959,4324.89547579022
0.62,4.61633270283404,0.0276954786075345,9.20257466679334,-1.31614479102633,0.261033193232736,4.6090298691613,-0.849236834203692,9.2573438095538,-0.0505753510421534,433.514696563494,4324.89547579022
0.63,4.60843365951965,-0.0413444308875421,9.59946008088735,2.13781071224371,0.604735451250659,-4.5687706431993,-0.947555860679403,-9.78887155788786,-3.01896601585076,470.750109475524,4324.89547579022
0.64,4.58057641387076,0.0353699797365781,10.9942799013139,-1.70334812752464,-2.41360936486089,3.89325328647283,-7.30568291553834,8.39062468053409,0.562678773582678,507.422561353722,4324.89547579022
0.65,4.56068601070904,0.0689838255810962,11.9907507644983,-3.37927193364425,4.33667039974002,-1.41347285099067,12.4538597466584,-0.314579256138872,-1.87074910422416,543.574097013682,4324.89547579022
0.66,4.52490512071696,0.0222353682155416,13.7818843611016,-1.0177127494964,-3.54400637536568,-2.81341066580363,-10.1152347232701,-9.41584315270891,2.24669016843685,579.669498950204,4324.89547579022
0.67,4.53134935532007,-0.0286329970388524,13.4617774118433,1.53547030511868,-1.57118469510162,4.25033239669058,-3.14416707295418,13.1792007937229,0.347763455553647,615.997403897235,4324.89547579022
0.68,4.59027489728116,0.0320084216072685,10.5176371354222,-1.49381886832668,4.41271684420734,1.26474433167821,9.66852234417597,4.40134768042142,-1.28469251110365,652.442231835877,4324.89547579022
0.69,4.55086954196302,0.0232648812295821,12.489998799071,-1.06951428947838,2.12599987695068,-4.02381403221757,6.83424356877747,-10.5089031615491,-2.65040752573873,689.097214376061,4324.89547579022
0.7,4.57844571751874,0.100246922066526,11.1134054751136,-4.92400417972847,-2.69703466813023,-3.70111045938285,-2.30482615322099,-11.9348805951169,2.5337491332902,725.655863744736,4324.89547579022
0.71,4.50774993150568,0.0140138977639661,14.6504287669505,-0.597010838812162,-4.47141737601043,-0.571342702615535,-14.4489233249302,-2.49401278012707,1.70099314157908,761.827481129859,4324.89547579022
0.72,4.55682211955694,0.0462158208223,12.1991157888533,-2.18910704023081,-4.10870778861074,1.9711123862396,-11.9786586443216,3.18156451235208,1.13362927485519,797.665000187176,4324.89547579022
0.73,4.48969958242485,0.056115081355008,15.557534393366,-2.67549138569267,-3.27984519414552,3.06645833906509,-13.2988515399459,8.50503840521366,0.83150727944413,834.007073404196,4324.89547579022
0.74,4.50127218662503,0.0273709218182268,14.9812275367215,-1.25347340006139,-3.19660204877824,3.16921690756439,-11.5798294879797,9.58727923349479,0.795780673793728,870.532614991252,4324.89547579022
0.75,4.4740140521222,0.0630614400064686,16.3465231984097,-3.01271975707298,-3.79082468460417,2.37706261894766,-15.5344016572571,5.91334644358093,1.02481340317419,906.217892744679,4324.89547579022
0.76,4.48874200838231,0.0552952315974446,15.6125455379487,-2.64594362554584,-4.47989337990396,0.287084804798341,-15.7283777860287,-1.83595426523861,1.51911890276117,942.86302085137,4324.89547579022
0.77,4.48832643733814,0.0575734019653138,15.6357950562366,-2.72514432725058,-3.44967719209339,-2.87195337271917,-10.1168848984912,-12.2291920663492,2.27788588658116,978.485950815973,4324.89547579022
0.78,4.48370005417313,0.0238062271428137,15.8696046518727,-1.05032808316075,0.690632859158337,-4.43025497754855,3.56452964804848,-15.4997312646768,-2.98163780589461,1014.86744974113,4324.89547579022
0.79,4.47268261022957,0.0644214406687298,16.4230055364063,-3.09453724027794,4.43093169827716,-0.613093907220173,16.6786958611066,1.05469234993152,-1.69388780502773,1051.0380182114,4324.89547579022
0.8,4.51321593798162,0.0867166073817809,14.3988711874048,-4.16671261074192,0.723258755074087,4.45573054010852,-2.09136351511382,14.8430180253088,-0.141705966153221,1086.70297497972,4324.89547579022
0.81,4.47556513847838,0.11171436682744,16.2839756320848,-5.42316382716367,-4.46299121197879,-0.353373528039053,-15.6332140422708,-7.08386808114998,1.67476588235164,1122.77757760241,4324.89547579022
0.82,4.48486784086769,0.113290673952695,15.8214093652108,-5.50830870464842,2.48979769517774,-3.73199434135979,13.6136034883676,-9.76361916242076,-2.52800066279965,1158.95664134848,4324.89547579022
0.83,4.50825097498517,0.101641668958838,14.6549245286531,-4.92698575603527,0.92485374822871,4.41353638556552,-2.1622145410782,15.3090440543831,-0.184018674024058,1194.98795251353,4324.89547579022
0.84,4.40962718054552,0.071498620445023,19.5888265320609,-3.41999697138853,-2.95549279035702,-3.27337536654125,-10.3147435533809,-17.0007226203908,2.42339680576723,1230.91912551354,4324.89547579022
0.85,4.44817762417047,0.109864173597686,17.6640149887361,-5.33302003584713,3.77711194791136,2.35197356400033,11.8295882610312,14.1604862133866,-0.989165476635313,1266.80362665251,4324.89547579022
0.86,4.41455432770549,0.123885544154768,19.3479398176557,-6.02492512011399,-3.77493584047242,-2.29205081545557,-12.9797749190888,-15.5617460762089,2.14453128448045,1302.59437509768,4324.89547579022
0.87,4.37781284649975,0.0866131777105454,21.1878555536873,-4.14308624329899,3.02292531206966,3.16775468102881,11.2681902712502,18.4151642565097,-0.74222569011817,1338.26997694121,4324.89547579022
0.88,4.38404337139722,0.138058375575535,20.8791709247434,-6.70099436378639,-4.28365930025664,0.942952489091162,-21.7560441216809,-2.74183298973895,1.38560482959877,1373.99978517461,4324.89547579022
0.89,4.33624868820496,0.133121843140469,23.2717980874094,-6.4988994768443,3.66740636642824,2.31752123066046,15.6435773506026,18.4144174034096,-0.976543479700056,1410.01447471726,4324.89547579022
0.9,4.40414782178126,0.0668803951961663,19.8797057839656,-3.16250829668829,0.221068474429585,-4.39910442624128,4.4548639066406,-19.6305463081639,-3.07619722132877,1445.81979401337,4324.89547579022
0.91,4.38724642907697,0.135182144078395,20.7276741763479,-6.54440867134362,-4.27150854887216,1.01015848184247,-21.6179088662892,-2.26534277035808,1.36937793929904,1481.31745025183,4324.89547579022
0.92,4.46841672124703,0.107735083072046,16.6720990070973,-5.20963272344364,1.02049973351269,4.35165889480611,-1.68509633976344,17.3856149946255,-0.206240178177083,1517.35268528147,4324.89547579022
0.93,4.37615734103274,0.125390364657295,21.2880573755519,-6.05118139969268,4.37687164822382,0.0973159390755076,20.9527876425219,7.12592963508318,-1.51992062071772,1552.77369322366,4324.89547579022
0.94,4.33347907162987,0.126726904223719,23.4250399648613,-6.15870503218799,2.22894296656819,-3.7184558386909,17.8133468953668,-16.4117889766525,-2.5723592013228,1588.66250320514,4324.89547579022
0.95,4.37957512135787,0.110393110093726,21.1233081021572,-5.28045367853269,-1.07257952828325,-4.24763911342297,0.496859161365001,-21.7676472592597,2.91945224205911,1623.9951517464,4324.89547579022
0.96,4.34710782950691,0.0551698375915699,22.7497574381461,-2.54382246196532,-3.01064308332831,-3.13630649285868,-13.6874674140543,-18.3487256233692,2.38932533554196,1659.77540820336,4324.89547579022
0.97,4.34813070571367,0.116103195479646,22.7017808953332,-5.61546969863995,-3.76987111398847,-2.16974477067833,-16.436298309033,-16.6358785055836,2.11973846238453,1695.43232065011,4324.89547579022
0.98,4.31222613104963,0.101906511773839,24.5001397576437,-4.84859574651276,-3.75068510826851,-2.13026767357109,-18.5184506253313,-16.7580641869622,2.11095712081887,1730.82814098518,4324.89547579022
