t,iq,id,vq,vd,ia,ib,va,vb,theta_e,omega,r
0,0,0,0,0,0,0,0,0,0,0,0
0.01,0.000768867803827518,0.00042763097471393,-0.0379979255906851,-0.0214126384450264,0.000875188368095565,-8.98402507095671e-05,-0.04336229861715,0.00469622114148934,-1.16551288162981,-0.00218960269719685,0
0.02,0.000846373808483893,0.000473002772175952,-0.0419400827572773,-0.0236845262682382,0.000964303268376357,-0.000100992340166675,-0.0478807820596825,0.00523049095126984,-1.16552827169534,-0.00211248094312162,0
0.03,0.000872567407591207,0.000489231512841488,-0.0432788777807596,-0.0244971455275878,0.000994772033748322,-0.000105593346475225,-0.0494314406805728,0.00545014432879994,-1.16554241447588,-0.00189668790379532,0
0.04,0.000851718148604436,0.000479942238809978,-0.0422983566999886,-0.0240320136389906,0.000971947985244321,-0.000105287564487011,-0.0483468978636001,0.00540981755983686,-1.16555395610809,-0.00158469166615604,0
0.05,0.000866441007519367,0.00048938669282463,-0.0430598713402348,-0.0245049160346662,0.000989200668625114,-0.000108172971747249,-0.0492331153481718,0.00554470764037419,-1.16556431930402,-0.00141218028699942,0
0.06,0.000864290477527134,0.000489603154388277,-0.0429875380138143,-0.0245157516236381,0.000987308670990171,-0.000109228505980147,-0.0491708622217139,0.00558361984148896,-1.16557322833629,-0.00121622087946608,0
0.07,0.000886775399595467,0.000503345998965672,-0.0441192238373172,-0.0252038865534295,0.00101338955437183,-0.000113001836677609,-0.0504821340523188,0.00577026437255293,-1.16558067771115,-0.00113051760998077,0
0.08,0.00086082131851429,0.000489922865352623,-0.0428695959109065,-0.0245317606156861,0.000984244943606859,-0.000110903775356552,-0.0490687035527198,0.00564551717073285,-1.16558727495281,-0.000907005487748085,0
0.09,0.000858549118814137,0.000489610623614215,-0.0427784583291681,-0.0245161355454636,0.000982033047273428,-0.0001115179188978,-0.0489787557056026,0.00566735287720921,-1.16559274734905,-0.000783576323858671,0
0.1,0.000857156736099204,0.000489602212067376,-0.0427274383345482,-0.0245157154295844,0.000980749579968685,-0.000112063632337868,-0.0489316751541996,0.00568730659107352,-1.1655973952304,-0.000680473026259256,0
0.11,0.000855987870998387,0.000489601012960944,-0.0426847890051949,-0.0245156443905296,0.000979674447658269,-0.000112527169137943,-0.0488924288584462,0.00570424689355983,-1.1656013458533,-0.000592884027989565,0
0.12,0.000854994733850371,0.00048960013096187,-0.0426485549005992,-0.0245156052563729,0.000978761002369872,-0.000112921137922311,-0.0488590941605605,0.00571865840955739,-1.1656047039002,-0.000518434269649286,0
0.13,0.000896474236961029,0.000513060225668283,-0.044697572364463,-0.0256903199685073,0.00102612923210683,-0.000118134041298402,-0.0512052426393363,0.00599071294650199,-1.16560806927285,-0.000580518337252351,0
0.14,0.000946570247804363,0.00054282574533753,-0.0472531019566465,-0.0271807554137499,0.00108390185247464,-0.000125744972192569,-0.0541413461439781,0.00635324697342006,-1.16561085048972,-0.000682727350499707,0
0.15,0.000854992338353494,0.00049083052177427,-0.0426805296676126,-0.0245772033184911,0.000979242833087981,-0.000114061271228239,-0.0489127118793054,0.0057630853089701,-1.16561330930703,-0.000335830957785494,0
0.16,0.00085205211163626,0.000489626010407524,-0.0425420548525206,-0.0245168912250639,0.00097606569299209,-0.000114114828025408,-0.048761665999157,0.00576231857876212,-1.16561488722866,-0.00029288697738284,0
0.17,0.000851592037290376,0.000489597777837237,-0.0425244102031166,-0.0245154952142592,0.000975631589913929,-0.00011427153101955,-0.0487448920781543,0.00576805556599322,-1.16561621452795,-0.000263243290966222,0
0.18,0.000851256762120298,0.000489596836415621,-0.0425121482863853,-0.0245154435833453,0.000975322961378713,-0.000114403926030431,-0.0487335961285546,0.00577289653386632,-1.16561734235959,-0.000238232749267647,0
0.19,0.000850973175373553,0.000489596570101102,-0.042501792330343,-0.0245154209760989,0.000975062121365941,-0.00011451640117233,-0.048724064225506,0.00577700461101742,-1.16561830101165,-0.000216978743935021,0
0.2,0.000850732079242211,0.000489596356063635,-0.0424929855750546,-0.0245154214966853,0.000974840368486865,-0.000114612034668958,-0.0487159660284077,0.00578051625384502,-1.16561911587073,-0.000198912867938849,0
0.21,0.00085052736387787,0.000489596174392388,-0.0424855088654834,-0.0245154016729563,0.000974652077350159,-0.000114693237820373,-0.0487090828689094,0.00578347895432951,-1.16561980850492,-0.000183556783700819,0
0.22,0.000850353148348876,0.00048959601995987,-0.0424791415003147,-0.0245154020754598,0.000974491839119606,-0.000114762342066895,-0.0487032278034625,0.0057860178922344,-1.16562039724757,-0.0001705040328025,0
0.23,0.000850205243661363,0.000489595888678735,-0.0424737363731856,-0.024515382159136,0.00097435580061286,-0.000114821010152628,-0.0486982495657094,0.00578815455419441,-1.16562089768172,-0.000159409127052545,0
0.24,0.000850079456906218,0.000489595777079779,-0.0424691368429549,-0.0245153824749846,0.000974240105548317,-0.000114870904625702,-0.0486940201060525,0.00578998860031403,-1.16562132305337,-0.000149978399799406,0
0.25,0.000849972413017873,0.000489595682213395,-0.0424652191814721,-0.0245153827556864,0.000974141649693314,-0.000114913364175864,-0.0486904176608001,0.00579155072542063,-1.16562168462129,-0.000141962232873041,0
0.26,0.000858719400568841,0.000494403597701202,-0.0428956646405976,-0.0247561296288791,0.000984075574036047,-0.000115884386000988,-0.049180907327718,0.00584314586356491,-1.16562195618533,-0.000164350575119583,0
0.27,0.000827472056308735,0.000476908899966511,-0.0413631884241659,-0.0238801295235322,0.000948462119641917,-0.000112123639092905,-0.0474272067018885,0.00564216333776954,-1.16562240110923,-5.43471520649487e-05,0
0.28,0.000822103774802415,0.000473408838871902,-0.0410211104582318,-0.0237048559303963,0.000942148810718519,-0.000111023257599939,-0.0470437349901156,0.00561593234352688,-1.16562264671765,-3.18583120558295e-05,0
0.29,0.00084893461535233,0.000489220575782219,-0.0424178393559369,-0.0244965908979633,0.000973039908132793,-0.000114978650596618,-0.0486394610327137,0.00579300368508181,-1.16562265426193,-0.000118047648489716,0
0.3,0.000845504021138721,0.000487444282799939,-0.0422474021211211,-0.0244076606988069,0.000969186961227299,-0.000114697919698166,-0.0484477721860335,0.00577843032163484,-1.16562211422439,-0.000118466167228979,0
0.31,0.000849662455351131,0.000489545692272585,-0.0424523688188867,-0.0245128868401384,0.000973837008676971,-0.000114990231702728,-0.0486776201531243,0.00579435378626108,-1.16562233265,-0.000127214520833807,0
0.32,0.000849715659960142,0.000489594303464396,-0.0424557511454857,-0.024515305333464,0.000973905042915899,-0.000115014138910254,-0.0486816807302617,0.00579525341958753,-1.16562254211609,-0.000122940567656811,0
0.33,0.000849665892452092,0.000489595383590139,-0.042453962849369,-0.0245153608022568,0.00097385971009455,-0.000115034922887549,-0.0486800580543739,0.0057960180040455,-1.16562272081166,-0.000118988859260192,0
0.34,0.00084962101434556,0.000489595369823464,-0.0424523146158429,-0.0245153609673884,0.000973818442685612,-0.000115052748144153,-0.0486785424562799,0.0057966752484515,-1.16562287272106,-0.000115621206142711,0
0.35,0.000849582830120029,0.000489595336540114,-0.0424509099900039,-0.0245153611198691,0.000973783322104952,-0.000115067894683226,-0.0486772508688619,0.00579723534686047,-1.16562300184549,-0.000112758447239804,0
0.36,0.000849550292037602,0.00048959530774886,-0.0424497101847585,-0.0245153612616339,0.000973753394518266,-0.000115080800896714,-0.0486761476264856,0.00579771375655869,-1.16562311160171,-0.000110325080934632,0
0.37,0.000849522759814009,0.000489595283264155,-0.0424486948065672,-0.0245153613939011,0.000973728071076399,-0.000115091721832431,-0.0486752139704807,0.00579811865889136,-1.16562320489506,-0.000108256706818201,0
0.38,0.000849499302126678,0.000489595262451253,-0.0424478271674129,-0.0245153615184358,0.000973706495328722,-0.000115101026420629,-0.0486744161697226,0.00579846463736831,-1.16562328419484,-0.00010649857812109,0
0.39,0.000849479336898999,0.000489595244759871,-0.0424470865675364,-0.0245153616363443,0.000973688131869155,-0.000115108945642797,-0.0486737351887169,0.00579875995462288,-1.16562335160006,-0.000105004159638981,0
0.4,0.000849462398469686,0.000489595229722318,-0.0424464568501293,-0.0245153617485,0.000973672552349882,-0.000115115664360623,-0.0486731561688235,0.00579901106698627,-1.1656234088946,-0.00010373389620151,0
0.41,0.000849447962969789,0.000489595216939966,-0.0424459178985186,-0.024515361855904,0.000973659274986041,-0.000115121390183031,-0.0486726606137436,0.00579922597878574,-1.16562345759533,-0.000102654165711531,0
0.42,0.000849435739361006,0.000489595206074758,-0.0424454603197273,-0.0245153619591061,0.000973648032022107,-0.000115126238775709,-0.0486722398837622,0.00579940845578532,-1.16562349899112,-0.000101736389213488,0
0.43,0.00084942532018971,0.00048959519683943,-0.042445068112306,-0.0245153620588781,0.000973638448755077,-0.000115130371550859,-0.0486718792669572,0.00579956485944562,-1.16562353417747,-0.000100956274444527,0
0.44,0.000849416414417597,0.0004895951889894,-0.0424447304632535,-0.0245153621557723,0.00097363025750723,-0.000115133903912001,-0.0486715688206288,0.00579969949787936,-1.16562356408615,-0.000100293172857425,0
0.45,0.000849408905629345,0.000489595182316728,-0.04244444471439,-0.0245153622500145,0.000973623351115912,-0.000115136882327142,-0.0486713060973216,0.00579981345761816,-1.16562358950857,-9.97295330799816e-05,0
0.46,0.000849402502786649,0.000489595176644766,-0.0424441990054153,-0.0245153623421572,0.000973617461959885,-0.000115139422010166,-0.0486710801933298,0.00579991144699816,-1.16562361111779,-9.92504363543298e-05,0
0.47,0.000849397089474188,0.000489595171823633,-0.0424439897999694,-0.0245153624324202,0.000973612482924619,-0.000115141569268411,-0.0486708878553897,0.00579999488800683,-1.16562362948554,-9.8843201659644e-05,0
0.48,0.000849392491068979,0.000489595167725836,-0.0424438103235225,-0.0245153625211353,0.000973608253419382,-0.000115143393290782,-0.0486707228547873,0.00580006647499177,-1.16562364509819,-9.84970500654149e-05,0
0.49,0.00084938853294804,0.000489595164242353,-0.0424436534925256,-0.0245153626086364,0.000973604612869137,-0.000115144963211852,-0.0486705786792342,0.00580012902054654,-1.1656236583689,-9.82028194196224e-05,0
0.5,0.00084938521511137,0.000489595161281698,-0.0424435207071703,-0.0245153626949178,0.000973601561197375,-0.000115146279289757,-0.0486704566135145,0.00580018198984871,-1.16562366964912,-9.79527218496008e-05,0
0.51,4.62576691883194,0.00256474455029262,8.71304713897053,-0.117551313712237,-0.74605164924836,4.5652089877604,-1.52602433721663,8.57917586248822,0.162543661049978,50.0147702434797,2268.71925291537
0.52,4.54485813777193,0.0523541412631897,12.760228363089,-2.59570727221051,-3.01545255076246,3.40081201519275,-10.4973059928302,7.7050432194815,0.736929351907088,106.928576582554,2268.71925291537
0.53,4.49783159092662,0.0486906296463225,15.1135354685923,-2.40640792814601,-4.44135793163224,-0.712179416214912,-14.4894201176813,-4.92609968741733,1.74061945153928,168.107231165578,2268.71925291537
0.54,4.51433045193708,0.0271274878581531,14.2907798794194,-1.31552903935767,0.224316971133491,-4.50883546232788,2.10933879884381,-14.1953406456874,-3.08587398327704,227.740244549326,2268.71925291537
0.55,4.4828009260022,0.0541480525953847,15.8695586635973,-2.65018208896567,4.21095851431386,1.53826673385783,13.8999269253854,8.10298640940343,-1.20847753443398,285.921639755159,2268.71925291537
0.56,4.47563656107005,0.0221710111069657,16.230296136986,-1.03104972504257,-3.99133293013354,2.0251112614748,-14.9720143943863,6.35014654980995,1.10621807349816,344.039627804549,2268.71925291537
0.57,4.47145151331439,0.0418423385686534,16.4422648480149,-2.01811793744767,2.8663957734717,-3.43211373457262,12.1941637026973,-11.2126377330909,-2.43641448681609,403.156047146851,2268.71925291537
0.58,4.43615081070689,0.0760699590877509,18.2101645365052,-3.72837588786032,-2.90457953618405,3.35389898058839,-14.9317714243447,11.0703695213345,0.730873473793299,461.494970726922,2268.71925291537
0.59,4.36732061676694,0.0370765827473272,21.6546546302206,-1.76215237917053,4.02796860091562,-1.6882929226481,20.7090119318684,-6.5700892663101,-1.95920585105739,519.302193069034,2268.71925291537
0.6,4.33743078985627,0.0426734732009471,23.1522712048539,-2.01277035432853,-3.85254815470758,-1.99323846986943,-19.5149630898622,-12.619236190978,2.05809062429284,576.64158575732,2268.71925291537
0.61,4.326920743023,0.0643372874377532,23.6810754236343,-3.06929561636693,-0.857957170985722,4.24149642174925,-8.03860498991035,22.4854339210231,0.214451995329725,634.260958941447,2268.71925291537
0.62,4.28521669292012,0.0306785629155738,25.7697489196082,-1.42641598914836,4.01471360270184,1.4986987581848,23.5688721707521,10.5177415138656,-1.2063565106452,692.182644890563,2268.71925291537
0.63,4.28180653672637,0.109130569878409,25.9438360326159,-5.28616863327272,3.37576863434292,-2.63627821495023,23.9940403704797,-11.1942946899947,-2.20832626787498,748.818634162746,2268.71925291537
0.64,4.30445305090756,0.147115366637381,24.8152250896738,-7.2043496315398,1.34085188937753,-4.09292990525381,15.2922332033029,-20.8289618925295,-2.79084498320047,806.023617581226,2268.71925291537
0.65,4.26016453126451,0.0522038708442534,27.0335144876328,-2.47754850356956,0.733164386951053,-4.19692709720838,7.41318907653525,-26.1150106233203,-2.95639371000101,863.223155523348,2268.71925291537
0.66,4.18963289316549,0.0320975118916098,30.5641433214527,-1.47732551589345,1.73904640085089,-3.81179375694061,14.2382639353014,-27.0854423586344,-2.70591072016421,919.903283420588,2268.71925291537
0.67,4.19206283860547,0.112823870421955,30.4467621306711,-5.50701825407813,3.68670880386923,-1.99857405767889,29.6407302749846,-8.87466523639229,-2.04064879245622,976.380955130166,2268.71925291537
0.68,4.15376767074332,0.143721840720222,31.6223789017576,-7.01820624724521,3.48831238489923,2.25967221856866,21.9129817283909,23.8547961237652,-0.961394094014009,1032.57975008352,2268.71925291537
0.69,3.93324357372046,0.085390055098008,35.1556655989415,-4.04504536011713,-1.90451157476392,3.44246018616239,-21.1784841536967,28.3505736206804,0.527034843012823,1087.29743381432,2268.71925291537
0.7,3.80799034476711,0.0501188672235289,34.1614069751446,-2.38231811852175,-2.5781984050419,-2.80289053495328,-21.0196386142941,-27.0342737772586,2.41108687319154,1140.69424262551,2268.71925291537
0.71,3.60568623602616,0.0609349347058802,37.1820656338304,-2.83473592144401,3.60117226964252,-0.190380102147819,37.2598813862238,1.49765537669135,-1.60671523650357,1191.38272833939,2268.71925291537
0.72,3.45442121541742,0.086324399862142,37.9744919042504,-4.1939049111259,-2.908286641641,1.86610467165967,-34.6391799356331,16.1176328031253,1.02529718796809,1240.7842563696,2268.71925291537
0.73,3.26199077585312,0.142733347110146,41.0519546162067,-6.92635874563822,2.39862866220396,-2.21529618132243,35.8189175202431,-21.218920117725,-2.272752156192,1287.82250621458,2268.71925291537
0.74,3.17527250721474,0.15225818210168,39.0044994880279,-7.38295595085797,-2.6832265579675,1.70465048843115,-37.542441448558,12.900546847536,1.0527399369474,1333.26024931056,2268.71925291537
0.75,3.02511196053956,0.103514254989392,40.3654085052267,-4.95838711154901,3.02434328509395,-0.123956721046677,40.397997259488,4.68546944971366,-1.57755474963327,1377.11560740066,2268.71925291537
0.76,2.95913000904492,0.147151737239724,37.7444126082269,-7.14049859630221,-2.12743552433129,-2.062067441675,-20.5460530082239,-32.4574661538316,2.39028004177369,1419.2624142068,2268.71925291537
0.77,2.76219013400664,0.136152229678132,41.869856219034,-6.58076995734767,-2.7575047818638,0.21071104396354,-42.032330581206,-5.44743783317678,1.54378241343581,1459.88590802472,2268.71925291537
0.78,2.55692794768971,0.0932821616805852,46.630412889629,-4.46357236966169,0.540441627344681,2.50090082546221,3.78684809619269,46.6902416576831,-0.176360207993544,1498.95718440488,2268.71925291537
0.79,2.56534131593498,0.100432542954839,40.8791326120047,-4.93785642115807,2.55812993728745,-0.216873204617579,41.061253810103,3.07560476786933,-1.61624232012205,1536.56841946754,2268.71925291537
0.8,2.45137977044162,0.0679323239624672,41.4063010450371,-3.22232831253524,0.788705463673292,-2.32202955862781,17.4191289828373,-37.7019775537741,-2.78645227156798,1572.52652032056,2268.71925291537
0.81,2.1917372476704,0.134750498792669,48,-6.57863617897348,-1.27114556861911,-1.79054706811373,-19.7440881994752,-44.2430721712071,2.58564365325901,1607.18481228039,2268.71925291537
0.82,2.24164131673454,0.0851573787566645,42.1539456035648,-4.12568335499658,-2.13309928552262,-0.694330620202617,-38.1347308113204,-18.4314594930007,1.92345386849599,1640.47327870754,2268.71925291537
0.83,2.0675890106715,0.162689725402744,46.2820514749003,-8.06957398115062,-2.05079534727805,0.309242150076407,-46.7385711105767,-4.75944151179008,1.49965648177906,1672.33245716664,2268.71925291537
0.84,2.03030509378533,0.100599050533876,43.6954440143117,-4.85015818754637,-1.93268581725615,0.630067039763168,-43.4361553424317,6.79089619418656,1.30516311315058,1702.93346813554,2268.71925291537
0.85,1.9315311649526,0.0112771148778496,44.3823538306221,-0.486009134332791,-1.87330035501683,0.470834996996764,-43.2217475305047,10.0950520966711,1.33039540960486,1732.36459166254,2268.71925291537
0.86,1.70766269269501,-0.0319263311366723,48,1.62252231669294,-1.70779335508276,-0.0239378147995876,-47.9918849311426,1.84704072075758,1.56611847314486,1760.40777675871,2268.71925291537
0.87,1.67375859672056,0.115433595723312,48,-5.57540558679655,-1.56812685882111,-0.596465346655976,-41.2476839631852,-25.1736710697998,2.00312256186035,1787.24157741243,2268.71925291537
0.88,1.59527094802811,0.157914830033347,48,-7.71607312888046,-0.914814196795299,-1.31641235048473,-16.6365625451354,-45.6810964318068,2.63294551307555,1812.9627457848,2268.71925291537
0.89,1.57277137817474,0.171655766615962,46.8812539412989,-8.42216931848109,1.54794599891195,-0.327014823319479,47.4859419019374,3.7242756105774,-1.67028044103631,1837.63663952173,2268.71925291537
0.9,1.48447834740329,0.129215296174381,47.8238604690334,-6.31062313995146,1.03306349947039,1.07384932031297,25.1321130789429,41.1742940044307,-0.679217082399704,1861.14446580788,2268.71925291537
0.91,1.39659467987751,0.125898388042428,48,-6.14380491089435,-0.534088780722882,1.29656325656706,-27.6407115241927,39.7207427576511,0.480649069310422,1883.7778990744,2268.71925291537
0.92,1.28884601803349,0.0662784172449408,48,-3.14834236439929,-1.26956635929598,-0.231771754399091,-45.9908229581407,-14.098094313645,1.80274696071415,1905.33140545249,2268.71925291537
0.93,1.18317467060718,0.135142448136551,48,-6.59030859794027,0.0290147409705857,-1.19051414408278,13.1350400333031,-46.6358541332697,-3.00349853425753,1926.03778483198,2268.71925291537
0.94,1.04562534034102,0.074886192886597,48,-3.74841504900317,1.04061034883779,0.126769066179475,46.3934274108198,12.8724709538065,-1.37807531540553,1945.86297615279,2268.71925291537
0.95,1.09963223757733,-0.0341747635235659,48,1.69213825684301,-0.448899629178962,1.00441430460951,-16.6491462847872,45.0518507929256,0.38922692153865,1964.88665065542,2268.71925291537
0.96,1.09447227801649,0.011012859175032,48,-0.49315580215442,-0.828456911249825,-0.71529713868868,-35.6880971017145,-32.1030049668842,2.29308558600549,1983.00580476375,2268.71925291537
0.97,1.07438895104941,-0.063028713068646,47.4190094270677,3.31226158229098,1.01925458621804,-0.345549309479328,42.6943307176938,-20.8980299646173,-1.95625509208984,2000.38756065371,2268.71925291537
0.98,0.844703346362906,0.109333567542858,48,-5.52654006710438,-0.0624065834546136,0.849460411490649,-15.0468011349009,45.9144467539363,0.202053044470626,2017.00181754275,2268.71925291537
