t,iq,id,vq,vd,ia,ib,va,vb,theta_e,omega,r
0,0,0,0,0,0,0,0,0,0,0,0
0.01,0.000653652381198921,0.000358892479003256,-0.0310138818870668,-0.0179555987090281,-0.000576226465114766,0.000473316287310571,0.0271692021609156,-0.0233687579610872,1.38525712702785,-0.00313071740428168,0
0.02,0.000791862390502537,0.000430113364483708,-0.0378562430638943,-0.0215188221896941,-0.000698912042660323,0.000568828188844631,0.0332361166465739,-0.0281338834432726,1.38523296691562,-0.00338850296242084,0
0.03,0.000840674322622356,0.000457475755681609,-0.0403619745234612,-0.0228877753527229,-0.000741823221221247,0.000604744319700441,0.0354455454435121,-0.0299424874758454,1.38520914652794,-0.00318339237659445,0
0.04,0.000820757594593119,0.000449356667475655,-0.0396296826764781,-0.0224815751556092,-0.000723734430353798,0.000593104474782961,0.0348001753220242,-0.0294088552662634,1.3851885169146,-0.00267916322856563,0
0.05,0.000835751421315263,0.0004606312686669,-0.0405032359406865,-0.0230456451608778,-0.000736379031525151,0.000606965835804817,0.035554081212257,-0.0301250923932234,1.38517033406328,-0.00240566596086362,0
0.06,0.000834327555783954,0.000462481191490975,-0.0405890508059917,-0.0231382098049872,-0.000734628507173525,0.000608532890870606,0.0356208563295573,-0.0302324724867156,1.38515440307972,-0.00208957463870818,0
0.07,0.000844193018209,0.000470792312530298,-0.0411777444542977,-0.0235540253750511,-0.00074278210996453,0.00061853212580034,0.0361222719438901,-0.0307502881177339,1.38514097555358,-0.00188126600262056,0
0.08,0.000829097431114678,0.000464146555493988,-0.0405881684306094,-0.0232215239282476,-0.000729165351622239,0.000609222837106021,0.0356038396033405,-0.0303150984758634,1.38512894996619,-0.00156903076900456,0
0.09,0.000823505554172827,0.000463052885592253,-0.0404238027634988,-0.0231668158086636,-0.000723865337684675,0.000607123006900132,0.0354520924981584,-0.0302313466798425,1.38511884115957,-0.00134383772865118,0
0.1,0.000820124728165248,0.000462871740496602,-0.0403483826871801,-0.0231577472489393,-0.000720570839149496,0.000606327043488798,0.0353793825919068,-0.030208815444045,1.38511022231122,-0.00115911868410297,0
0.11,0.000817499920992634,0.00046284074076786,-0.040296327252892,-0.0231561950868586,-0.000717992409916383,0.000605817275620272,0.0353282859376235,-0.0301979398913623,1.38510285011433,-0.00100252057525714,0
0.12,0.000815304408303259,0.000462834587798485,-0.0402541562672632,-0.0231558957504689,-0.000715831957115336,0.000605410392241287,0.0352867046907619,-0.0301900824255713,1.38509653968465,-0.0008687455556089,0
0.13,0.000847173468726558,0.000481521951103682,-0.0417980317876883,-0.0240908198306438,-0.000743699043827575,0.000629664996421776,0.0366312317837962,-0.0313942020035379,1.38509061715103,-0.000921375198798461,0
0.14,0.000865675094100958,0.00049316744539511,-0.0428795038727887,-0.0246734689508276,-0.000759728894061631,0.000644530453331828,0.0375863573468724,-0.0321667167090016,1.3850852862906,-0.000915268944762826,0
0.15,0.000820193175597509,0.000467814991157634,-0.0406348287989734,-0.0234050604293796,-0.000719707362104205,0.000611219293037737,0.0356143410708766,-0.0305058170733397,1.38508057526402,-0.000585155713921871,0
0.16,0.000810646191534912,0.00046364868248801,-0.0402206326761792,-0.0231966138055506,-0.000711091865794186,0.000605364111113525,0.0352456577442718,-0.0302245892460038,1.38507729136926,-0.000471403741929872,0
0.17,0.000808110619407405,0.000462963650516604,-0.0401277668919028,-0.0231623495914227,-0.000708724777501542,0.000604224548205441,0.0351606354069669,-0.0301738600796204,1.38507462361027,-0.000406408570000214,0
0.18,0.000807021303548945,0.000462850709047925,-0.0400984652826017,-0.0231567022332682,-0.000707673686958254,0.00060391399721725,0.0351328124474032,-0.0301629783986239,1.38507236717018,-0.000356976509522647,0
0.19,0.000806296139584673,0.000462831825378536,-0.0400830050347165,-0.0231557595521921,-0.000706963317596719,0.00060376289291825,0.0351177340418357,-0.0301592647260994,1.38507044059628,-0.000315846934763987,0
0.2,0.000805715098577205,0.0004628284435799,-0.0400716119811977,-0.0231555876948571,-0.000706391898462718,0.000603653438694839,0.0351065189440813,-0.0301570498539686,1.38506879216365,-0.000280862257758081,0
0.21,0.000805225327313935,0.000462827649006452,-0.0400622099124525,-0.0231555436671629,-0.000705909845233299,0.000603563211963232,0.0350972441480522,-0.0301553199088206,1.38506738104319,-0.000250953783764139,0
0.22,0.000804807558948145,0.000462827313846788,-0.0400542276088428,-0.0231555198415339,-0.000705498594507667,0.00060348658852572,0.035089367095687,-0.03015386484842,1.38506617294169,-0.000225355884140173,0
0.23,0.000804449872870789,0.000462827083554087,-0.0400473868713964,-0.0231555194186589,-0.000705146478429214,0.000603421039732531,0.0350826128981849,-0.0301526374801822,1.38506513862553,-0.000203441708314912,0
0.24,0.000804144037841186,0.000462826895658773,-0.040041544894033,-0.0231554996860351,-0.000704845403704535,0.000603365002148164,0.0350768483378306,-0.030151570338801,1.38506425309125,-0.000184680069637091,0
0.25,0.000803881986952132,0.000462826736286217,-0.0400365277306667,-0.0231555004699271,-0.000704587431766748,0.000603316987796463,0.0350718944593987,-0.0301506711993289,1.3850634949363,-0.000168617243667805,0
0.26,0.000810116922957206,0.000466492369131977,-0.0403324953578452,-0.0233388991096956,-0.000710037894219709,0.000608071334706757,0.0353288881959415,-0.0303855895496833,1.38506296981363,-0.000191188123276357,0
0.27,0.000794765438710642,0.000457566239109387,-0.0396245574991498,-0.022892310092329,-0.000696598270128641,0.000596464429614552,0.0347155698426066,-0.0298159794216102,1.38506207580078,-9.32496807329494e-05,0
0.28,0.00079410622520327,0.000457349522905428,-0.0394370872180378,-0.0228814719822484,-0.000695990136437798,0.000596130030269994,0.0345333114164035,-0.0297707240579606,1.38506160838575,-8.07334953005103e-05,0
0.29,0.00080140321113928,0.000461926369040017,-0.0399408590385446,-0.0231104566062769,-0.000702316286733589,0.000601975838906834,0.0349861258243602,-0.0300888089676134,1.3850613865841,-0.000114757200967629,0
0.3,0.000790778566540752,0.000456554759828823,-0.0394389146515203,-0.0228417064479909,-0.000692866725574977,0.000594734134394193,0.0345424632166004,-0.0297319655804304,1.38506202372686,-7.1303515117124e-05,0
0.31,0.000800880732091897,0.000461795849466465,-0.0399124691289005,-0.0231039221853069,-0.00070182714649373,0.000601750787340553,0.0349594433824644,-0.0300771296951424,1.38506180150602,-0.000120051155068784,0
0.32,0.000802707451607816,0.000462656972238369,-0.0400011685034341,-0.0231470094948566,-0.000703463206198157,0.000602934693273573,0.0350386493613307,-0.0301358686805081,1.38506143728821,-0.000122588571268975,0
0.33,0.000802962641666467,0.000462798408114492,-0.040016342870057,-0.0231540890611302,-0.000703687680199442,0.000603121065127746,0.0350522449596353,-0.0301456408164503,1.38506109209126,-0.000117241923711121,0
0.34,0.000802930325694111,0.000462821596754847,-0.0400176867270822,-0.0231552326551389,-0.000703651455697296,0.000603138099639737,0.0350533454140629,-0.0301470234945823,1.38506079014786,-0.000111222036838667,0
0.35,0.000802854306699065,0.000462825362902441,-0.0400165867393069,-0.023155425007111,-0.000703575892028825,0.000603127945370512,0.0350522209934448,-0.0301470185084881,1.38506053040929,-0.000105791406422674,0
0.36,0.000802780091964919,0.000462825943965722,-0.0400152163981214,-0.0231554558455892,-0.000703502712175222,0.000603114967833722,0.0350508618152729,-0.0301468035587881,1.385060307797,-0.000101088869507512,0
0.37,0.000802714608351262,0.00046282600709972,-0.0400139472343571,-0.0231554604696296,-0.000703438228208653,0.0006031030711272,0.0350496078794281,-0.0301465804086106,1.38506011716113,-9.70525851107504e-05,0
0.38,0.000802658321544833,0.000462825989781051,-0.0400128456719804,-0.0231554621586158,-0.00070338281426357,0.000603092774422508,0.035048520030829,-0.0301463843635914,1.38505995393849,-9.35949441086011e-05,0
0.39,0.000802610009186347,0.000462825963224686,-0.0400118915977284,-0.0231554623706796,-0.000703335253477874,0.00060308392475358,0.0350475781141864,-0.0301462132805819,1.38505981419292,-9.06342901980687e-05,0
0.4,0.00080256868174716,0.000462825938560345,-0.0400110715230412,-0.0231554625636662,-0.000703294569249887,0.000603076352702752,0.0350467685019254,-0.0301460662198522,1.3850596945486,-8.80994373939157e-05,0
0.41,0.000802533291489378,0.000462825917126755,-0.0400103639744494,-0.0231554627404239,-0.000703259729870486,0.000603069868137588,0.0350460700022039,-0.0301459393201091,1.38505959211418,-8.59291947380186e-05,0
0.42,0.000802502907090427,0.000462825898723722,-0.0400097489301489,-0.0231554629035105,-0.000703229818579011,0.000603064300617553,0.0350454628624812,-0.0301458289732403,1.38505950441443,-8.40711263056303e-05,0
0.43,0.000802476946473698,0.000462825882958925,-0.0400092199396448,-0.0231554630545041,-0.000703204262104179,0.000603059543757476,0.0350449406790176,-0.0301457340639022,1.38505942933,-8.24803297741645e-05,0
0.44,0.000802454711145671,0.000462825869460146,-0.0400087615453719,-0.0231554617401226,-0.000703182372940093,0.000603055469478357,0.035044488473769,-0.030145650372891,1.38505936504589,-8.11183600354317e-05,0
0.45,0.000802435677240581,0.000462825857902368,-0.0400083641547368,-0.0231554618721773,-0.000703163635354126,0.000603051981811836,0.035044096234565,-0.0301455790449352,1.38505931000852,-7.99523017569694e-05,0
0.46,0.00080241943730321,0.000462825848007425,-0.0400080216623631,-0.0231554619965984,-0.000703147648148458,0.000603049006175356,0.0350437581894769,-0.0301455175701049,1.38505926288824,-7.89539742213101e-05,0
0.47,0.000802405688316649,0.00046282583953524,-0.0400077311148876,-0.0231554429834906,-0.000703134112875004,0.000603046487176482,0.0350434749343232,-0.0301454466420767,1.38505922254561,-7.80992503336576e-05,0
0.48,0.00080239375574618,0.000462825832281903,-0.0400074692409905,-0.0231554430962761,-0.000703122366050809,0.000603044300733378,0.0350432165025258,-0.0301453996027716,1.38505918800636,-7.73674735386731e-05,0
0.49,0.000802383511197875,0.000462825826071791,-0.0400072385646137,-0.0231554432045458,-0.000703112281018847,0.000603042423550566,0.0350429888822622,-0.0301453581461973,1.3850591584351,-7.67409586068218e-05,0
0.5,0.000802374780048751,0.000462825820754918,-0.0400070379773281,-0.0231554433086409,-0.000703103685756714,0.000603040823735068,0.035042790962583,-0.0301453220930175,1.38505913311791,-7.62045642274704e-05,0
0.51,4.73916773699652,-0.0221024729864098,3.04233396958878,1.11316393469578,-0.630973547383779,4.69702796896109,0.712947399866546,3.16016390920546,0.128871462578902,39.7224192859168,2470.0185971156
0.52,4.64116863853478,-0.00174483288311478,7.94317234687934,0.103385014469225,-2.56312360116717,3.86921785131057,-4.29798143076439,6.68072084540657,0.584694599224121,84.7131006739328,2470.0185971156
0.53,4.67803632104554,0.0601581129271282,6.10080671115487,-2.98340279437628,-4.57650740890601,0.971196558787503,-6.56544551845076,-1.73650796272845,1.37454407623734,131.26103326305,2470.0185971156
0.54,4.64049545833742,-0.0176385834908572,7.9790247392804,0.908796761061675,-2.68756933575725,-3.78305171574155,-5.38461821519902,-5.95790517040274,2.52010417272681,181.538828206267,2470.0185971156
0.55,4.64916354314898,-0.00975743597569556,7.54682351249059,0.527532732152593,3.59478955634791,-2.94827151125442,5.48983544456643,-5.20524184872857,-2.25980321690614,227.735655498483,2470.0185971156
0.56,4.64573917866676,-0.0174026398186045,7.71939063771356,0.925856620458985,1.89791858316028,4.24041276525845,4.02359259079659,6.65258633634726,-0.424584495233409,273.994697456951,2470.0185971156
0.57,4.65617439668713,-0.00866819513640027,7.19908598444901,0.488611067403278,-4.56818806897712,-0.90094001821805,-7.15926613818794,-0.900271153194822,1.76365614690718,321.567049633088,2470.0185971156
0.58,4.61079055113147,0.0984692300679919,9.46983135230538,-4.87451045153598,4.16242077136427,-1.98578423243532,10.6365865097469,0.549167919592652,-1.99458278342784,368.707299489794,2470.0185971156
0.59,4.63382201576894,0.036948836767037,8.31982302577625,-1.76646305641091,-3.53887071568627,2.99166604888004,-7.52593632462573,3.96233887339033,0.876968125790292,414.285105333322,2470.0185971156
0.6,4.56573241778754,0.0330160237139343,11.7260561335824,-1.56957315644795,3.69158397383672,-2.68685882263469,10.444847610671,-5.555997725992,-2.19272821143842,461.261777892436,2470.0185971156
0.61,4.59482157493056,0.033101410389623,10.2734023503569,-1.57244352353664,-4.48709045191194,0.989697067378607,-10.3755654939156,0.602507401197621,1.36091069647467,508.16947202438,2470.0185971156
0.62,4.59788646659667,0.0580280014270333,10.1220666293613,-2.81482840898229,3.96694426861431,2.32535596809832,7.21308221810516,7.63877848455488,-1.02797830073339,554.681543473207,2470.0185971156
0.63,4.58529929048912,0.0700012384106747,10.7534026023114,-3.40438136522741,0.227491109306106,-4.58018750183065,4.09454661952995,-10.5100032344334,-3.07669965890082,600.915337258914,2470.0185971156
0.64,4.53542752288107,0.0739343548634208,13.2490678365023,-3.58615715668371,-4.51760587058598,0.40841927254148,-13.4775807295657,-2.59868031252639,1.49693537306319,646.875374999632,2470.0185971156
0.65,4.53148499219284,0.110263611731185,13.4483717395702,-5.38422919292173,-0.458564535738498,4.509571250696,-7.02733742462377,12.6674841688499,0.125666593122144,692.799125970931,2470.0185971156
0.66,4.50918354477735,0.085403029706155,14.5656475712483,-4.17297748992145,3.60518754436102,2.70973295510055,8.90568294679366,12.2580847424217,-0.90732135367914,739.53127247859,2470.0185971156
0.67,4.55395687684797,0.0557950255725178,12.3293121717161,-2.66630636633078,4.55003910448696,-0.196927572241776,12.4060353374682,2.28285248587241,-1.6017983709351,785.393393527487,2470.0185971156
0.68,4.4910131322117,0.0596853221927849,15.4788862699127,-2.82731926767421,4.13180353191463,-1.7609545323605,15.3928046628099,-3.26362053719946,-1.9603896584829,830.997738961167,2470.0185971156
0.69,4.48047828416736,0.108411464984207,16.0080995572378,-5.28810851470761,4.06403081401982,-1.88946877278581,16.7877048288625,-1.54800183357306,-1.98180049511004,877.174351158856,2470.0185971156
0.7,4.4405131309753,0.101146759876781,18.0089470210046,-4.93917440519696,4.40957088064749,-0.532984222977874,18.4042612439001,3.16240172599559,-1.66830844690529,922.949744603855,2470.0185971156
0.71,4.41460975248155,0.0845171730953882,19.3067861109435,-4.05058517353027,3.80427191811056,2.24130265522723,14.3213217124917,13.566833624286,-1.0192473331621,968.170780281753,2470.0185971156
0.72,4.45689103904545,0.0842355138109669,17.1954521799885,-4.04671163065682,0.244588059217932,4.4509718081559,-3.4252115936977,17.3299560367118,-0.0359985848614433,1013.96945776973,2470.0185971156
0.73,4.43432175266737,0.0932315264034962,18.3267002141832,-4.50658366851443,-4.22285399175657,1.35624691262326,-18.8503545335977,0.91726280832595,1.28105583002285,1059.68294069248,2470.0185971156
0.74,4.43909474338688,0.0434100903240804,18.0908708400976,-2.01295640306824,-0.966383837917076,-4.33284535317378,-1.79644309989883,-18.1136521282312,2.93192635390907,1105.22874087991,2470.0185971156
0.75,4.41918807846272,0.107785561629909,19.0891337082316,-5.22525111364859,4.34988145066487,0.787002138043233,17.6403478531239,8.97309325440329,-1.36742207989539,1150.57488604141,2470.0185971156
0.76,4.36809694182447,0.0776640995210183,21.6466989469563,-3.69917653919924,-3.504799047683,2.60819597440281,-19.7480859844059,9.60607007682287,0.948809398251742,1195.74381515076,2470.0185971156
0.77,4.35414096819584,0.155882720066988,22.3475678965291,-7.58211757876524,1.77422004802511,-3.97931981807478,16.6348424298084,-16.7387070947443,-2.68640103206314,1240.79934377329,2470.0185971156
0.78,4.32997502805879,0.0791295958147618,23.5590201098759,-3.74021603214121,-1.17379774585364,4.16859017994998,-10.3798392479451,21.4773271542676,0.292747400529626,1286.09894415159,2470.0185971156
0.79,4.4190813051016,0.0571502323240733,19.1068818538555,-2.67526919015235,1.91696533245847,-3.98205846821786,10.9049585967933,-15.9157744838005,-2.68000308833315,1331.44344076668,2470.0185971156
0.8,4.3602655989511,0.115427447650166,22.0509134667996,-5.52846342891176,-3.50808508904095,2.59202210583088,-21.2420849808984,8.09817993560209,0.960922342112537,1376.1498894257,2470.0185971156
0.81,4.37496488422835,0.133081646282017,21.3192871355931,-6.47072573843228,4.29900244812529,0.82256088760715,19.3992296106913,10.9568328482073,-1.35133415621399,1421.4903258737,2470.0185971156
0.82,4.28794386357998,0.11041910012104,25.6736381265207,-5.26155424015495,-4.28710411610226,0.139259658853001,-25.7084493925718,-5.08874026682485,1.564069728867,1466.17793483376,2470.0185971156
0.83,4.3085126064288,0.127063621750356,24.6486186230702,-6.11824908356471,0.508958387457232,4.28023216701678,-3.90644926909304,25.0943624342621,-0.088870584209866,1511.15959348177,2470.0185971156
0.84,4.32862469633147,0.129629524407035,23.6464909382555,-6.27914898092193,4.29527003654276,0.551770684674911,22.366956741811,9.91481173434805,-1.41309785984114,1556.18955992187,2470.0185971156
0.85,4.25633257933636,0.132243609189793,27.264696896778,-6.42439712681201,2.74850287664973,-3.25262775846542,23.0116976815127,-15.9717984313235,-2.40894284644585,1600.91117868815,2470.0185971156
0.86,4.28637293485223,0.116359058727153,25.7662913672155,-5.62344580536424,0.15948823257819,-4.28498493239482,7.2685381869709,-25.3513957440347,-3.07724996200971,1645.55355470478,2470.0185971156
0.87,4.24065277201329,0.123104508680726,28.0560077257025,-5.95898647784034,-1.27658984589946,-4.04581376464462,-1.92993898680103,-28.6168556074036,2.86496800836847,1690.14700070743,2470.0185971156
0.88,4.18411637356517,0.131408070630771,30.8865563625727,-6.37227152836536,-1.32483254454739,-3.97100952371952,-2.74530453320152,-31.4173282025951,2.8509746934123,1734.76618868386,2470.0185971156
0.89,4.24037799948344,0.145411044606075,28.0772537025762,-7.04562502610379,-0.0527428758672784,-4.24254265027965,7.65730720257905,-27.9166375821412,-3.11974534730887,1779.26047024672,2470.0185971156
0.9,4.22755770731299,0.164331553227008,28.7220652777799,-7.93970159742454,2.46434909577043,-3.43892898476007,23.8935901833441,-17.8070840798711,-2.48095804406766,1823.59344366869,2470.0185971156
0.91,4.16092196240723,0.204313875997346,32.0577788750649,-9.90133266695092,4.16587887739625,0.0216544690921475,31.4735973436158,11.6254137662332,-1.51653469545907,1867.92340692303,2470.0185971156
0.92,4.20895906966777,0.151740263472762,29.6598801182249,-7.35427320224534,1.09434175373904,4.06703549083614,-0.496160378710053,30.5540119761601,-0.226814317977184,1912.49649311209,2470.0185971156
0.93,4.2109662521788,0.166252432393298,29.5635263419587,-7.9834753063165,-4.11030479005246,0.930199538344991,-30.5229614296624,-2.46714274041761,1.3876965102447,1956.53644831578,2470.0185971156
0.94,4.19628017449488,0.192556862669805,30.3019461807982,-9.37953257946192,0.582967391385678,-4.16004741184533,14.7957631573497,-28.058313676071,-2.95650916459678,2000.95570635619,2470.0185971156
0.95,3.90064689747958,0.192074770407614,33.837509024138,-9.3253602593713,2.64512402755355,2.87319644561647,14.5031420105696,31.9624503557993,-0.694889598604273,2044.29227596057,2470.0185971156
0.96,3.53355941792567,0.136878177848762,32.9138106861674,-6.55755300385755,-1.53276777414111,3.18675395130169,-21.1989646472815,26.01776956556,0.487034158690676,2083.92737956708,2470.0185971156
0.97,3.21046008028596,0.115662471620669,31.6705955564684,-5.56447241619735,0.492893983985239,-3.17450582847194,11.4470392380599,-30.0492141137557,-2.95154506278923,2120.0517650281,2470.0185971156
0.98,2.9095692898019,0.140641913684204,30.9961612468211,-6.87118441574888,-0.279719672915469,2.89950521720985,-11.2621764260223,29.6839783294509,0.144474014486878,2152.7584848484,2470.0185971156
