t,iq,id,vq,vd,ia,ib,va,vb,theta_e,omega,r
0,0,0,0,0,0,0,0,0,0,0,0
0.01,0.000755177809286668,0.000419033745823142,-0.0365979806410607,-0.0209710061567933,-0.000283048770488211,-0.000815944971981994,0.0143709356638502,0.0396569224017346,-2.96891751500092,-0.00220589903730307,0
0.02,0.000857369315259972,0.000474715606456721,-0.0417718558228205,-0.0237576744276674,-0.000320359275055454,-0.000926178700170151,0.0162279324076002,0.0452323915227562,-2.96893379758102,-0.00224916666275812,0
0.03,0.000894559639433438,0.000496715692857946,-0.0436847974429982,-0.0248586890897416,-0.000335657957815048,-0.000966590483808973,0.0169846672779117,0.0473057821873273,-2.96894940707795,-0.0020964121955499,0
0.04,0.000870294494499653,0.000485584023183887,-0.0426359994672235,-0.0243016069609779,-0.000328872821583609,-0.000940769375538709,0.016616655727414,0.0461766532339832,-2.96896281898401,-0.00178549570980893,0
0.05,0.000888741215252629,0.000497594699138722,-0.0436218833283663,-0.0249026826963819,-0.000337547971182458,-0.000961000936237984,0.01704002155325,0.047250925663473,-2.96897494828311,-0.0016333958684669,0
0.06,0.000887495420700993,0.000498572194069055,-0.0436532767214017,-0.0249516081180571,-0.000338735268425993,-0.000959937900277114,0.0170833375414206,0.0472900718400623,-2.96898572968652,-0.00144181594515014,0
0.07,0.000905238100753121,0.000510278065941392,-0.0445811963078154,-0.0255374368150053,-0.000347228943006009,-0.00097942421083764,0.0175015372783303,0.0483046575001995,-2.96899499296547,-0.00133733548730301,0
0.08,0.00088416502805317,0.000499602203411871,-0.0436432491966409,-0.0250031497367888,-0.000340338909482962,-0.000956827876463791,0.0171366726567917,0.0472887422908914,-2.96900343251777,-0.00112313935475044,0
0.09,0.000880215403413051,0.000498727418213558,-0.0435151058044373,-0.024959365205008,-0.000340162287574224,-0.00095278424220588,0.0171158858207565,0.0471548597408492,-2.96901065702889,-0.000984808945140244,0
0.1,0.000878115415143698,0.00049865371862966,-0.0434677309832744,-0.0249556768182176,-0.000340456295596052,-0.000950700649103171,0.0171206844983356,0.0471074474430327,-2.96901695660088,-0.000868483718780911,0
0.11,0.00087640640562259,0.000498645748042244,-0.0434323604200551,-0.0249552828055144,-0.000340747138535436,-0.000949013781478872,0.0171266292726878,0.047072440358629,-2.96902246063745,-0.00076725070439905,0
0.12,0.000874924575684989,0.000498643391699052,-0.0434020067670411,-0.0249551771670984,-0.000341003827238969,-0.000947551916799849,0.0171319636527828,0.0470424370143308,-2.9690272706309,-0.000678820468598889,0
0.13,0.000914340573608273,0.000521314061590915,-0.0453287166339695,-0.02608974172651,-0.00035657423107614,-0.000990273625363809,0.0179190685533657,0.0491352638867288,-2.9690318940835,-0.000724338323517929,0
0.14,0.000943827777868567,0.00053927554860949,-0.046925132089113,-0.0269886412491032,-0.000369210043878962,-0.00102240546511806,0.0185307134759562,0.0508622397867565,-2.96903600554714,-0.000747034661837371,0
0.15,0.000877790343441739,0.000501958509245106,-0.0436441348457811,-0.0251210793142039,-0.000343789438511649,-0.000950940089601327,0.0172544135778625,0.0473092416387255,-2.96903969306731,-0.00047182559012016,0
0.16,0.00087089792235506,0.000498908681972187,-0.0433367695639401,-0.0249684383497843,-0.000341970857189392,-0.00094362545373826,0.0171569398513493,0.0469801865130632,-2.96904238514904,-0.00040295536871399,0
0.17,0.000869622471047652,0.000498658686115953,-0.04329512317185,-0.0249559309117927,-0.000341945733022145,-0.000942325232102941,0.0171518767384117,0.0469369715947905,-2.96904468825813,-0.000358804885379035,0
0.18,0.000868951578620376,0.000498637546272707,-0.0432799383483552,-0.0249548702014904,-0.000342041985611798,-0.000941659985673411,0.0171535331318706,0.0469217956956517,-2.96904669637192,-0.000321719034986951,0
0.19,0.000868406527152786,0.00049863519441585,-0.0432686375170679,-0.0249547669205722,-0.000342134900346466,-0.000941122023691194,0.0171554539413276,0.0469106148404653,-2.9690484508804,-0.000289448770561757,0
0.2,0.000867934356947809,0.00049863445617068,-0.0432589588432388,-0.0249547184013666,-0.000342216681927029,-0.000940656213216014,0.0171571397794973,0.0469010452471939,-2.96904998414925,-0.000261260051934405,0
0.21,0.000867521786219322,0.000498633918478902,-0.0432505008618827,-0.0249546962329495,-0.000342288245481695,-0.000940249217616186,0.0171586329068646,0.0468926860571024,-2.96905132410778,-0.000236626441128217,0
0.22,0.000867161485973842,0.000498633457257097,-0.0432431196240192,-0.0249546768218717,-0.000342350750432474,-0.000939893787154085,0.017159935946764,0.0468853909912699,-2.96905249513097,-0.00021509862088227,0
0.23,0.000866846471288278,0.000498633054816447,-0.0432366597168337,-0.0249546572770746,-0.000342405398928315,-0.000939583030351902,0.0171610737389058,0.0468790060838896,-2.96905351851766,-0.000196284925909799,0
0.24,0.000866571212430948,0.00049863270310611,-0.0432310139561203,-0.0249546347035619,-0.000342453150159634,-0.000939311491874071,0.0171620627111117,0.046873424926736,-2.96905441288101,-0.000179843163869653,0
0.25,0.000866330761758461,0.000498632395692424,-0.0432260829460533,-0.0249546149360279,-0.000342494862698999,-0.000939074290899157,0.0171629264426993,0.0468685503230791,-2.9690551944878,-0.000165474293002143,0
0.26,0.000874780629092736,0.000503466839364938,-0.0436359316006826,-0.0251965713224397,-0.000345807412739993,-0.000948228474931055,0.0173309554882989,0.0473138427410926,-2.96905580892324,-0.000181787874593163,0
0.27,0.000850695410176109,0.000489754556485442,-0.0424893733711437,-0.0245103200033095,-0.000336434481920433,-0.000922146434069926,0.0168517746769351,0.0460664772516295,-2.96905663009425,-9.05261857922115e-05,0
0.28,0.000849899447490773,0.000489286620297329,-0.0423133932498285,-0.0244868932766283,-0.000336110621659167,-0.000921281779725938,0.016858931996576,0.0458890793391025,-2.96905714718149,-7.89847156691762e-05,0
0.29,0.000864156139750963,0.000497867994930709,-0.0431409568930241,-0.0249163623873211,-0.000342117273798178,-0.000936799949409965,0.017139962251951,0.0467780821567513,-2.96905745465814,-0.00011919688885683,0
0.3,0.000856266396103571,0.000493823827097607,-0.0427605893342708,-0.0247139623220267,-0.000339487389149994,-0.000928333143819419,0.0170058551426316,0.0463686189651637,-2.96905715668292,-9.91673161315218e-05,0
0.31,0.000864732712049683,0.000498238672974449,-0.0431690627465054,-0.0249349156929809,-0.000342383518670411,-0.000937431578665349,0.0171534176911814,0.0468089549182595,-2.96905751503148,-0.000119989004940214,0
0.32,0.000865415920097247,0.000498599238278216,-0.0432050017409122,-0.024952968007615,-0.0003426217967024,-0.00093816641359292,0.0171650499124431,0.0468474529651786,-2.96905789830913,-0.000115503853809407,0
0.33,0.0008653858339262,0.000498628575354102,-0.043206427807293,-0.0249544200951801,-0.000342656183779444,-0.000938141693688919,0.0171662516126776,0.0468491012904601,-2.96905823981529,-0.000109464955275455,0
0.34,0.000865300734494751,0.000498630865548554,-0.043204860237174,-0.024954542695231,-0.000342673330352947,-0.000938058148442662,0.0171666555227853,0.0468475729083575,-2.96905853887838,-0.000103989406223768,0
0.35,0.00086522087359621,0.000498630959386167,-0.0432032255252386,-0.0249545517812011,-0.000342687378470097,-0.00093797939977499,0.0171669573664701,0.046845959539357,-2.96905880029409,-9.91856857462268e-05,0
0.36,0.000865150558741994,0.000498630885531102,-0.0432017696163014,-0.0249545521037986,-0.000342699591582533,-0.000937910037917433,0.0171672183357081,0.0468445213797229,-2.96905902875729,-9.49858646477692e-05,0
0.37,0.000865089329456262,0.000498630808250122,-0.043200506096604,-0.0249545317705526,-0.000342710214477063,-0.000937849636012266,0.0171674245767716,0.0468432697011118,-2.96905922841761,-9.13153734590075e-05,0
0.38,0.000865035603785369,0.000498630739669263,-0.0431993887922578,-0.0249545320372683,-0.000342719534102567,-0.000937796636432416,0.0171676248302946,0.0468421660356345,-2.96905940290569,-8.81076234513218e-05,0
0.39,0.000864988630203125,0.000498630679647786,-0.0431984089994129,-0.024954532280537,-0.000342727682325184,-0.000937750297699073,0.0171678004221451,0.0468411982136059,-2.9690595553952,-8.53042883241617e-05,0
0.4,0.000864947652009941,0.000498630627185233,-0.0431975540880713,-0.0249545325030014,-0.000342734790675061,-0.000937709873226027,0.0171679536532622,0.0468403537454046,-2.96905968865969,-8.28543828493132e-05,0
0.41,0.000864911737883244,0.000498630581335163,-0.043196799550324,-0.0249545327078817,-0.000342741020384831,-0.000937674444525615,0.0171680888479118,0.046839608445949,-2.96905980512281,-8.07133485902196e-05,0
0.42,0.000864880422161748,0.000498630541264737,-0.0431961413816194,-0.024954532896782,-0.000342746452567528,-0.000937643551981788,0.0171682067944563,0.0468389583340643,-2.96905990690281,-7.88422446944139e-05,0
0.43,0.000864853006353524,0.000498630506245497,-0.0431955614864078,-0.0249545330721363,-0.000342751208159654,-0.000937616506713948,0.0171683106886662,0.046838385551509,-2.96905999585091,-7.72070397605583e-05,0
0.44,0.000864829083004946,0.000498630475640909,-0.0431950542098434,-0.0249545332353637,-0.000342755358003817,-0.000937592906654445,0.0171684015785691,0.0468378844998701,-2.96906007358493,-7.57779928848883e-05,0
0.45,0.000864808186454728,0.000498630448894534,-0.0431946091119977,-0.024954533388077,-0.000342758982822614,-0.000937572292475778,0.0171684813243068,0.0468374448702302,-2.96906014151858,-7.45291127418266e-05,0
0.46,0.000864790089045445,0.000498630425519688,-0.0431942260623582,-0.0249545129133576,-0.000342762122379952,-0.000937554439393662,0.0171685296953596,0.0468370629733397,-2.96906020088747,-7.34376848543017e-05,0
0.47,0.000864774140146393,0.00049863040509187,-0.0431938823590875,-0.024954513049261,-0.000342764888969784,-0.000937538705994343,0.0171685912655257,0.046836723505533,-2.96906025277145,-7.2483858467249e-05,0
0.48,0.000864760112100148,0.000498630387239102,-0.0431935751918556,-0.0249545131784574,-0.000342767322194585,-0.000937524867613244,0.0171686462502521,0.0468364201424702,-2.96906029811404,-7.16502855065158e-05,0
0.49,0.000864747946699046,0.000498630371637082,-0.0431933091640909,-0.0249545133011462,-0.000342769432501608,-0.000937512866568602,0.017168693898071,0.0468361574051091,-2.96906033774002,-7.09218050506723e-05,0
0.5,0.000864737294697125,0.000498630358002061,-0.043193073351715,-0.0249545134185454,-0.000342771280245201,-0.00093750235850393,0.0171687361193706,0.0468359245193944,-2.96906037237021,-7.02851675886849e-05,0
0.51,4.68649723066985,0.0487740824060426,5.67614900943823,-2.43047613123161,-0.458190908223702,4.66430019357801,-3.02990469826778,5.38010774253156,0.108326406319352,33.3448981612564,2691.97504128866
0.52,4.65825554331698,0.0311341974624068,7.08940547864821,-1.5340662609488,-2.17041285003609,4.12184692892558,-4.69750916907227,5.52688311258259,0.491355201158738,71.3546331059456,2691.97504128866
0.53,4.63264970892937,0.00450720002305172,8.37105634523442,-0.191421785709574,-4.24738670270512,1.84964046186798,-7.7543989459323,3.15919667359564,1.16105781361365,112.17239961155,2691.97504128866
0.54,4.63488052681806,-0.0114559795309535,8.26100201331533,0.617583705415102,-3.91186590823549,-2.4858708440563,-7.31318636792466,-3.89138394985578,2.134417074192,152.319024170337,2691.97504128866
0.55,4.64745536634887,0.0412924966739901,7.63379989363323,-2.00124710592392,1.10266402660726,-4.51493947876522,3.81676606357625,-6.90740093022957,-2.89317127839289,191.125281367364,2691.97504128866
0.56,4.53822081263238,0.0319620722548892,13.097202594682,-1.52678274024456,4.42883544078948,0.990901789623781,12.4169019077716,4.43715318135748,-1.34364000442326,230.440108572715,2691.97504128866
0.57,4.55082021996394,0.0631869421296274,12.4690322554269,-3.0861983123465,-2.0945284752588,4.04065684393248,-8.61147166771628,9.53120879669135,0.492113990156767,270.300401485564,2691.97504128866
0.58,4.60028052289842,0.0141500154397254,9.99794740735255,-0.623938833264726,-2.32339964308054,-3.97046536451695,-4.48345336205978,-8.95806329393124,2.6152243758181,309.596489230202,2691.97504128866
0.59,4.53496672615783,0.0111086926110453,13.265671476574,-0.461075862841996,4.31768573005149,1.38695225113191,12.4779801887005,4.52665893193664,-1.25753223958255,348.588305153809,2691.97504128866
0.6,4.50135113343754,0.0605396762806799,14.9485771164799,-2.9154793416925,-4.45438881213041,0.651342758669363,-15.2020273318995,-0.926467808055924,1.43904880596903,387.292646648012,2691.97504128866
0.61,4.54039010606299,0.0622250229460022,12.9988530685974,-2.97232700833808,4.33082611625012,-1.3649027143065,13.3046055882635,-0.890156775084066,-1.86239869180144,425.953508444486,2691.97504128866
0.62,4.50837616029325,0.0869597394074866,14.6019217622212,-4.23537830770217,-4.43191484190437,0.83135337437585,-15.101297340805,-1.76220520484362,1.40465396355814,465.345082885496,2691.97504128866
0.63,4.49964281416025,0.0781847609148814,15.0410070743048,-3.74950717215957,4.38557368647787,1.00977311923829,13.6919904646403,7.26774345719235,-1.32711762096495,503.562856217681,2691.97504128866
0.64,4.49505887612164,0.0639342119636903,15.2727923047874,-3.0526046807136,-2.71336440857614,-3.58431241237865,-6.58428578139911,-14.1146647452482,2.5078417592384,542.558265756832,2691.97504128866
0.65,4.41521243912459,0.0821807147671579,19.2677370213895,-3.9732579831645,-1.40501751026222,4.18649977288148,-10.2118385030803,16.8151962020433,0.342406150261636,581.230942568869,2691.97504128866
0.66,4.38270594366799,0.0753381258653627,20.8957655668378,-3.62322140931916,4.38297044896212,0.0579419139864628,20.7759512453812,4.25683002417701,-1.54038914210503,619.632548849956,2691.97504128866
0.67,4.39301512597223,0.0650589015441601,20.3831502706051,-3.09988078274254,-0.0635281743634026,-4.39303752872121,3.10698299706564,-20.3820688959004,-3.14124420879315,658.037025153449,2691.97504128866
0.68,4.38565644656703,0.152662428965422,20.7539537876827,-7.47364230075546,-4.28556624487592,-0.944039324028776,-18.2397305336834,-12.4054083818118,1.82241241409786,696.47130269674,2691.97504128866
0.69,4.42302573346589,0.0786271847711302,18.8884817816617,-3.73212169677249,-3.06703807176371,3.18788587302595,-15.9786253219866,10.7418345358349,0.783855054284863,734.577020490122,2691.97504128866
0.7,4.34899080985698,0.130750872990113,22.5932708981854,-6.29878329052163,0.0205014384140419,4.35090755429613,-6.8692949085604,22.426398468746,0.0253436370858545,772.623503812105,2691.97504128866
0.71,4.34896326130455,0.0962900970627655,22.5978354120229,-4.6156410686695,1.99036595310495,3.86797060532907,5.7424862228648,22.3380876478689,-0.45310320925703,810.991161498383,2691.97504128866
0.72,4.3290474480093,0.188101003549173,23.5967952299329,-9.16084290715266,2.77771800502659,3.32570541076673,7.04678564837956,24.3119846972374,-0.65243105658832,848.955201459115,2691.97504128866
0.73,4.30857584645966,0.135331788457436,24.6236605346592,-6.50471796765933,2.4480675816772,3.54811296793152,7.87338359688915,24.2207729996621,-0.572558543975061,886.876098087097,2691.97504128866
0.74,4.33912315343164,0.141341341503233,23.0997002243036,-6.81115690974179,1.0614109149898,4.20967623280045,-1.73987036531034,24.0200095756378,-0.214425803785651,924.870982650071,2691.97504128866
0.75,4.33360358769384,0.142116740472637,23.379092369221,-6.84347836662358,-1.64385785025329,4.01223735481291,-15.812040677198,18.5309073114526,0.421632187877541,962.798585752967,2691.97504128866
0.76,4.29839161947297,0.140568015431318,25.1431970780823,-6.74294250069831,-4.14683227944601,1.14004908993534,-26.0225848398892,-0.687539908499577,1.33519487122769,1000.57051089997,2691.97504128866
0.77,4.3036116634394,0.132449210824114,24.8857997286015,-6.30619573739087,3.14613410666183,2.93946531295042,13.2078505838164,22.014173065685,-0.788578837861779,1038.29624947869,2691.97504128866
0.78,4.27293726739722,0.173091166645324,26.4232037147632,-8.42001451540936,-2.54677473220198,3.4353881740642,-23.1377613660472,15.2881110003634,0.678419209528154,1076.20120381303,2691.97504128866
0.79,4.28058048306955,0.172637505795051,26.0447618325019,-8.31639792404699,-2.95234209710684,-3.10432748306197,-10.9212259478486,-25.0642956641291,2.42159166351777,1113.64466326204,2691.97504128866
0.8,4.1800172896721,0.106629686240105,31.0767130939735,-5.08214223167154,3.99803207089272,-1.22460360609407,31.3005054322784,-3.44508723721063,-1.84252047104111,1151.42597289255,2691.97504128866
0.81,4.23390333540649,0.154240829995246,28.3862489542918,-7.35861353741786,-1.70904675432289,3.8767108324896,-19.0095556099589,22.3285717948995,0.451632353620362,1188.79455030843,2691.97504128866
0.82,4.2095921934729,0.174915374774518,29.6057268698106,-8.39340520819186,-0.679815029819586,-4.15801795918583,4.77266365175761,-30.4001644098501,3.02105925874811,1226.23471989408,2691.97504128866
0.83,4.18835289535245,0.198149091568289,30.6716718043613,-9.55837342376472,1.88225842196887,3.74682082190006,3.72355429054777,31.9100156256296,-0.418260699690795,1263.68030075877,2691.97504128866
0.84,4.16556902731828,0.132784090322389,31.8149453757327,-6.27101482219998,-1.90192415196909,-3.7084068622729,-7.94115934873926,-31.4396940881911,2.69956930652091,1301.00703966628,2691.97504128866
0.85,4.13141780029722,0.196535489597213,33.5266714782302,-9.44028785319911,0.98310464681073,4.01755454134765,-2.85351026572072,34.7133146548102,-0.192451247254913,1338.28212934939,2691.97504128866
0.86,4.07168902047627,0.16100324868046,36.5173029724422,-7.77340701384286,1.16843229846148,-3.90375966082246,19.1981889770626,-32.0213805602599,-2.8112479400305,1375.69116241397,2691.97504128866
0.87,4.15080555342078,0.198605053886627,32.5657502178649,-9.56760058279976,-3.66141460512499,1.96536861659984,-33.513584918339,5.37649459086876,1.12597150866756,1412.75323509056,2691.97504128866
0.88,4.07921351893705,0.17842023763102,36.1496888690333,-8.63010910559405,-3.75014242149158,-1.61500728568151,-28.788636180397,-23.505174225585,2.02115574790497,1449.95077916797,2691.97504128866
0.89,4.15011631266133,0.223541248917049,32.6089239572529,-10.764855614244,-0.685123859808798,4.09927327648521,-17.6043603806231,29.4840725415362,0.219414227419058,1486.91545518487,2691.97504128866
0.9,4.09127096722841,0.163434637985863,35.5556601644175,-7.81091662238958,3.99565700577658,0.894390351227122,32.3503191403289,16.6934789582142,-1.3106597432694,1524.01563272619,2691.97504128866
0.91,4.06277558983574,0.203860584165129,36.9849206253507,-9.86065819340166,2.02774694867678,-3.52646380149766,28.3109133041382,-25.7606118241815,-2.56961631043057,1561.04626885583,2691.97504128866
0.92,3.99671641903018,0.161836750117781,40.2924315196302,-7.76019533883449,-1.76314533411544,-3.59043894233296,-9.18422649287241,-39.9918823411524,2.72558743446921,1597.97550501784,2691.97504128866
0.93,4.05501965364392,0.256931488009778,37.381865157347,-12.4821244086644,-3.78225855491003,-1.48449264221122,-28.5783005534346,-27.1383125833757,2.00808722357279,1634.81954362801,2691.97504128866
0.94,4.01491277272717,0.272418616758896,39.3917847773235,-13.1945440981219,-4.01203665603273,0.31192682798102,-39.5197587673681,-12.8061457460584,1.56095251438738,1671.62612939959,2691.97504128866
0.95,3.99804716731233,0.309554592789062,40.2396577919741,-15.0238640332978,-3.87093709166726,1.0469246536048,-42.3302771102948,-7.28657597722373,1.38393024458197,1708.46164017241,2691.97504128866
0.96,4.04666165267676,0.221085370730132,37.8134984796193,-10.6656123953341,3.84486554238307,-1.28115503877977,39.2876662329759,0.308604928606178,-1.83785785447956,1745.21631432586,2691.97504128866
0.97,3.89557126976504,0.322922340275441,45.3726013846281,-15.7116979769597,3.90866988187468,0.0453222924565946,43.6915860554936,19.9142089394219,-1.4764958821402,1781.84819259604,2691.97504128866
0.98,3.97488723442752,0.264388429736127,41.4113360728352,-12.7539512761389,3.15218949770745,2.43584300371268,22.5640189628672,36.9922569835202,-0.846478894512008,1818.41982467767,2691.97504128866
