t,iq,id,vq,vd,ia,ib,va,vb,theta_e,omega,r
0,0,0,0,0,0,0,0,0,0,0,0
0.01,0.00114351491983653,0.000580872420184621,-0.0544661646730777,-0.0290810874286464,-0.000824638397057821,0.000982349558211227,0.0387241502370717,-0.0480906740298376,1.16834435026989,-0.00655669108603114,0
0.02,0.00120199220595372,0.000643290071860017,-0.0587652437241786,-0.0322060063369485,-0.000853957163682461,0.00106271564509165,0.0414538651153536,-0.0526512847054633,1.16830773450991,-0.00400681893264936,0
0.03,0.00120712619569196,0.000667308545683854,-0.0596303318078731,-0.0334084624790903,-0.000849250146028767,0.00108684338197303,0.0417776907015034,-0.0540973788309872,1.1682870448234,-0.00231282861274181,0
0.04,0.00115035013526274,0.000653529261137649,-0.0572993995603468,-0.0327186210647625,-0.000802401055107468,0.00105193083214846,0.0399028623570499,-0.0525498899149191,1.16827919629043,-0.00113748987394217,0
0.05,0.00117119201624446,0.000667655271930415,-0.0584045087549314,-0.033425824182732,-0.000816037885224877,0.0010730966736175,0.0406423292426903,-0.0536336968605422,1.1682739192906,-0.000882624919486272,0
0.06,0.00116565107080925,0.000668139128907688,-0.0582407255527534,-0.0334500475773207,-0.000810747195217938,0.00107137355758975,0.0404819942387002,-0.0535919391167553,1.16827106881697,-0.000592556734991448,0
0.07,0.00119885402445972,0.000686431719937278,-0.0597741913520006,-0.0343658749019445,-0.000834129310769089,0.0011012119555359,0.0415340740291474,-0.055035334141831,1.16827008214996,-0.000810766751226226,0
0.08,0.00116207618462061,0.00066878284789705,-0.058147284651107,-0.0334822896661268,-0.000807203455019973,0.00107056720419948,0.0403832706144612,-0.0535850901656653,1.16826882185026,-0.000371095296784132,0
0.09,0.00115923632506509,0.000668176960316817,-0.0580216819579154,-0.0334519593764444,-0.000804827822319355,0.00106889732157458,0.0402795833123699,-0.0535079838111157,1.16826872285252,-0.000337004567345573,0
0.1,0.00115901501870745,0.000668156158344338,-0.0580118871183311,-0.0334509180424903,-0.000804632344176812,0.00106879149333601,0.0402709788223803,-0.0535031889666662,1.16826871439172,-0.000334285254444845,0
0.11,0.00115899685788708,0.000668155443885049,-0.0580110638388067,-0.0334508803261461,-0.000804615913677209,0.00106878372238856,0.0402702360650582,-0.0535028317901842,1.16826871337055,-0.00033403476306545,0
0.12,0.00115899499524193,0.000668155419269698,-0.0580109549497601,-0.0334508804102403,-0.000804614209290193,0.00106878297025337,0.0402701358331931,-0.0535027892205581,1.16826871312817,-0.000333997271484171,0
0.13,0.00122294621917361,0.000700102039013349,-0.0609616689107641,-0.035050280173147,-0.000850937099182752,0.00112323032956563,0.0423583522882612,-0.0561303590584033,1.16826691617617,-0.000762983432560636,0
0.14,0.00127733443809312,0.000735324615563698,-0.0640101236736687,-0.0368136634781649,-0.00088717922217782,0.00117694459713638,0.0444723195441749,-0.0589470486603251,1.16826633963917,-0.00120788448387724,0
0.15,0.00116045988308856,0.000670460155287646,-0.0581628267651524,-0.03356626461797,-0.000805056144377543,0.001071479614592,0.0403645176050667,-0.0536685592896527,1.16826591275362,-0.000111697591875577,0
0.16,0.00115570576971935,0.000668234017615341,-0.0579040542211307,-0.0334548147102793,-0.000801555616444499,0.00106756785367826,0.0401701643041189,-0.0534645866188345,1.16826733405895,-0.00018813914564396,0
0.17,0.00115722952677886,0.000668157882771396,-0.0579499138122635,-0.0334509876993226,-0.000802988217289602,0.00106809412359232,0.0402138981214067,-0.0534790004281131,1.16826808983104,-0.000265541777079255,0
0.18,0.00115818660725013,0.000668155398842771,-0.0579826579352749,-0.0334508854113233,-0.000803870143824799,0.00106846649272844,0.0402440836700277,-0.0534917197854059,1.16826843525935,-0.000303286129148517,0
0.19,0.00115863364208327,0.000668155371400005,-0.0579981527075464,-0.0334508816901156,-0.000804281624374919,0.00106864146728015,0.0402583497110908,-0.0534977801583719,1.16826858950307,-0.000320317412688201,0
0.2,0.00115883399285197,0.000668155396166184,-0.0580050956408762,-0.0334508813709538,-0.000804466025463539,0.0010687199213499,0.0402647415167673,-0.0535004969639417,1.16826865810528,-0.000327905878557084,0
0.21,0.00115892316698842,0.00066815540844074,-0.0580081694392914,-0.0334508812734645,-0.000804548100023248,0.00106875484165456,0.0402675713074718,-0.0535016997923115,1.16826868859653,-0.000331279673296666,0
0.22,0.00115896274819781,0.000668155413938854,-0.0580095151723124,-0.0334508812748497,-0.000804584529983585,0.00106877034155946,0.0402688102055456,-0.0535022264323699,1.16826870214732,-0.000332779082853057,0
0.23,0.00115898032691139,0.000668155416383922,-0.058010094838867,-0.0334508813201079,-0.000804600709175116,0.00106877722534011,0.0402693438460022,-0.053502453313084,1.16826870816959,-0.000333445419386753,0
0.24,0.00115898824315327,0.000668155417470666,-0.0580103398304618,-0.0334508813846305,-0.000804607995136508,0.00106878032533599,0.0402695693742693,-0.05350254923894,1.16826871084624,-0.000333741535524854,0
0.25,0.00115899173561292,0.000668155417954074,-0.0580104295943375,-0.0334508814579757,-0.000804611209539461,0.00106878169297751,0.0402696519985916,-0.0535025844230674,1.16826871203626,-0.000333873127582823,0
0.26,0.00117382960353346,0.000674903711195258,-0.0586818568583865,-0.0337887302792819,-0.000815619546699609,0.0010808032719039,0.0407550647388067,-0.0540764580605082,1.16826872656667,-0.000469702896275705,0
0.27,0.0011295197058372,0.0006521716161846,-0.0566946277435043,-0.0326506434515337,-0.000783755703354273,0.00104253037379783,0.0393724744346656,-0.0522508716641676,1.16826809576014,-1.46581424838791e-05,0
0.28,0.00112823843441712,0.000649182301946967,-0.056101825040238,-0.0325009827315178,-0.000783748009400207,0.00103927796273103,0.0388856872508275,-0.0518809404154428,1.16826821006282,-1.26497610562074e-05,0
0.29,0.00115727726115736,0.000667504176617229,-0.0579269930239696,-0.0334182733789496,-0.000803289085267378,0.00106751071680036,0.0402056681708783,-0.0534398892529022,1.16826889753159,-0.000333923652369406,0
0.3,0.00115155558671846,0.000664343923601425,-0.0576037521017173,-0.0332600434438902,-0.000799264966962103,0.00106235993463407,0.0399703601123634,-0.0531675940641812,1.16827099778704,-0.000458703786620611,0
0.31,0.0011614510343409,0.000668025031469852,-0.0580846150778181,-0.0334443596609044,-0.000806926321547095,0.00106962416737671,0.0403405279272221,-0.0535255967591136,1.1682699250968,-0.000458233496826964,0
0.32,0.00116053039674387,0.000668151149804106,-0.0580630230086157,-0.0334506577730811,-0.000806029156559306,0.00106938008188264,0.0403181591396223,-0.0535229594654754,1.16826926681637,-0.000394500772961158,0
0.33,0.0011597111822966,0.000668155364425916,-0.0580352665451558,-0.0334508748423487,-0.000805273439915759,0.00106906328359043,0.0402925197012896,-0.0535122980893827,1.16826896028757,-0.000361282896022368,0
0.34,0.00115931560303799,0.00066815545769251,-0.0580215195774324,-0.0334508815318077,-0.00080490929448921,0.00106890851373563,0.040279861508849,-0.0535069244692437,1.16826882299032,-0.000346143823834381,0
0.35,0.00115913737118041,0.000668155438010921,-0.0580152847653341,-0.0334508819675071,-0.000804745250434938,0.0010688387233409,0.0402741215819784,-0.0535044848737648,1.1682687618936,-0.000339387048127382,0
0.36,0.00115905797593099,0.000668155427162564,-0.0580124877630969,-0.0334508822061307,-0.000804672176172407,0.00106880763250923,0.0402715465871044,-0.0535033904749463,1.16826873473657,-0.000336382142182454,0
0.37,0.00115902270208851,0.000668155422269358,-0.0580112274912077,-0.0334508823567784,-0.000804639710653787,0.00106879381936063,0.0402703863392999,-0.0535028973941338,1.16826872266824,-0.000335046609688198,0
0.38,0.00115900710243539,0.000668155420092305,-0.0580106533660803,-0.033450882468197,-0.000804625352943471,0.00106878771058382,0.0402698577712644,-0.0535026728018591,1.16826871730543,-0.000334453094798637,0
0.39,0.00115900011751609,0.000668155419125004,-0.0580103777709454,-0.0334508825624382,-0.000804618924134794,0.0010687849753026,0.0402696040390102,-0.0535025650214564,1.16826871492265,-0.000334189339782429,0
0.4,0.0011589969743024,0.000668155418695107,-0.0580102354699811,-0.0334508826490193,-0.000804616031183522,0.0010687837444199,0.0402694730210799,-0.0535025093980239,1.16826871386419,-0.000334072128764152,0
0.41,0.00115899557731854,0.000668155418504331,-0.0580101543762437,-0.0334508827321194,-0.000804614745427843,0.00106878319736077,0.0402693983511651,-0.0535024777253242,1.16826871339428,-0.000334020040977829,0
0.42,0.00115899499524193,0.000668155418419715,-0.0580101024043389,-0.033450882813595,-0.000804614209684754,0.00106878296942496,0.0402693504901075,-0.05350245744894,1.1682687131858,-0.00033399689351683,0
0.43,0.00115899464599597,0.000668155418382154,-0.0580100569229106,-0.0334508828946065,-0.00080461388826896,0.00106878283264911,0.0402693086071739,-0.0535024397100562,1.16826871309367,-0.000333986606942379,0
0.44,0.00115899452958065,0.000668155418365744,-0.0580100207984995,-0.0334508829751537,-0.000804613781121446,0.00106878278706144,0.0402692753363318,-0.0535024256342315,1.16826871305319,-0.000333982035656898,0
0.45,0.00115899452958065,0.000668155418358542,-0.058009989478567,-0.0334508830554689,-0.000804613781105469,0.00106878278706897,0.0402692464872798,-0.053502413439403,1.1682687130356,-0.000333980004209446,0
0.46,0.00115899452958065,0.000668155418355618,-0.0580099576885054,-0.0334508831357841,-0.000804613781098675,0.00106878278707225,0.040269217206218,-0.0535024010599946,1.16826871302817,-0.000333979101449328,0
0.47,0.00115899452958065,0.00066815541835446,-0.0580099256899302,-0.0334508832160993,-0.00080461378109599,0.00106878278707355,0.0402691877335486,-0.0535023885987211,1.16826871302523,-0.000333978700267345,0
0.48,0.00115899452958065,0.000668155418354168,-0.0580098936079289,-0.0334508832964145,-0.000804613781095188,0.00106878278707397,0.0402691581842322,-0.0535023761046821,1.16826871302438,-0.000333978521982706,0
0.49,0.00115899452958065,0.000668155418353731,-0.0580098614652627,-0.0334508833767297,-0.00080461378109558,0.00106878278707341,0.0402691285791566,-0.053502363586835,1.16826871302458,-0.00033397844275238,0
0.5,0.00115899452958065,0.000668155418353957,-0.0580098293187795,-0.0334508834570449,-0.000804613781095949,0.00106878278707327,0.040269098970581,-0.0535023510674838,1.16826871302501,-0.000333978407551755,0
0.51,4.6190719357919,-0.0566183456543327,9.04783272462953,2.86762112308962,-1.90845021482798,4.20676228976727,-1.01094071940585,9.43740042492179,0.413638568194432,126.971379027162,1974.60713002216
0.52,4.51236530314969,0.00168631747059411,14.3855264336895,-0.044144519250703,-4.28916938494674,-1.40159532675141,-13.65857334283,-4.51538412003805,1.88700694589124,278.417041406397,1974.60713002216
0.53,4.29313622048364,0.0485825700050788,25.3498950827615,-2.31484555375898,4.14319963725191,-1.12573337856372,25.1182732990568,-4.12892687252524,-1.82478197273777,422.337385953377,1974.60713002216
0.54,4.1815516192699,0.0696014217009029,30.9325954092546,-3.41061083564689,-4.07734348572992,-0.930316291321027,-29.2249300108001,-10.6939791887168,1.811766702607,568.697640534491,1974.60713002216
0.55,4.22467327699427,0.149245800370362,28.7803097271598,-7.32162075345134,-0.78933623131521,4.15296122305648,-13.5089236114244,26.4465752283603,0.223138027217568,711.7441892521,1974.60713002216
0.56,4.10663941564904,0.0481944068480545,34.6863091463244,-2.28174260297708,1.33969899309503,3.88226951652173,8.76378150078237,33.6384084835649,-0.320551099079843,854.395561267767,1974.60713002216
0.57,4.03772978572087,0.0904786108160556,38.136236461798,-4.34376468153467,-0.606349871541307,3.99296732202939,-10.8475957820311,36.8180728559818,0.173107637287371,994.878567530376,1974.60713002216
0.58,3.77392962795359,0.161614153258714,48,-7.81055099504635,-3.76478391624939,-0.30832780482693,-46.6583899165563,-13.7112857617663,1.69530952167007,1134.35422044802,1974.60713002216
0.59,3.87011406673358,0.185687665266627,46.5253020083337,-8.9901365185718,3.35805395280906,-1.93280533126974,45.4951468508043,-13.2520901978885,-2.0451180290459,1272.64357926229,1974.60713002216
0.6,3.31529168080009,0.131881494766311,48,-6.28447725322227,-3.29823969846899,0.36078601537098,-48.319643929263,-2.95070583005302,1.50160086462461,1405.73466299241,1974.60713002216
0.61,2.47189338769932,0.0786131960546486,48,-3.86389347343945,0.922232918221241,2.29475998729599,12.8452133239984,46.4104532129892,-0.350339447680503,1513.2352591648,1974.60713002216
0.62,1.85259861288889,0.138676547653301,48,-6.69768507947631,1.85770412764326,-0.0169758500248049,47.4579197467031,9.82877605499939,-1.50521834633823,1596.96799628886,1974.60713002216
0.63,1.39855878238763,0.140453998204098,48,-6.88779337861185,1.12596845200798,-0.841361419657359,44.6805071451857,-18.8439374567913,-2.11243249540514,1663.25432594127,1974.60713002216
0.64,1.00673292504477,0.107995593920315,48,-5.33479345731126,0.688097149533139,-0.742762777392466,39.694810362181,-27.5096719635596,-2.28751599245183,1715.51320139959,1974.60713002216
0.65,0.713691143115856,0.134696757767224,48,-6.6864864308459,0.53751028135304,-0.488447501533988,44.3952547490358,-19.4363179784162,-2.12187106829076,1756.62876016394,1974.60713002216
0.66,0.532265452656729,0.215516453614642,48,-10.6974316209723,0.503302716322497,-0.276478262460001,48.9235896121759,4.9917354441888,-1.6883965715918,1788.91708705371,1974.60713002216
0.67,0.27271351502387,0.183128047544861,48,-9.03586951293648,0.108928761370264,-0.309908160622801,43.8655979699623,-21.481532826883,-2.2122498935607,1814.58381697982,1974.60713002216
0.68,0.0246762757165155,0.0111861876455723,48,-0.585824804353774,0.0262097885945906,-0.00686267871215871,47.2131111662884,8.67555904256845,-1.40127447169814,1834.50131113574,1974.60713002216
0.69,0.00494226134059373,-0.0714659362317405,48,3.45832141251692,-0.0618933230855388,0.0360696901299004,24.3506687222807,41.5090944224277,-0.458609907118286,1850.47884104206,1974.60713002216
0.7,0.0202482968267979,-0.0274186365588499,48,1.39580186819257,-0.034045542232165,0.00163591236020797,-25.4673003697986,40.7107464280589,0.588077970230759,1863.14904039944,1974.60713002216
0.71,-0.20189600990282,0.0563729298405292,48,-2.7170848176215,0.191505163958181,0.0852389477342088,-47.0893071833906,-9.6943127087187,1.71728485782108,1873.31336112148,1974.60713002216
0.72,-0.202772421778692,0.0396346839150287,48,-2.13790488411335,0.00739236985487416,0.206477398450699,-8.80545100635797,-47.2338297184142,2.91277549553236,1881.01837561722,1974.60713002216
0.73,-0.234471390549513,0.107160337798428,48,-5.35429785545739,-0.255809022073296,0.0319674085468238,43.6579132782783,-20.6556315253562,-2.12380200531026,1887.42525731788,1974.60713002216
0.74,-0.35632932207021,0.0236863140898518,48,-1.10228315656517,-0.248036900753122,-0.256922796004878,34.8152456433957,33.062270021087,-0.834178192409265,1892.88120027159,1974.60713002216
0.75,-0.283059015504439,-0.211487311743173,48,10.467327070637,-0.0528355689146971,-0.349367559948196,-13.4290318057751,47.2570210737322,0.491579428181353,1897.10419232986,1974.60713002216
0.76,-0.311525294541315,-0.0063897648925496,48,0.388808772359394,0.301596777923691,0.078282959706968,-46.3087460148272,-12.6353161731588,1.84526210275532,1900.71365446784,1974.60713002216
0.77,-0.305929960016835,0.0901349470094626,48,-4.69282631560379,0.229194905898114,0.221781749065732,-40.3442856672079,-26.4265251751181,2.05323862847659,1903.27360518229,1974.60713002216
0.78,-0.339475624004603,0.0554667608398563,48,-2.80204252872671,-0.155521915523878,0.306811333954866,17.185266275413,-44.9056573871928,-2.83440065960196,1905.82219453511,1974.60713002216
0.79,-0.45046819109652,0.0602381061760341,48,-2.93854775005115,-0.436608369613502,-0.126187765686239,47.0377775931743,10.0041262474243,-1.42237947356643,1907.95421485102,1974.60713002216
0.8,-0.384582496161496,-0.197034055942778,48,9.74309414146127,-0.195758955975235,-0.385233106976224,9.58402953429078,48.0320128803199,0.00331273826158371,1909.51906274449,1974.60713002216
0.81,-0.364288296470054,0.0745245055988918,48,-3.65294327376816,0.370871079909932,0.026730263116067,-48.0689287598517,2.59269790790715,1.44095488286192,1911.3606893236,1974.60713002216
0.82,-0.297885673173182,0.0810015952469978,48,-4.22708806635134,-0.00403894676372187,0.308675913578365,-7.89468046443044,-47.5346430920148,2.88917451014376,1912.15632703165,1974.60713002216
0.83,-0.389455183094605,0.144727247595392,48,-7.22927883438926,-0.415451242575307,0.00464552240592106,47.3977718600842,-10.4744305413114,-1.93777711726347,1913.62016016572,1974.60713002216
0.84,-0.504326871778801,-0.0491902600085621,48,2.26900682800213,-0.273356164062867,-0.426663430407078,23.8687354845566,41.7064965964991,-0.472568919003927,1914.75405853455,1974.60713002216
0.85,-0.311599716542318,-0.0840565935948007,48,4.15621983973731,0.216869106512645,-0.239013984771648,-38.1552034750714,29.4186099456131,1.00034702761757,1915.73342746854,1974.60713002216
0.86,-0.417409517627324,0.000322647663156761,48,0.0689212328564644,0.403535357420872,-0.106724059230329,-46.3773535395972,12.375210252741,1.31147044548964,1916.51739299317,1974.60713002216
0.87,-0.333873887170601,0.024599744621089,48,-1.35619213978612,0.0900749425496541,0.322433597341385,-15.0010361177646,-45.6158763207892,2.79563097499739,1916.97159363702,1974.60713002216
0.88,-0.431557996142079,0.26416313294968,48,-13.1532763048516,-0.502164836848043,-0.0620881750201693,49.1433248785194,-7.87034290460524,-1.99705963765555,1918.2135686856,1974.60713002216
0.89,-0.497207310264586,-0.188494759251342,48,9.25065629846586,-0.403907858076132,-0.345837860608287,31.1430885126418,37.6786767263143,-0.500330327608693,1918.72607104479,1974.60713002216
0.9,-0.330873023812961,-0.022455423716155,48,1.16174036624068,0.266518362346465,-0.197355431831918,-39.7943683211621,26.8655521178747,1.00116970730714,1919.61873379024,1974.60713002216
0.91,-0.394792467380324,0.0453879232654475,48,-2.4628271418054,0.197335880244809,0.344934350632988,-26.4542175717069,-40.1277944846114,2.50747884943302,1919.975093829,1974.60713002216
0.92,-0.293347758306312,0.0805410945361714,48,-4.05178293016761,-0.277058644554158,0.125611634374511,39.4995558605655,-27.5717614912661,-2.26440949449629,1920.89233130468,1974.60713002216
0.93,-0.522107156357052,0.00322135178361784,48,-0.172275578416636,-0.352448560970237,-0.385209386823024,32.4932903550114,35.3300970955337,-0.747185208493176,1921.65887690374,1974.60713002216
0.94,-0.403638006756266,-0.113888068665154,48,5.61127595444321,0.200644809565531,-0.368287649910857,-29.5336118884088,38.252479483842,0.773850645083658,1921.94876390954,1974.60713002216
0.95,-0.442857190422315,-0.0316736837332323,48,1.66991523686235,0.35165262329188,0.271046390645436,-36.9413846325991,-30.6940176308785,2.29886342297764,1922.7578833727,1974.60713002216
0.96,-0.358425165634193,0.0619733913535579,48,-3.2418231847592,0.111300894152071,0.346296710288604,-19.38627127575,-44.0304656298826,2.65940541213295,1922.94607511123,1974.60713002216
0.97,-0.460410347589359,0.104135865660448,48,-5.14704887027693,-0.451192182828237,0.13873565092973,44.1982557189126,-19.4166501611021,-2.09154535701577,1923.75502100962,1974.60713002216
0.98,-0.433362991916436,-0.174303404721016,48,8.54534266621075,-0.376639576884609,-0.276274842836415,32.5745212695938,36.2756591303279,-0.555511310027476,1923.96649350684,1974.60713002216
0.99,-0.352768044861407,0.0321945573087753,48,-1.57112143411825,0.311706457134758,-0.168288049415712,-40.8590024796139,25.2390637491102,0.984735553629111,1924.87385348657,1974.60713002216
1,-0.364254454584093,0.0769341955492929,48,-4.04073919628184,0.14631667159536,0.342332601051123,-24.2714901631102,-41.6079600378872,2.5295309224685,1925.25203123804,1974.60713002216
1.01,-0.350766473385228,0.141978983331453,48,-7.11397890264011,-0.366696626311749,0.0934276983047563,42.8841086066674,-22.7059887439142,-2.20488040683665,1925.82057768376,1974.60713002216
