t,iq,id,vq,vd,ia,ib,va,vb,theta_e,omega,r
0,0,0,0,0,0,0,0,0,0,0,0
0.01,0.000979610233597437,0.000539229166916479,-0.0468913758612172,-0.0269880079172597,0.00100397940611667,0.00049237146171958,-0.0490210824125265,-0.0228929504565117,-0.611651381844308,-0.00719448030468842,0
0.02,0.00110273045927385,0.000606912968851353,-0.0532390895293323,-0.0303755404831119,0.0011301191251884,0.000554245956641708,-0.0554408026105354,-0.0261417581553553,-0.61170335364492,-0.00706709331401723,0
0.03,0.00114624355631111,0.000633845287443297,-0.0555538567057134,-0.0317234605385972,0.00117718340615226,0.000574346034267315,-0.0578749012581584,-0.0272599476848598,-0.611751440494184,-0.00636926651393253,0
0.04,0.00111275423098374,0.000619615416038542,-0.0542024981704756,-0.0310112842733487,0.0011463232061475,0.000555057068608767,-0.0565168466151858,-0.0265604331455347,-0.611791041908789,-0.00522351860924793,0
0.05,0.00113478775176163,0.000634724090720599,-0.0554329413057344,-0.0317674604145324,0.00117136569996497,0.000564376035843913,-0.0578434966716841,-0.0271313917038317,-0.611825783104598,-0.00464190158256607,0
0.06,0.00113169876776737,0.000635784615789663,-0.0554551330821152,-0.0318205195838757,0.00117047637958383,0.000561203370871317,-0.0579004855317863,-0.0271173565622892,-0.611855595183407,-0.0039616053106638,0
0.07,0.00115461363469867,0.000651274683425429,-0.0566698673836389,-0.032595795727917,0.00119633234966647,0.000571034384117505,-0.0592335223338328,-0.0276649525635351,-0.611880188125389,-0.00361016575067874,0
0.08,0.00112568311482219,0.000636942724961424,-0.0554327163760573,-0.0318784903106775,0.00116799484978525,0.000555559664439568,-0.0579363191897367,-0.0270630210446158,-0.611901989974349,-0.00289294795602464,0
0.09,0.00112031339013648,0.000635924602038452,-0.0552806158036659,-0.0318275252848127,0.00116408680628483,0.000551728283696276,-0.0578077126296878,-0.0269667612054422,-0.611919850355861,-0.00245639486060874,0
0.1,0.00111738528961859,0.000635848653044988,-0.0552271637309237,-0.0318237299736941,0.00116235085821939,0.000549357695342296,-0.0577743047209699,-0.0269243220380637,-0.611934845461864,-0.00210289405519985,0
0.11,0.00111505398507553,0.000635839947586558,-0.0551884249741925,-0.0318232918730881,0.0011610114185071,0.000547439781780461,-0.0577520319579138,-0.0268921356813463,-0.611947466306366,-0.00180646008003183,0
0.12,0.00111310193708497,0.00063583652118236,-0.0551563001068318,-0.0318231416243833,0.00115989303491521,0.00054583161466406,-0.0577337398908291,-0.0268653133713073,-0.611958091456629,-0.0015569921429558,0
0.13,0.0011645516936809,0.000665153459921287,-0.0576321479762249,-0.0332904234599933,0.00121345200364881,0.000571090191949565,-0.0603573406953425,-0.0280483189992825,-0.611968458798693,-0.00175308718539524,0
0.14,0.0012047669871044,0.000689708125071612,-0.0598566128342205,-0.0345193608236795,0.00125665857611471,0.000589889832158301,-0.0626414183895735,-0.0291625285907027,-0.61197734996768,-0.00188906433062953,0
0.15,0.00111612294822558,0.000639638421959016,-0.055449978930362,-0.0320134175936027,0.00116475523962004,0.000546088800635622,-0.0580589256941508,-0.0269948183294694,-0.611985138873421,-0.000987754890049655,0
0.16,0.00110792077497235,0.000636096665433748,-0.0550915885456395,-0.0318361464028089,0.00115714679817839,0.000541404376466211,-0.0577080640584064,-0.0268030350687004,-0.61198996623304,-0.000814150645750018,0
0.17,0.00110658770337726,0.000635845183874667,-0.0550508946111616,-0.0318235633041504,0.00115617723079747,0.00054045319326271,-0.0576744910906834,-0.0267767297535225,-0.611993885238314,-0.000717084448554914,0
0.18,0.00110593289036135,0.000635826528229156,-0.0550385262190777,-0.0318226233998882,0.00115578754545711,0.000539924144439924,-0.0576667041156333,-0.0267669565856713,-0.611997172459684,-0.000639482794055152,0
0.19,0.00110542050066439,0.00063582447401946,-0.0550299255101974,-0.0318225356763475,0.00115549298703959,0.00053950273581656,-0.0576617652087715,-0.0267598077634873,-0.611999938937903,-0.000574495693730858,0
0.2,0.00110499293210717,0.000635823709797793,-0.0550228558702452,-0.0318224764965395,0.00115524797669626,0.000539150519138242,-0.0576577175326935,-0.0267539209726485,-0.612002267939836,-0.000519812273471668,0
0.21,0.00110463281377229,0.000635823134549273,-0.0550168866630409,-0.0318224491661235,0.0011550416717547,0.000538853828232342,-0.0576543182573006,-0.0267489378351795,-0.612004228710272,-0.000473776936091807,0
0.22,0.00110432985536585,0.000635822654993389,-0.0550118634703598,-0.0318224244692429,0.0011548681159971,0.000538604226411664,-0.0576514563225549,-0.0267447453805551,-0.61200587947516,-0.000435020160630289,0
0.23,0.00110407455656045,0.000635822251539011,-0.055007613607754,-0.0318224229518715,0.00115472186219249,0.000538393892026085,-0.0576490506544505,-0.0267411876323465,-0.612007269247462,-0.000402390992596331,0
0.24,0.00110385995738256,0.000635821911854426,-0.055004043530352,-0.0318223978191149,0.00115459892419218,0.000538217087578159,-0.0576470103175749,-0.0267382125261259,-0.612008439291723,-0.000374920618806925,0
0.25,0.00110367881513675,0.000635821625847447,-0.055001005379392,-0.0318223959247362,0.00115449515163643,0.000538067850484428,-0.0576452896474289,-0.0267356701168794,-0.612009424347326,-0.000351793413394745,0
0.26,0.00111492665590755,0.000642106845090248,-0.0555330171758591,-0.0321369494513255,0.00116610194701642,0.00054366248512239,-0.0582084149050004,-0.0269903677436717,-0.612010047952603,-0.000430749185839681,0
0.27,0.00108261397388443,0.000623749518718013,-0.0540225147608642,-0.0312181753231704,0.00113251323963279,0.000527759642836814,-0.0565886359549157,-0.026281796977338,-0.612011474607331,-0.000133228371446061,0
0.28,0.00108146859450688,0.000622930723627404,-0.0537017752253141,-0.031177203364903,0.00113118532253557,0.000527291924292173,-0.0563708457657892,-0.0260427805669112,-0.612012042506573,-0.000111320582407362,0
0.29,0.00110137849458718,0.000634909381287205,-0.0549072964785012,-0.0317767242510522,0.00115242831577729,0.000536706146583337,-0.0575541400355585,-0.0266850590307153,-0.612012026816682,-0.000275676116561228,0
0.3,0.00109203082921821,0.000630169320852316,-0.054457585463387,-0.031539489827291,0.00114317723755356,0.000531780507771675,-0.0571015499585056,-0.0264533745560786,-0.612010164674608,-0.000239576255309587,0
0.31,0.00110248861403826,0.000635421598873705,-0.0549516850962975,-0.0318023688954879,0.00115348460287656,0.000537322085276527,-0.057600595154595,-0.0267067369800916,-0.612010648561716,-0.000315095125503662,0
0.32,0.00110326002054953,0.000635792829629316,-0.0549913412475373,-0.0318209580061427,0.00115423196887922,0.000537739488198704,-0.0576386097476526,-0.0267284800725669,-0.61201126516067,-0.000307906551403806,0
0.33,0.00110323587955997,0.000635818936994887,-0.0549931645017464,-0.0318222443932933,0.00115423975681516,0.000537704110433467,-0.0576407244791931,-0.0267292024133975,-0.61201180182331,-0.000295918100750387,0
0.34,0.00110315881281152,0.000635820662480416,-0.0549920316586733,-0.0318223380004045,0.00115419713679539,0.0005376395172735,-0.0576401623759213,-0.0267281952820975,-0.612012255109397,-0.000285327086188605,0
0.35,0.00110308919646158,0.000635820682927777,-0.054990847308042,-0.0318223442638516,0.00115415736306804,0.000537582084397197,-0.0576394972774863,-0.0267272002967413,-0.612012636852727,-0.000276368776632781,0
0.36,0.00110303017389374,0.000635820598862385,-0.0549898218789625,-0.031822344651753,0.00115412355761682,0.000537533452179175,-0.0576389170594276,-0.0267263422419043,-0.612012958251289,-0.000268823304898458,0
0.37,0.00110298076805589,0.000635820520924331,-0.0549889640314708,-0.0318223186936396,0.00115409525480747,0.000537492746332935,-0.0576384101971476,-0.0267256394168466,-0.612013228836084,-0.000262470506353601,0
0.38,0.00110293897495559,0.000635820454800245,-0.0549882229797095,-0.0318223189927442,0.00115407131229771,0.000537458314057858,-0.0576379907836247,-0.0267250195691044,-0.612013456640526,-0.000257122084231118,0
0.39,0.00110290370111327,0.000635820399094106,-0.0549875857744066,-0.0318223192577135,0.00115405110436607,0.00053742925333945,-0.0576376300408841,-0.026724486814675,-0.612013648428006,-0.000252619265471766,0
0.4,0.00110287401520636,0.000635820352192077,-0.0549870409308169,-0.0318223194933792,0.0011540340976976,0.000537404796247985,-0.0576373215269908,-0.0267240314223045,-0.612013809893176,-0.000248828358930447,0
0.41,0.00110284898591231,0.000635820312704492,-0.0549865714926454,-0.0318223197046639,0.00115401975867467,0.000537384175766191,-0.0576370556324741,-0.0267236392342196,-0.612013945829632,-0.000245636808802601,0
0.42,0.00110282803115449,0.000635820279460027,-0.0549861732109369,-0.03182231989462,0.00115400775409787,0.000537366911481072,-0.0576368300266636,-0.0267233065382293,-0.61201406027405,-0.000242949854621207,0
0.43,0.00110281033602567,0.000635820251470766,-0.0549858263051103,-0.0318223200675141,0.00115399761680851,0.000537352333042001,-0.0576366334396107,-0.0267230169457534,-0.612014156624318,-0.00024068771789013,0
0.44,0.00110279543486456,0.000635820227907072,-0.0549855251237103,-0.0318223202257886,0.00115398908013574,0.000537340056483209,-0.0576364627029258,-0.0267227656648231,-0.612014237740998,-0.000238783233387443,0
0.45,0.00110278286200987,0.000635820208068694,-0.0549852612511682,-0.0318223203718691,0.00115398187727118,0.000537329698286712,-0.0576363130480842,-0.0267225456671392,-0.612014306032509,-0.000237179854969323,0
0.46,0.00110277238462487,0.00063582019136666,-0.0549850355926729,-0.0318223175965813,0.00115397587505455,0.000537321065874805,-0.057636182668207,-0.026722359248058,-0.612014363526999,-0.000235829976644355,0
0.47,0.00110276330422982,0.000635820177305352,-0.0549848237119468,-0.0318223177243651,0.00115397067270901,0.000537313585862115,-0.0576360623371031,-0.0267221829620611,-0.612014411931079,-0.000234693519104677,0
0.48,0.00110275585364926,0.000635820165467185,-0.0549846460891289,-0.0318223178436139,0.00115396640442721,0.000537307447394654,-0.0576359614762591,-0.0267220351619019,-0.612014452682173,-0.000233736739728399,0
0.49,0.00110274956722192,0.000635820155500776,-0.054984486960045,-0.0318223179567632,0.00115396280304135,0.00053730226813789,-0.0576358710632089,-0.0267219028735951,-0.612014486990047,-0.000232931230730779,0
0.5,0.00110274421211714,0.000635820147109836,-0.0549843409283507,-0.031822318065027,0.00115395973509138,0.000537297856515776,-0.0576357880258889,-0.026721781620836,-0.612014515873821,-0.00023225307570247,0
0.51,4.61875786449116,0.0151708862972635,9.06316903306593,-0.742676419682408,-1.33769820963023,4.42082773545205,-3.36350232213002,8.44863618078702,0.297115845740895,91.1813781522657,4502.80825416265
0.52,4.70840748491102,-0.0207639960193091,4.58192257353495,1.07854210645523,-4.5959668058587,1.02304511481255,-4.22904086927933,2.06699803367859,1.34736099972858,196.577915385491,4502.80825416265
0.53,4.57665898127971,0.0532616872010943,11.1707639426965,-2.61680350340718,0.247441624376746,-4.57027536159229,3.34483292977611,-10.9747765494691,-3.07586679569688,309.510979121987,4502.80825416265
0.54,4.55979496513575,0.00373464345732175,12.0155744668344,-0.107288330146237,1.89884302163098,4.14561687217263,4.89713547985385,10.9728576335331,-0.428697747725655,414.550904187813,4502.80825416265
0.55,4.59410120066537,0.0683124601618132,10.3020033679376,-3.31858133839286,-0.670674003109601,-4.54539644208525,1.93778990879729,-10.6484377146082,3.00996799472751,521.235054195693,4502.80825416265
0.56,4.55013823994132,0.0955540485089887,12.5020042996651,-4.66207853789666,-3.64203735458911,2.72918531553655,-12.8766561340244,3.49668623248555,0.948704183522537,628.515759008238,4502.80825416265
0.57,4.5438497616428,0.0764612176874228,12.8185020697506,-3.71662562886299,1.54485858084128,4.2738541083421,0.63803592224038,13.3311744246054,-0.330028122936173,736.503364798696,4502.80825416265
0.58,4.52018385411715,0.103124127071024,14.0040003650365,-5.0162007825763,3.40070629062553,2.97957939741593,6.92889967656565,13.1630029167797,-0.828496768995349,841.927263556941,4502.80825416265
0.59,4.45891689723805,0.106325105982974,17.0696063004898,-5.18292078350025,2.42368813694846,3.74419293566085,4.51467199881172,17.2583853197483,-0.550647389717568,948.734339406198,4502.80825416265
0.6,4.38485158413986,0.0834542294503078,20.775376265305,-4.00097294103574,-2.04158933918729,3.88146892213035,-13.5243454139531,16.270099095088,0.503247929395051,1053.52195065391,4502.80825416265
0.61,4.43104177446251,0.109639619307786,18.4685147982965,-5.30038510770703,-3.29280409188659,-2.96708497782061,-9.76571146868479,-16.547235438444,2.3289471256739,1158.72186130493,4502.80825416265
0.62,4.43123164090741,0.1076371797885,18.4617266057252,-5.20356918232342,4.35446350137218,0.828279682878512,16.9512129107939,8.97601595100535,-1.35854209454322,1264.19108517138,4502.80825416265
0.63,4.39830647096339,0.114647536338738,20.110811934591,-5.5032628081791,-4.03649455919724,-1.7507014433301,-15.9148245853553,-13.4703012817734,2.00608858271885,1368.16725284045,4502.80825416265
0.64,4.37121910389475,0.115587527167215,21.4681650430171,-5.5761452022507,0.75414047938512,4.30722521677748,-2.37388392528996,22.0531217912579,-0.146893683697924,1473.17803818985,4502.80825416265
0.65,4.29571077091348,0.162936739733945,25.2466013675333,-7.88718943851578,4.29879090053581,-0.00872937384510705,24.9474093880236,8.78779851137494,-1.53491505602317,1576.93837255712,4502.80825416265
0.66,4.34801629370835,0.18742175992482,22.6344888445966,-9.07807505651008,3.51135295013807,-2.57114236595395,23.8638582007351,-5.02471927205942,-2.15975336972588,1680.79558058632,4502.80825416265
0.67,4.29877847894808,0.146417201175639,25.0996903332958,-7.08360416893194,3.80146383429565,-2.01241325885354,25.6691360353164,-4.61165458917649,-2.02362255764138,1784.8047408422,4502.80825416265
0.68,4.31284388729707,0.122121986268472,24.3997676240505,-5.82239565335765,3.95062206323494,1.734393694986,19.5645063055662,15.6996510875675,-1.12880425803718,1888.16893420956,4502.80825416265
0.69,4.28911521733472,0.152619693594948,25.5896604082663,-7.30411741760006,-2.01262314465676,3.7906661942246,-19.1215438309989,18.5080364323087,0.52366157822436,1991.25685409174,4502.80825416265
0.7,4.30150771966966,0.181286316903758,24.9735625536139,-8.71355542457739,-1.07010069714731,-4.17021796661026,3.34064994373728,-26.2382341766716,2.93252672011798,2094.16191609254,4502.80825416265
0.71,4.23041289169795,0.205845078539378,28.5319900530415,-9.94550578826811,-1.55389896817977,3.94007150027673,-20.8091999831295,21.9080975402579,0.424275203180888,2196.99506160003,4502.80825416265
0.72,4.31439943655882,0.229365976397967,24.3363794910633,-11.0844825322361,3.93557159423147,-1.78267424842185,26.7011074012956,1.47512144753208,-1.94299990491571,2299.56974354576,4502.80825416265
0.73,4.20285833516996,0.172225734004276,29.9171534884259,-8.23486963823203,-1.85594453862385,-3.77480459871941,-4.55722512355445,-30.6933355955646,2.72558945841135,2402.4134188092,4502.80825416265
0.74,4.20271393217013,0.208129333814561,29.9282585467781,-10.045563111356,-4.08519914673256,-1.00859810964852,-25.7781235270117,-18.2236754057231,1.86232873358893,2504.77776582363,4502.80825416265
0.75,4.11262626856824,0.260536365016802,34.4366723132971,-12.7074942506664,-4.09461578004935,-0.464430442784019,-31.6758485562332,-18.5473833299122,1.74700412704865,2606.81196297937,4502.80825416265
0.76,4.07700582064664,0.253010553084634,36.2216930244634,-12.2120933695834,-2.99867799276648,-2.77379182658987,-16.1838527107109,-34.6298885569085,2.37923423664026,2708.53488150388,4502.80825416265
0.77,4.09044634462592,0.229301919892855,35.5538166009258,-11.0290457057559,2.17701290013117,-3.47058287631812,29.5492584781055,-22.6396786078343,-2.52535911844677,2810.23175700404,4502.80825416265
0.78,4.12778459787942,0.241774493861074,33.6910817238573,-11.7273933190522,1.83711166268354,3.70433277814028,2.38539526701434,35.5939690285235,-0.401885443537504,2912.06739616651,4502.80825416265
0.79,4.14739232750826,0.194619985315857,32.7148928938543,-9.27237913348407,-2.74562778391642,-3.11452534572203,-13.2244737058214,-31.3265786043651,2.4659531627594,3013.32373863657,4502.80825416265
0.8,4.07310301608612,0.193247787040641,36.4336990044434,-9.28196774937906,-1.42821503386069,3.81938669211436,-22.8940622711172,29.8233341726424,0.405248860033506,3114.79221637798,4502.80825416265
0.81,4.04510781262813,0.273825616654361,37.8378638327033,-13.1754443290579,4.05334905306217,-0.0907696984750217,37.2038923286844,14.8716733519116,-1.52559641910865,3215.54210482669,4502.80825416265
0.82,3.97745031139924,0.286696460390638,41.2251795932488,-13.8108600062338,1.38073733632024,-3.7411054847654,29.5967739669223,-31.8478611112005,-2.71607320595295,3316.44247502074,4502.80825416265
0.83,3.97173615028342,0.283878005005739,41.5154168887395,-13.7396786186929,-0.387282632938965,-3.96298964563599,12.6531460019992,-41.8593657888279,3.11553031005576,3417.28175813341,4502.80825416265
0.84,4.01165136016557,0.271532714866412,39.5241856232612,-13.136506014737,0.770193943609268,-3.94637529132603,22.8672045301827,-34.811205041366,-2.88126758271948,3517.97013066186,4502.80825416265
0.85,3.95435879814998,0.348029466592523,42.3933388468971,-16.8397820366126,3.6927819479307,-1.45651622001266,45.430015085341,4.10939983138002,-1.85869986168112,3618.02448555303,4502.80825416265
0.86,3.71374446640645,0.213086812500678,39.6775108164056,-10.178110778384,0.598404241261843,3.67140522354399,-5.99376918478356,40.5212726177569,-0.104254721681944,3716.19182230444,4502.80825416265
0.87,3.26858176724689,0.216857653807601,39.9454212839605,-10.4654322704875,-0.856721387934511,-3.16175306984105,2.38845440227754,-41.2244737956652,2.94323150892583,3803.92759518758,4502.80825416265
0.88,2.90768411330989,0.220187735840825,38.408115640301,-10.677977693759,1.0622152965247,2.71565981036623,1.04040949087909,39.8512246080147,-0.297267158501743,3881.93555615429,4502.80825416265
0.89,2.56604689613512,0.210760102819699,38.0993090264621,-10.2103584899706,0.158407930713994,-2.56980999717725,15.5544325884872,-36.2473225995766,-2.99807845598676,3951.2447673818,4502.80825416265
0.9,2.15364161003754,0.16746905968439,43.2274396199663,-8.02915365163896,-1.80154306402597,1.19191470286114,-41.6898327234741,13.9655537644665,1.06390899968816,4012.817075599,4502.80825416265
0.91,1.78031726913996,0.115589822069172,48,-5.64125900103908,1.27418344989555,1.24873821186677,27.8316272188366,39.5123313595708,-0.730647916798026,4067.85726335181,4502.80825416265
0.92,1.62188323289701,0.165034241435651,43.7860762204716,-8.03405243885944,1.27215403060254,-1.01949283686566,41.1280700090401,-17.0366759289125,-2.1449792110243,4116.69487088762,4502.80825416265
0.93,1.41777469013138,0.0655546777295853,43.0203421056,-3.19183761316595,0.662955610503917,-1.25493918029948,24.5808235324183,-35.450257780442,-2.60937529809109,4160.29021824529,4502.80825416265
0.94,1.26577174531173,0.140245226228198,40.9206578104018,-6.80153902939886,-0.440244443886543,-1.19500278842199,-3.22903863386825,-41.3561903263033,2.89896492313608,4198.94614726825,4502.80825416265
0.95,1.05607726568697,0.0479396313922437,42.7331501687017,-2.31661198586932,-0.754395115196395,-0.740598008049379,-27.4093453529869,-32.8666487758424,2.3923287908584,4233.47448629921,4502.80825416265
0.96,0.886595337711952,0.0241225597520072,43.5355684246618,-1.20351933632059,-0.767175822806777,-0.445055555680753,-36.4175186587119,-23.8863666469741,2.12367276132819,4264.00797852753,4502.80825416265
0.97,0.734717062922977,0.100694144351096,44.2840335475545,-4.88398051304123,-0.694228022939074,-0.26076028344606,-36.635592306303,-25.3527566402364,2.06630636990401,4291.23943895872,4502.80825416265
0.98,0.716482972282376,0.120781155353769,39.0676059328928,-5.90211876615221,-0.347712250761412,-0.637990695645016,-7.15367183687094,-38.8579183501629,2.80959237896325,4315.55520441416,4502.80825416265
