t,iq,id,vq,vd,ia,ib,va,vb,theta_e,omega,r
0,0,0,0,0,0,0,0,0,0,0,0
0.01,0.00112158635158694,0.000639410051698073,-0.0553353898193032,-0.0320176561512196,0.00115775991634105,0.000571308265643516,-0.0575105469789108,-0.0279226191117249,-0.594254607708709,-0.00270794633531685,0
0.02,0.00124002822693957,0.000707313568371597,-0.061291543433095,-0.035417830081356,0.00128034969342501,0.000631400942473115,-0.0636632345279876,-0.0309526824930768,-0.594274644227533,-0.00287695293257012,0
0.03,0.00128195666504622,0.000731322915583588,-0.0633685065974377,-0.0366200641035076,0.00132373211033716,0.000652670972218338,-0.0658229111256536,-0.0319990795848696,-0.594295009231531,-0.00285213791731829,0
0.04,0.00125701656410018,0.000717600803890237,-0.0621650233608842,-0.0359329490455499,0.00129841021869492,0.000639665897289155,-0.064580337825141,-0.0313854571889598,-0.594313853965569,-0.00266946043991148,0
0.05,0.00128120311317208,0.00073154003985216,-0.063370219749166,-0.0366309433317166,0.00132351450872117,0.000651875442330271,-0.0658340834105016,-0.031991939952559,-0.594332490211748,-0.00261121359743172,0
0.06,0.00128121476272964,0.000731842637493155,-0.0633892196432548,-0.0366460854196969,0.00132378339892903,0.000651691972491007,-0.0658578404804064,-0.0319980247956943,-0.594350378749767,-0.00249715763076,0
0.07,0.00131675621054515,0.000752417025322181,-0.0651493311367971,-0.0376763341976432,0.0013607430199585,0.000669594453111826,-0.0676975808773507,-0.0328782458397509,-0.594367279675949,-0.00247843098836826,0
0.08,0.00128101594269496,0.000732294166480897,-0.0634137357564186,-0.0366687101682926,0.00132406788194029,0.000651230247850002,-0.0658913810099407,-0.0320034700711338,-0.594383728360404,-0.00228397125335675,0
0.09,0.00127971650343071,0.000731846775628242,-0.0633660038220502,-0.0366462993805932,0.00132297963610382,0.000650383667234184,-0.0658465804910254,-0.031975452089174,-0.59439925503366,-0.00218169256732795,0
0.1,0.00127923384670108,0.000731833135371894,-0.0633575767885866,-0.0366456283520391,0.00132270766534831,0.000649971849084807,-0.0658417786208249,-0.0319678714005752,-0.594414060285977,-0.00208606226342773,0
0.11,0.00127879100431901,0.000731829227454147,-0.0633503943778859,-0.0366454375722407,0.00132246559848386,0.000649588478738726,-0.0658380495696683,-0.0319610980968516,-0.594428181110833,-0.00199489661080618,0
0.12,0.00127836911669078,0.000731825700220155,-0.0633435647035799,-0.036645255606089,0.00132223514832876,0.000649223125385649,-0.0658345043339981,-0.0319546551677373,-0.594441649228818,-0.00190794591750427,0
0.13,0.00133951108142684,0.000766876444807551,-0.0663554733362926,-0.0384003698249322,0.00138552481316198,0.000680228205074178,-0.06897580690732,-0.0334660321200335,-0.59445509904293,-0.00197537800997787,0
0.14,0.0014173028691156,0.000812115931896395,-0.0703208516640216,-0.0406656660521558,0.0014665806689459,0.000719319714117067,-0.0730737917026714,-0.035481538022095,-0.59446783811296,-0.00208906438433547,0
0.15,0.00128039111061037,0.000733585064094188,-0.0634822801379074,-0.0367333433748954,0.00132485012166515,0.000649861983436466,-0.0659864003316164,-0.0320177041382012,-0.594480114732648,-0.00166769607627776,0
0.16,0.00127689181370287,0.000731851727862214,-0.0633220818733274,-0.0366465420424309,0.00132146145785936,0.000647919185445634,-0.0658251210058477,-0.0319328755517812,-0.594491197138529,-0.00158824892800776,0
0.17,0.00127648831717077,0.000731810833320752,-0.0633131423566794,-0.0366445123352298,0.00132120842202146,0.000647593873672872,-0.0658187696215486,-0.0319259118095235,-0.594501752813168,-0.00151991872582249,0
0.18,0.00127617143582055,0.000731807357907272,-0.0633079454090048,-0.0366443174942274,0.0013210345758102,0.000647320007573905,-0.0658160187861506,-0.0319210530476103,-0.594511820240199,-0.00145491882485008,0
0.19,0.00127587061958636,0.000731804825787759,-0.063303054889411,-0.0366441967528571,0.00132087020282403,0.000647059539966415,-0.0658134860268129,-0.0319164373167242,-0.594521422314227,-0.00139292737329858,0
0.2,0.00127558377318618,0.000731802427716491,-0.063298390458493,-0.0366440760271444,0.00132071347371459,0.000646811159440197,-0.0658110656710319,-0.0319120381323742,-0.594530580552371,-0.001333801435249,0
0.21,0.00127531019812446,0.000731800140646966,-0.0632939391099158,-0.0366439524046544,0.00132056399205536,0.000646574272746735,-0.0658087486865455,-0.031907844994537,-0.59453931547047,-0.00127740846904289,0
0.22,0.00127504896285047,0.000731797959097202,-0.0632896750453472,-0.0366438621033827,0.00132042124474627,0.000646348085034365,-0.0658065512601482,-0.0319038149512384,-0.594547646635655,-0.00122362214690668,0
0.23,0.00127480030066309,0.000731795878199388,-0.0632856297970052,-0.0366437414062986,0.00132028537102129,0.000646132767306769,-0.0658044388749032,-0.0319000085801618,-0.594555592710101,-0.00117232198230857,0
0.24,0.0012745628141087,0.000731793893318239,-0.0632817524938872,-0.0366436511058582,0.00132015559625473,0.000645927140693032,-0.0658024339725311,-0.0318963485113288,-0.594563171494264,-0.00112339305798359,0
0.25,0.00127433627059199,0.000731792000030765,-0.0632780494601062,-0.0366435608020675,0.00132003179789243,0.000645730992293399,-0.0658005154607429,-0.0318928558901676,-0.594570399965581,-0.00107672576846595,0
0.26,0.00128673523661066,0.000738940138002193,-0.063893041205799,-0.0370014924070731,0.00133290301547964,0.000651988993780932,-0.066441731849122,-0.0322013574832799,-0.594577240560456,-0.00106416882857125,0
0.27,0.00124060018993578,0.000712666935613179,-0.06163775110137,-0.0356858935427195,0.00128530000502767,0.000628479824227355,-0.0640887999013907,-0.0310696167658413,-0.594584033792913,-0.00090523885828011,0
0.28,0.00123118863063711,0.000707156660317645,-0.0610551296865269,-0.0354099667628064,0.00127546731340897,0.000623762069115284,-0.063534057632548,-0.0307411471471989,-0.59459034665533,-0.000841394258248697,0
0.29,0.0012725487921954,0.000731242510249253,-0.0632167243208928,-0.0366160490580268,0.00131859192529029,0.00064452414374703,-0.0657441930466613,-0.0318557744078984,-0.59459612380086,-0.000908191440439084,0
0.3,0.00126774495475379,0.00072867522484216,-0.0629861539207282,-0.0364874993579917,0.00131377737579361,0.000641976526405225,-0.0655086999112697,-0.0317364684717806,-0.594600969815002,-0.000865248399990533,0
0.31,0.00127307805225329,0.000731714057003572,-0.0632532365720945,-0.0366396459021349,0.00131928566186675,0.000644684830547813,-0.0657845216337627,-0.0318721242168794,-0.594606425275323,-0.000843819003046054,0
0.32,0.00127304127057423,0.000731779682331302,-0.0632567706821051,-0.036642940917748,0.00131932278979677,0.000644610701416764,-0.065789397520273,-0.0318728619698561,-0.594611653834859,-0.000810381631611128,0
0.33,0.00127288783574682,0.000731779851649378,-0.0632543352806181,-0.0366429536518817,0.00131924019216405,0.000644476926701936,-0.0657882027421108,-0.0318705093164468,-0.594616641298321,-0.000778189718951567,0
0.34,0.00127273882458834,0.000731778637526767,-0.0632518784602241,-0.0366428936272171,0.00131915877682503,0.000644347896311087,-0.0657869283265316,-0.0318681948576053,-0.594621398240435,-0.000747478879643546,0
0.35,0.00127259679834801,0.000731777449152158,-0.0632495370073534,-0.0366428335890777,0.00131908115291014,0.000644224928336748,-0.0657857115013747,-0.0318659904496833,-0.594625935303264,-0.000718187423322845,0
0.36,0.00127246129136454,0.00073177631498472,-0.063247298279611,-0.0366427735381657,0.00131900708983483,0.000644107607592993,-0.0657845455115088,-0.0318638849496355,-0.594630262649832,-0.000690249898336536,0
0.37,0.0012723320708073,0.000731775233176977,-0.0632451610017417,-0.0366427134744017,0.00131893646202196,0.000643995729368617,-0.0657834299537559,-0.0318618766619705,-0.594634389973974,-0.000663603725716732,0
0.38,0.0012722085543756,0.000731774201328006,-0.0632431059243642,-0.0366426837295426,0.00131886894735685,0.000643888800379022,-0.0657823794665897,-0.031859932039746,-0.594638326521217,-0.000638189215545305,0
0.39,0.00127209097534395,0.000731773217132269,-0.0632411540522683,-0.0366426207281518,0.00131880468040677,0.000643787003441998,-0.0657813534371502,-0.031858103516478,-0.594642081109896,-0.000613949436862059,0
0.4,0.00127197898425139,0.00073177227839132,-0.0632392968896699,-0.0366425606248332,0.00131874346910198,0.000643690039149352,-0.0657803773246418,-0.0318563632461733,-0.594645662150934,-0.000590830090217712,0
0.41,0.00127187188237858,0.000731771383007898,-0.0632375080669518,-0.0366425308337305,0.00131868492553226,0.000643597319252119,-0.0657794593219393,-0.0318546734990647,-0.594649077665363,-0.000568779386035065,0
0.42,0.00127177013583259,0.000731770528980215,-0.0632358189777574,-0.0366424707052514,0.00131862931417381,0.000643509220820596,-0.0657785670227191,-0.0318530937525785,-0.594652335305311,-0.000547747928602516,0
0.43,0.00127167269643061,0.000731769714399884,-0.0632341849599274,-0.0366424408851057,0.00131857605100886,0.000643424866993696,-0.0657777258756813,-0.0318515525553858,-0.594655442367145,-0.000527688605415007,0
0.44,0.00127157968081056,0.000731768937445843,-0.0632326192952858,-0.0366424110504495,0.00131852520442216,0.00064334434618204,-0.0657769184267037,-0.0318500774382012,-0.594658405812108,-0.000508556481644539,0
0.45,0.00127149108897245,0.000731768196381623,-0.0632311289787746,-0.0366423812009143,0.00131847677731213,0.000643267650562791,-0.0657761488067809,-0.0318486737581294,-0.594661232277746,-0.00049030869947999,0
0.46,0.00127140692113202,0.000731767489550007,-0.0632297208788982,-0.0366423181147692,0.00131843077256198,0.000643194772853719,-0.0657753935478355,-0.0318473653992709,-0.594663928095975,-0.000472904382117706,0
0.47,0.0012713263619502,0.000731766815370967,-0.0632283606080605,-0.0366422882402086,0.00131838673602524,0.000643125030565915,-0.0657746886197375,-0.0318460862530711,-0.594666499305679,-0.000456304542198956,0
0.48,0.00127124952805839,0.000731766172336702,-0.0632270601041647,-0.0366422583530382,0.00131834473554657,0.000643058513528614,-0.0657740133738326,-0.0318448644419369,-0.594668951666338,-0.000440471994472474,0
0.49,0.00127117630304125,0.000731765559009341,-0.0632258194019432,-0.0366422284532251,0.00131830470829376,0.000642995118843353,-0.0657733680053036,-0.0318436996328063,-0.594671290672021,-0.000425371272493628,0
0.5,0.00127110633765283,0.000731764974017109,-0.0632246265983023,-0.0366421985422018,0.00131826646088056,0.000642934551052364,-0.0657727460143468,-0.031842581620106,-0.594673521562121,-0.000410968549180885,0
0.51,4.62974610015846,-0.0305501734386721,8.51401268654607,1.53543615582602,-0.627239248300466,4.58716177940359,0.424851094799329,8.64091880314432,0.12929663235229,39.7451941549802,5123.59853319151
0.52,4.63372481742793,-0.00562076560259384,8.31656891227853,0.293926211690537,-2.56082994439088,3.86181139785003,-4.34258203137109,7.09885148396622,0.584327590929978,84.4737517620902,5123.59853319151
0.53,4.62270543265312,0.0644110357730696,8.86912900078139,-3.20511436779414,-4.51698727166694,0.985078822332957,-9.33017942706271,-1.37184518148287,1.37000783258593,130.195121591801,5123.59853319151
0.54,4.60123821445334,0.0126802228611971,9.94417541067434,-0.609752097935782,-2.75838382315924,-3.68278054984695,-5.45038490468268,-8.33976777914136,2.50149094521275,179.272156036421,5123.59853319151
0.55,4.53156675929011,-0.00184478360184182,13.4294734187083,0.119945860321982,3.4257973626078,-2.96631305284507,10.0703505290416,-8.88556039512606,-2.28484197753683,228.094307759507,5123.59853319151
0.56,4.59864824778236,-0.0438529945959925,10.0771771567909,2.23648037724495,1.95390274181848,4.16314218679605,6.38368737655221,8.11171248292234,-0.448350739002762,272.798168881798,5123.59853319151
0.57,4.63959941685767,0.00871383497056383,8.0314353576805,-0.398314162273483,-4.5862202265745,-0.701813873605274,-7.87573225596125,-1.62340676014351,1.72452313324357,321.20258117352,5123.59853319151
0.58,4.49304688720795,0.0852835015411011,15.3609665976634,-4.21959390952836,3.98501297074983,-2.07711704755408,15.6329079070202,-3.06210025088724,-2.03230611556915,367.104402330785,5123.59853319151
0.59,4.58432482949785,-0.0163198431183689,10.7990714985889,0.865394966397538,-3.3929740514948,3.08286028965194,-7.38247834279066,7.92892598008887,0.829689546228426,414.929810872763,5123.59853319151
0.6,4.5941450465726,0.0243300225143799,10.3100175560572,-1.14770215099794,3.57527220759321,-2.88516711830609,8.77358068240327,-5.53515711095658,-2.24448204789551,460.240631851853,5123.59853319151
0.61,4.55930503871709,0.0995245103032647,12.0540511192398,-4.91657482823736,-4.37584923929614,1.28417716814056,-12.9187819632943,-1.6055930405195,1.3071671795266,507.827326868419,5123.59853319151
0.62,4.49179760720012,0.0295022000223504,15.4315497152724,-1.41333850061535,3.98440117025453,2.07404518714739,12.980202149676,8.46431358621549,-1.08428315615503,554.963446233412,5123.59853319151
0.63,4.541098496356,0.0192579750925548,12.9687291470288,-0.895656062253837,0.0158259709625966,-4.54111175394908,0.995822433260198,-12.9614224972517,-3.13386683122287,601.194309308978,5123.59853319151
0.64,4.40813990864329,0.0788995858957333,19.6189208565024,-3.86087649099915,-4.36118879555431,0.64649430651763,-19.9529319177667,-1.29958868009171,1.44152666128392,647.24049445455,5123.59853319151
0.65,4.51893536637552,-0.00587051468894106,14.0814095659079,0.398950079939836,-0.34140128676672,4.50602446396113,-0.64774586644253,14.0721598136758,0.0743219504769714,693.613333411747,5123.59853319151
0.66,4.54395123617957,0.0229126992587507,12.8329832883518,-1.04339970182545,3.71604769179215,2.61514959053806,9.85253006656195,8.28865455332643,-0.952519011014059,740.140966466183,5123.59853319151
0.67,4.51030356186884,0.0712370313455271,14.5177761553222,-3.47895945957763,4.49476521592861,-0.38078680192454,14.7224035259099,2.47382655772451,-1.63951938458347,786.829642018496,5123.59853319151
0.68,4.46282344258461,0.00686742131973617,16.8942992975675,-0.249034737172066,4.07892630923425,-1.81085626293061,15.5522436318386,-6.60356608750476,-1.98707235563613,833.177978458303,5123.59853319151
0.69,4.52810305570927,0.10010947096308,13.6329010352478,-4.89748673237228,4.08331340946747,-1.95966598923471,14.4390291921843,-1.16438950436322,-1.99614684398724,878.947574846306,5123.59853319151
0.7,4.43128505842911,0.0864358940263839,18.4763907822456,-4.19212837088569,4.40212360756401,-0.514845779394973,18.7953491503995,2.38449301337026,-1.66771802081157,924.703672725216,5123.59853319151
0.71,4.52956896470383,0.0194907428593436,13.5648508592011,-0.866931895633486,3.8241827398643,2.4275504664557,10.9531543725268,8.04892284940241,-1.00088545644567,971.493088162779,5123.59853319151
0.72,4.49203770821105,0.0156600238037534,15.4439794693126,-0.643640605986232,-0.00541400095554523,4.49206174233271,-0.716087087580316,15.4407899526295,0.00469139644400065,1017.15516382878,5123.59853319151
0.73,4.49963529785596,0.0435938724674421,15.0667762976747,-2.06557577741652,-4.37822095223011,1.03913403027773,-15.1500621668852,1.32286342300919,1.34745446918972,1063.63338404445,5123.59853319151
0.74,4.37975908105711,0.108137041813838,21.063289885208,-5.2607213362476,-0.601314141829319,-4.33963184276622,2.85204774592746,-21.5221558729814,3.02859113846289,1109.17513452834,5123.59853319151
0.75,4.50763537965092,0.0740004711062505,14.6723325171647,-3.57087093853025,4.28315399002197,1.40671414415422,12.6929790427596,8.18026550754651,-1.23705047212673,1155.55666353256,5123.59853319151
0.76,4.40507564372173,0.0646848399762435,19.8032386145741,-3.09650359429968,-3.93011918874889,1.99073823433944,-19.1541356902271,5.90556348671651,1.11661845059606,1201.15542068469,5123.59853319151
0.77,4.3263230894821,0.0909320044735571,23.7437240547973,-4.37643413621583,2.5977336932539,-3.46079756168387,18.0937506599349,-15.9854244483874,-2.47668152613192,1246.71926028676,5123.59853319151
0.78,4.368929134741,0.123830060746101,21.6164057332902,-6.02751417916375,-2.17368597115289,3.79182871015375,-16.4197627226661,15.2967746972225,0.548857873777427,1292.58195231408,5123.59853319151
0.79,4.330001526027,0.038782446127813,23.5657443706996,-1.77431678868955,2.98064145223919,-3.14104979691778,17.6498175299765,-15.7154843695739,-2.37343532575787,1338.48485971201,5123.59853319151
0.8,4.36472683049609,0.116803312486779,21.8325370040132,-5.67794861579833,-4.20262388180111,1.18424483396606,-22.5583051436627,-0.147110708830435,1.32288564926012,1384.19998604507,5123.59853319151
0.81,4.37645750040226,0.0698332703441895,21.249074714501,-3.31632010905819,3.54848508394504,2.56252035064967,15.0419593149342,15.3707714593658,-0.929406894413418,1429.81563639123,5123.59853319151
0.82,4.30681873007241,0.0752939586250534,24.7340634081352,-3.57657607344541,1.17877248043259,-4.1430486592946,10.6058804770916,-22.6292087442854,-2.84691849898897,1475.38809045437,5123.59853319151
0.83,4.4176365556335,0.130788414125586,19.1963106155183,-6.33131328822827,-4.27909527338125,-1.10542389528413,-16.6716223807149,-11.4298239879712,1.85319796026253,1520.89736670244,5123.59853319151
0.84,4.31385187888677,0.0981587675974624,24.3888041530236,-4.73847913375868,-2.36940666683374,3.60622589749935,-17.7523890088744,17.3815890238264,0.604053316521278,1566.62341123668,5123.59853319151
0.85,4.3786409586915,0.12092070346127,21.1525927033895,-5.87722286954084,1.4572754799496,4.13079491589622,0.889557040046684,21.9358750681673,-0.311543204598437,1612.2535943897,5123.59853319151
0.86,4.37740469861289,0.125268588090691,21.2177232475861,-6.04703018617378,1.41368877887037,4.14473740435947,0.495465092705552,22.0570367054499,-0.300097371150754,1657.317850466,5123.59853319151
0.87,4.29943872324748,0.099357673563752,25.1193204275251,-4.80344776449038,2.33208184095258,3.61336955892352,9.03525424956482,23.9252492110864,-0.550031902185677,1703.05886956031,5123.59853319151
0.88,4.23427189247502,0.141443054026069,28.3810289558794,-6.8619871645564,2.03209228111227,3.71748107701709,6.64624480334876,28.4323249569036,-0.466861434753235,1748.16503671805,5123.59853319151
0.89,4.22787447001651,0.0741678969739843,28.7042646306438,-3.53680202745953,0.291502887689525,4.21846529885308,-2.05590513792592,28.8481720500853,-0.0514511729404604,1793.8005739378,5123.59853319151
0.9,4.32950281833172,0.193703329329427,23.6262906541669,-9.44407729217798,-2.6283456029952,3.44585475970062,-22.3995071552569,12.0687317137054,0.696325444564687,1838.72208163689,5123.59853319151
0.91,4.34355342784707,0.0927373435583758,22.9272243488421,-4.41873086206184,-4.2712932088579,-0.794424898537722,-21.5455034351102,-8.99855991262649,1.77603408986271,1884.18600653668,5123.59853319151
0.92,4.26808737164142,0.155063325246006,26.7040590771192,-7.56935671585943,0.0392266162098037,-4.27072309092758,8.77612897918409,-26.3321380147326,-3.09609300873611,1929.52606607771,5123.59853319151
0.93,4.2141495788809,0.216879374209398,29.4045103293366,-10.6668533365651,4.16212055662583,0.694871073115184,26.4209248121457,16.743408251691,-1.3539516063192,1974.58562582669,5123.59853319151
0.94,4.23570664936178,0.135734505690966,28.3301366931414,-6.52148194860929,-2.68915339244579,3.27537611693376,-23.5742024152728,17.0112713323215,0.719462334459211,2019.67185697911,5123.59853319151
0.95,4.2524692412617,0.208416321526683,27.4955657705388,-10.1528986653609,-0.28154791854554,-4.2482540861533,9.6783430372397,-27.6661736495061,3.12438710763969,2064.78795479818,5123.59853319151
0.96,4.2417582539874,0.144574999804213,28.0347470943581,-6.95118572111592,1.87327748495023,3.80844410228339,5.17126955147289,28.416966741721,-0.423055750853494,2109.8906421893,5123.59853319151
0.97,4.23107389115079,0.215782050782765,28.5726624948866,-10.544247285135,-2.21369776699754,-3.61221405265635,-4.41035492218324,-30.1351449692407,2.64274295711931,2155.0055759096,5123.59853319151
0.98,4.17391948130042,0.171612947448727,31.4341340269898,-8.38477046249909,1.17764945793894,4.00801654117437,-0.51997005771128,32.5290453114542,-0.24468830108542,2200.12478129202,5123.59853319151
