t,iq,id,vq,vd,ia,ib,va,vb,theta_e,omega,r
0,0,0,0,0,0,0,0,0,0,0,0
0.01,0.000673961903037216,0.000359444852041168,-0.0326428418125619,-0.0179803865506934,0.000752640572662731,-0.000130220646544086,-0.0366324433045898,0.00684934446851014,-1.25216300659872,-0.00252819900505758,0
0.02,0.000865275054910253,0.000451424816689969,-0.0421396616956341,-0.0225814751764788,0.000963135220703384,-0.00015765732591338,-0.0470924506784916,0.00824470727571652,-1.25218278654535,-0.00276526177415471,0
0.03,0.00093319399009616,0.000488366109747041,-0.045624153727316,-0.0244293716567612,0.00103920442429288,-0.000171483657621219,-0.0509802538642311,0.0089090582452063,-1.25220192530516,-0.00249291044669452,0
0.04,0.000912204059156238,0.000483553707420694,-0.0448061058750405,-0.0241886344111879,0.00101776066306394,-0.000173504081280743,-0.0501278264263192,0.00893745915438231,-1.25221757878947,-0.00194246854272254,0
0.05,0.000920531337421575,0.000495728422773561,-0.0453569480801693,-0.0247976484559595,0.00102947994699431,-0.000182470959490311,-0.0508415865471791,0.00934393843399116,-1.25223022797868,-0.001605936851933,0
0.06,0.000913526940147982,0.00049851839032645,-0.0451431131746617,-0.024937207573644,0.00102369990264101,-0.000187324758648177,-0.0506821243661278,0.00954396450159373,-1.25224038161384,-0.00127719420448812,0
0.07,0.000915590733054585,0.000505974606808074,-0.0453343758467624,-0.0253102030656125,0.00102799362489495,-0.000193767387259442,-0.0509805091151411,0.00983868400748116,-1.25224808092339,-0.00105949073591115,0
0.08,0.000899052486626083,0.000500864998586502,-0.0446182670536045,-0.0250545964451913,0.00101068589411075,-0.000194100860284412,-0.0502203114364818,0.00982053344380705,-1.25225445208258,-0.000801224156210533,0
0.09,0.000889825670918161,0.000499691770996742,-0.0442335764285073,-0.0249959128138433,0.00100155487867427,-0.000195881126274527,-0.049836547384876,0.00988551899542264,-1.2522592430241,-0.000620756642981717,0
0.1,0.00088376969188832,0.000499421723321497,-0.0439871814835102,-0.0249824075641535,0.000995718253803267,-0.000197524897338949,-0.0495982815538662,0.00995003967168756,-1.25226289573017,-0.000487354535511555,0
0.11,0.000879421651218339,0.000499359055675511,-0.0438124048752537,-0.0249792615491382,0.000991568755508542,-0.000198829852426562,-0.0494312836980374,0.0100019258374352,-1.25226569588215,-0.000386348859667447,0
0.12,0.000876169308312576,0.000499344121207137,-0.0436823489529876,-0.0249785117975021,0.000988474909554592,-0.00019983633652093,-0.0493075136269713,0.010042049670987,-1.25226784705716,-0.000309129554578026,0
0.13,0.000907294490894938,0.000517556460304695,-0.0451985075658456,-0.0258895603155313,0.0010237375332674,-0.000207387188107214,-0.0510326964842286,0.0104325600434376,-1.25226989588021,-0.000382101552300927,0
0.14,0.000924061361741192,0.000528138090682349,-0.046118433631804,-0.0264188714983923,0.00104297442127698,-0.000212187651984115,-0.052072091490447,0.0106472522140783,-1.25227176531045,-0.000398879259299122,0
0.15,0.000883979620550642,0.000505943788514231,-0.0441226752255598,-0.0253086631244166,0.000997958034418649,-0.000203663566266174,-0.0498290273280507,0.0102179711169005,-1.25227335275127,-0.000180571897405082,0
0.16,0.000871796620657667,0.000500852863602954,-0.0435464234475965,-0.0250539912736963,0.000984793427969128,-0.00020264462242611,-0.0492020010587798,0.0101566020711489,-1.25227398578067,-0.000109786811190077,0
0.17,0.000867982678328777,0.000499685065964411,-0.0433673802374721,-0.024995580228565,0.000980805555108576,-0.000202730259445436,-0.0490136684873074,0.0101572142362186,-1.25227429746903,-8.42882004229578e-05,0
0.18,0.000866705472077605,0.000499417157182412,-0.0433084141402902,-0.0249821830929782,0.000979508655986436,-0.000202875984446343,-0.0489534710292523,0.010162966182475,-1.2522744850028,-7.33020790211432e-05,0
0.19,0.000866216524568868,0.000499355672873091,-0.0432865169527446,-0.024979108570542,0.000979025022111956,-0.000202970839150332,-0.048931711148841,0.0101669099988915,-1.25227461369913,-6.74225183927689e-05,0
0.2,0.000865987831360733,0.00049934154537028,-0.043276680456937,-0.024978384374282,0.000978803388940068,-0.000203029132877732,-0.0489221416836088,0.0101693072728732,-1.2522747080622,-6.36659827967041e-05,0
0.21,0.000865855525178804,0.000499338286193847,-0.0432711846231328,-0.0249782218375416,0.000978676702721298,-0.000203067540715494,-0.0489168706686512,0.0101708774862909,-1.25227477927066,-6.10045980639912e-05,0
0.22,0.000865766874872155,0.00049933752430908,-0.0432675789388323,-0.0249781843173339,0.000978592261938022,-0.000203094632336858,-0.0489134340492931,0.0101719736789002,-1.2522748336376,-5.9025334856214e-05,0
0.23,0.000865702555397886,0.000499337338560234,-0.0432649871980673,-0.0249781758340869,0.000978531111127832,-0.000203114639201061,-0.0489109695936166,0.0101727792986874,-1.25227487533817,-5.75230222512693e-05,0
0.24,0.000865654243039392,0.000499337287503739,-0.0432630466868719,-0.0249781760396418,0.000978485206408173,-0.000203129751695928,-0.0489091264295286,0.0101733887568587,-1.25227490738083,-5.63733740969499e-05,0
0.25,0.000865617455797745,0.000499337269293221,-0.0432615697054334,-0.0249781762151413,0.000978450258875457,-0.000203141278900971,-0.0489077235452953,0.0101738526640447,-1.25227493201957,-5.54907779341858e-05,0
0.26,0.000871265630927711,0.000502605029812535,-0.043531152886145,-0.0251416360418695,0.000984837687014749,-0.000204475783075066,-0.0492149369965471,0.0102446625559195,-1.25227484191631,-8.23230409342624e-05,0
0.27,0.000859399038272092,0.000495294871152837,-0.0429660321451308,-0.024775968709871,0.000971278661000653,-0.000201249792690778,-0.0485637257440872,0.0100743776811278,-1.25227513899378,-2.27786103111687e-05,0
0.28,0.000858401282063595,0.000494934289712308,-0.0428270231692767,-0.0247579294502189,0.000970218170389965,-0.000201219815193729,-0.0484260596908678,0.010100778535355,-1.25227514593569,-1.83027376969562e-05,0
0.29,0.000863448586002441,0.000498327320968872,-0.0431585045046381,-0.0249276560365593,0.000976074190789587,-0.000202861414685201,-0.0487940207698789,0.0101581535557651,-1.25227500797777,-4.39705905621388e-05,0
0.3,0.000849775786872462,0.000491736061339636,-0.0424937403194817,-0.0245979490778751,0.000961025163517023,-0.000200882744564108,-0.0480594506362013,0.0100531721224603,-1.2522742136968,-8.80466245199593e-06,0
0.31,0.000861762616703181,0.000497593969729382,-0.0430672207868399,-0.0248909774339134,0.000974243545365309,-0.000202692083151249,-0.0486958511649202,0.0101518640279479,-1.25227413474487,-6.24463536493286e-05,0
0.32,0.000865115330561573,0.000498937579451977,-0.0432293730022015,-0.0249581896250922,0.000977848359404248,-0.000202918282499332,-0.0488708941388398,0.0101649213275776,-1.25227425907235,-7.31420572285378e-05,0
0.33,0.000865945562258452,0.000499245725751076,-0.0432709595432915,-0.0249736075994532,0.000978733299367963,-0.000202951078302451,-0.0489152156581898,0.0101665477641832,-1.25227440986902,-7.22593549934613e-05,0
0.34,0.000866062854324759,0.000499316370616792,-0.0432781597484545,-0.0249771430134178,0.000978866788052196,-0.000202981567772673,-0.0489231595030693,0.0101676569849064,-1.25227454231122,-6.8865061560526e-05,0
0.35,0.000865998133649348,0.000499332546257868,-0.0432763304428034,-0.0249779344997036,0.000978810366801043,-0.000203017302413681,-0.0489216689910012,0.0101689867539055,-1.25227464909501,-6.54446825172337e-05,0
0.36,0.000865901741955976,0.000499336234390297,-0.0432727044733942,-0.0249781210686424,0.000978719961676643,-0.000203051073164228,-0.0489182829861642,0.0101703035474376,-1.25227473270127,-6.25722887428006e-05,0
0.37,0.000865813732015006,0.00049933706324612,-0.0432692538265751,-0.0249781621162858,0.000978636625102336,-0.000203079485141466,-0.0489150181048019,0.0101714263121228,-1.25227479745291,-6.0290744223962e-05,0
0.38,0.000865742078396578,0.000499337240182357,-0.0432664096904425,-0.0249781740222595,0.000978568620966354,-0.000203102141296853,-0.0489123202507439,0.0101723307396175,-1.25227484739454,-5.85141821224219e-05,0
0.39,0.000865685616965568,0.0004993372706197,-0.0432641555168206,-0.0249781742483627,0.000978515001295373,-0.000203119889451784,-0.0489101791428176,0.0101730387585372,-1.25227488585222,-5.7141128811196e-05,0
0.4,0.000865641903015295,0.000499337269792898,-0.0432624060978268,-0.0249781773520597,0.000978473479908357,-0.000203133607205201,-0.0489085183913605,0.0101735910064332,-1.25227491544854,-5.6082967235872e-05,0
0.41,0.000865608142572011,0.000499337263595502,-0.043261051704341,-0.0249781775196421,0.000978441411065833,-0.000203144196110824,-0.0489072319453592,0.0101740164247586,-1.25227493821955,-5.52683803885231e-05,0
0.42,0.000865582123744602,0.000499337257551974,-0.0432600052348464,-0.0249781747567979,0.000978416695546887,-0.000203152355636976,-0.0489062370703434,0.0101743423728242,-1.25227495573796,-5.46415681359737e-05,0
0.43,0.000865562100309275,0.000499337252610357,-0.0432591975886324,-0.0249781748888117,0.000978397675014781,-0.000203158634721576,-0.0489054699533535,0.0101745960819111,-1.25227496921466,-5.4159325268787e-05,0
0.44,0.000865546675279153,0.000499337248741486,-0.04325857296462,-0.0249781750089215,0.000978383022553308,-0.000203163471733887,-0.0489048766803599,0.0101747923119075,-1.25227497958224,-5.37883317184933e-05,0
0.45,0.000865534800916343,0.000499337245749718,-0.0432580897877644,-0.0249781751198343,0.000978371742919445,-0.000203167195302229,-0.0489044177611184,0.0101749441202102,-1.2522749875577,-5.35029302909088e-05,0
0.46,0.000865525720521253,0.000499337243444588,-0.0432577185482257,-0.0249781752235067,0.000978363117304191,-0.00020317004275606,-0.0489040651651455,0.0101750607770627,-1.25227499369314,-5.32833760895492e-05,0
0.47,0.000865518677394292,0.000499337241670552,-0.0432574278166738,-0.0249781753218985,0.000978356426935369,-0.000203172251333144,-0.0489037890403164,0.0101751521475836,-1.25227499841313,-5.31144776059534e-05,0
0.48,0.000865513264081834,0.000499337240305763,-0.0432572021422217,-0.0249781754160642,0.000978351284750036,-0.000203173948836261,-0.0489035747099423,0.0101752230873723,-1.25227500204394,-5.29845477011333e-05,0
0.49,0.000865509131337915,0.00049933723925561,-0.0432570278546589,-0.0249781755069133,0.000978347358988722,-0.000203175244792565,-0.0489034091891556,0.0101752778905989,-1.2522750048372,-5.28845955274312e-05,0
0.5,0.00086550598812423,0.000499337238447863,-0.0432568933251159,-0.0249781755952015,0.00097834437319064,-0.000203176230464716,-0.0489032814322964,0.0101753202091525,-1.25227500698602,-5.2807704567879e-05,0
0.51,4.75116397612201,0.0127195982930634,2.44246663920144,-0.628470647329369,-0.395331944866217,4.7347052252013,-0.835895019054338,2.37947434432202,0.0859805509642969,26.4635783542524,2110.8054323335
0.52,4.68047985287371,-0.0136214196183029,5.97747818689382,0.699253253738897,-1.79007709997752,4.32466197203495,-1.62316130176774,5.79521768151116,0.389540800985299,56.4382042366162,2110.8054323335
0.53,4.70658352615922,0.0193045067202793,4.67317564709751,-0.93611013620163,-3.72259534444836,2.88003212728338,-4.27761246544021,2.10164326450404,0.916424033693582,87.6705584583378,2110.8054323335
0.54,4.66750364017699,-0.00132777537467321,6.62820623378556,0.0941880284655189,-4.63848451157686,-0.519666652686571,-6.59766628675596,-0.642486444140139,1.68208033598498,121.147164346971,2110.8054323335
0.55,4.67939790708992,0.00527888893686002,6.03474401772757,-0.219248493784723,-2.07860030195725,-4.19239948290346,-2.4780053980382,-5.50687701958371,2.682437144645,151.36846461902,2110.8054323335
0.56,4.62995552817458,0.0409565741745606,8.50827464527792,-2.00760336461354,3.17075042889821,-3.3740935599779,7.33191467975927,-4.76069699075851,-2.37840794220958,182.993797776531,2110.8054323335
0.57,4.5962044951338,0.00107928708819705,10.1973733481763,0.0106940329881379,3.66472474248002,2.77396638188056,8.13575550289596,6.14784677440289,-0.922635370311998,213.505737697228,2110.8054323335
0.58,4.59781270236331,-0.0108652355156067,10.1186134708892,0.601650052697475,-3.16901787850691,3.33126483262135,-6.51994422377849,7.76135611075724,0.758080233580879,245.272668780238,2110.8054323335
0.59,4.5772139101787,0.0123504458814532,11.1502864985567,-0.556827999143662,-2.10796464188842,-4.06294533332594,-4.61339340753569,-10.1663930520039,2.66569558749821,276.008718077223,2110.8054323335
0.6,4.5827700820486,0.0361994155921224,10.8742416964563,-1.71085363317491,4.56793752411076,0.370187517928122,10.6797714775764,2.66807680058922,-1.48203377505351,306.501522895402,2110.8054323335
0.61,4.57429862172923,0.0457682743105878,11.2997596023713,-2.17991401317127,-3.49579991196327,2.95053988131069,-10.0969225235913,5.52166168184874,0.879786937126841,337.263961716422,2110.8054323335
0.62,4.57655069578736,0.0822603736642682,11.1891576461625,-3.99560617804905,1.38591144445622,-4.36243424114478,7.36464902028031,-9.32330748011802,-2.81601213645062,368.09952518489,2110.8054323335
0.63,4.50005041389655,0.0645770547401924,15.0163104591471,-3.12368996929766,0.079748413499871,4.49980711966121,-3.07304537349101,15.0267565017287,-0.00337146323313116,399.034001725855,2110.8054323335
0.64,4.48817919756742,0.0838394892518364,15.6121867833237,-4.10197102080588,-0.56482245747131,-4.45328610814205,2.40351229557107,-15.9621324094858,3.03411142367168,429.872623584121,2110.8054323335
0.65,4.54316283384067,0.0360960980012399,12.8653479109113,-1.68209394026077,-0.0202175445019913,4.54326124210092,-1.84142608900639,12.8435106902816,0.0123949578078163,460.157847351876,2110.8054323335
0.66,4.42573727351523,0.0953893263797312,18.7390984123947,-4.61806430413921,1.45009466772691,-4.18252017238401,10.8481931667444,-15.9623629905969,-2.7863075526525,490.44704600086,2110.8054323335
0.67,4.50380963610601,0.0982976493623373,14.8380279535484,-4.79409461703689,-3.52893871161437,2.80009914749836,-14.7191858950267,5.14742492271938,0.921873140202264,521.182993104042,2110.8054323335
0.68,4.46908901514336,0.0792337350243972,16.5766785982288,-3.7904872762609,4.43643560924152,0.545044672567994,15.8857301395709,6.06610625304259,-1.43082504728194,551.292466323171,2110.8054323335
0.69,4.42374268478643,0.0583414000460263,18.8467697055356,-2.75811063953089,-1.85376727899723,-4.0170200317499,-5.15136019440823,-18.337704076052,2.7224220165057,581.586169301059,2110.8054323335
0.7,4.37242270292468,0.0841164770531724,21.415555531143,-4.07351386053493,-3.12077824245896,3.0636414666468,-18.3653098191247,11.7445701976276,0.813872309808177,612.067595909655,2110.8054323335
0.71,4.40163805791213,0.0876554208715573,19.9576838004505,-4.25501264520818,3.42969279228549,2.76030947834,12.5621329485977,16.0812652198576,-0.873207352787779,642.258125849888,2110.8054323335
0.72,4.36273179194298,0.138874474336193,21.9060456926514,-6.81277549949423,3.03992154800792,-3.13234605208449,20.4841960296537,-10.3289138302998,-2.33934627408063,672.265090593206,2110.8054323335
0.73,4.31740921044778,0.079862730210611,24.1752470103448,-3.85691732500658,-1.92488828711759,-3.86538554716777,-6.89073121700527,-23.4911941492575,2.69805733252812,702.328761318647,2110.8054323335
0.74,4.37814630884282,0.0788318885966204,21.1415352021862,-3.79714942886769,-4.36348334759328,-0.366596022305057,-20.646072336114,-5.92642823143741,1.6726178466256,732.398958250128,2110.8054323335
0.75,4.37834172417459,0.130204427664511,21.1349632831053,-6.34521423004894,-3.25399758883078,2.93229076636595,-20.2199432002393,8.83755133408129,0.867084101851077,762.341528403618,2110.8054323335
0.76,4.36445423856661,0.125349182992707,21.8326488653591,-6.05367764277948,-1.08960298705465,4.22811288269608,-11.8694314213994,19.2983980478549,0.280929125993276,792.057016843992,2110.8054323335
0.77,4.26121658107279,0.0991908464058704,26.9979495649173,-4.72563456571496,0.4667754177342,4.23673533327484,-2.37671710321551,27.3051665178915,-0.0864574371241295,821.922254566631,2110.8054323335
0.78,4.3209383877192,0.102696220227726,24.015310873116,-4.94354352570917,1.10603578239585,4.17824603298734,0.784493588909954,24.506292023314,-0.235014848548785,851.833774502724,2110.8054323335
0.79,4.24989492224178,0.16879041485034,27.5709981761154,-8.1838811458619,0.866424756733492,4.16406114210168,-3.53130171493007,28.5423502752504,-0.165449455078045,881.468214737563,2110.8054323335
0.8,4.30187364394473,0.154762778359298,24.9756967076631,-7.50954169507478,-0.370940201828017,4.28864450994712,-10.4989132298651,23.8736562657462,0.122239008970506,911.190608984851,2110.8054323335
0.81,4.22906415607827,0.137891934105728,28.6198656172216,-6.71502721795529,-4.0711662317639,-1.15308427058161,-25.2283725045683,-15.0903120993718,1.87939370842006,940.978403304595,2110.8054323335
0.82,4.14751939375903,0.134710295411185,32.7008238404464,-6.55220485552878,-2.24769767329111,-3.4882544567131,-11.1906843322001,-31.4172540571224,2.60165959767388,970.520739787853,2110.8054323335
0.83,4.20509536361405,0.169931236207872,29.8258402285504,-8.20921328943729,1.47806925713122,-3.94043334079528,19.1577036621783,-24.2889752472732,-2.7423426704104,999.976107849669,2110.8054323335
0.84,4.21053926174041,0.164746117990242,29.5575306696307,-7.94094946302234,4.20740933714092,-0.231276518024994,29.6793514864049,7.47277679359357,-1.58660279414502,1029.47647634895,2110.8054323335
0.85,4.15988573369558,0.135907999369727,32.0941566611005,-6.49384484954359,1.01909262206718,4.03541454244108,0.493240059828702,32.7408250806327,-0.214705791680084,1058.97322639267,2110.8054323335
0.86,4.12747324205344,0.0989239457311106,33.7187817143467,-4.75141805237634,-4.0276950145247,0.907465801492825,-33.9953300024131,1.96207844778019,1.37315279287198,1088.5140611356,2110.8054323335
0.87,4.22199731417052,0.127064898691613,28.9966462935939,-6.13988922917765,0.0212337681123825,-4.22385557712789,7.15408061801993,-28.7632207260111,-3.10647875073541,1117.96546066034,2110.8054323335
0.88,4.20733320441095,0.127452961121506,29.7339545183877,-6.08852861529357,3.78485557640169,1.8419460404742,23.5008882765965,19.2064177350105,-1.0875920100611,1147.20753056364,2110.8054323335
0.89,4.08457065408888,0.214882869876198,35.8763500045866,-10.4213651310568,-3.63312220171044,1.87891328790048,-36.9831566491293,5.28804927287638,1.14607343471529,1176.46306135361,2110.8054323335
0.9,4.10725348866154,0.161699514208796,34.7464966769323,-7.8303890457422,1.65103576562646,-3.76427401415466,22.2392417599833,-27.8217567717921,-2.68890476073306,1205.77772380484,2110.8054323335
0.91,4.01879449955784,0.161949916750242,39.1737828015197,-7.80773500550339,0.268449894843903,4.01308754691074,-6.7663109964103,39.367029611042,-0.0265177542655557,1234.94786043514,2110.8054323335
0.92,4.11231804075085,0.174131154953667,34.5019585840085,-8.38721477239054,-1.3490345443031,-3.88864849603141,-1.885869821744,-35.4566497682209,2.84998638863149,1264.10148699706,2110.8054323335
0.93,4.05244783621336,0.157793146331293,37.4999449556928,-7.63905068564137,1.51140253071922,3.7633621314451,5.41673398413812,37.8848249303447,-0.342975155692968,1293.33023779266,2110.8054323335
0.94,4.05539173028121,0.164463050312093,37.3572223929382,-7.99934619446926,3.48096365827553,-2.08713731956387,36.6236743583272,-10.8746531415773,-2.07037945045018,1322.46274503993,2110.8054323335
0.95,3.96047198386562,0.163430225697897,42.1077502559921,-7.95212186868299,-3.90965185383924,0.653199935262977,-42.7687888356796,-2.67012646974654,1.44649360143991,1351.49065133015,2110.8054323335
0.96,3.98560983880019,0.15950993240777,40.8554445553941,-7.74821076265721,3.63594069164191,1.64026354362345,33.0735479167428,25.2060022224937,-1.10700717486251,1380.49063966897,2110.8054323335
0.97,3.96078548121109,0.116619251665244,42.1012139565438,-5.60291447673906,-1.30558394025263,-3.74123940065133,-7.35372606585735,-41.8309404651229,2.8352698210823,1409.51231653973,2110.8054323335
0.98,4.03908827393742,0.158343167389457,38.190640304977,-7.66126458807211,-2.50227183582543,3.17457749991279,-30.6247091298347,24.0696317525964,0.706700498399967,1438.43814628647,2110.8054323335
