t,iq,id,vq,vd,ia,ib,va,vb,theta_e,omega,r
0,0,0,0,0,0,0,0,0,0,0,0
0.01,0.000500440712543201,0.000239725135814053,-0.0204216722713053,-0.011989655535325,-0.000514478285075627,-0.000207896949706953,0.0226243290372718,0.00699544664947203,2.40155568222629,-0.00871293082695146,0
0.02,0.000701802628630282,0.000320674090701247,-0.0305395250113193,-0.0160382545982273,-0.000710055876733154,-0.000301959358053626,0.0324373884890806,0.0117347358931942,2.40148962466406,-0.00870092769879849,0
0.03,0.000760501205548619,0.000357011968030908,-0.0346921855034005,-0.0178556582059576,-0.000776489366972819,-0.000320755190038066,0.0365804998755901,0.0135734775876445,2.40143529308655,-0.0062056235523539,0
0.04,0.000720944980733688,0.000359339899840421,-0.0344424516566942,-0.0179720939547381,-0.000751540511582374,-0.000289954631473486,0.0364984709430597,0.0133094047973708,2.4014036765216,-0.00304002342450864,0
0.05,0.000695946914151424,0.000369310117102442,-0.0340869745080382,-0.0184707316856023,-0.00074204643999711,-0.000264762442198143,0.0366270788499424,0.0127101083800754,2.40138898663916,-0.00141533315919735,0
0.06,0.000671868212987806,0.000372482240789172,-0.033414732186609,-0.0186293949965689,-0.000728150222177707,-0.000244841110251745,0.0362909033617022,0.0121065692180974,2.40138366685529,-0.000477686543976389,0
0.07,0.000661584973582054,0.000377150168740758,-0.0330314195292841,-0.0188628530342192,-0.000724661160756116,-0.000234100681635803,0.0362047461149833,0.0116661158686055,2.40138396884328,-0.000260101640125991,0
0.08,0.000651727424972277,0.000374977327206861,-0.0326654723819387,-0.0187541777189012,-0.000716408489250672,-0.000228288214566076,0.0358776950994926,0.0114692311074097,2.40138421981242,-4.87865849057855e-05,0
0.09,0.000647392982878745,0.00037428619541957,-0.032470017976821,-0.0187196116101637,-0.000712974644880141,-0.000225554840604969,0.0357203396055315,0.0113482714417638,2.40138525465127,-2.154634618641e-05,0
0.1,0.000646276419792835,0.000374066456877117,-0.0323947137773727,-0.0187086240890034,-0.000712059139537799,-0.000224879315948654,0.0356614284029284,0.0113001159411905,2.40138618886686,-6.19606400516793e-05,0
0.11,0.000646559011689586,0.000373996630465009,-0.0323830009463776,-0.0187051237738799,-0.000712198043943497,-0.000225135473435998,0.0356509377854341,0.0112938496850441,2.40138677557402,-0.00011020786673077,0
0.12,0.000647190151573324,0.000373974447846543,-0.0323954161371596,-0.0187040263280676,-0.000712607269035238,-0.000225616621847259,0.0356584976645232,0.011303766270141,2.4013870537534,-0.000144645745594918,0
0.13,0.000671289300986339,0.000385725578871023,-0.0333129319268699,-0.0192917511224624,-0.000737537193572367,-0.000235483408994159,0.036711255789013,0.0115847655707381,2.40138582524746,-0.000617572131147768,0
0.14,0.000684395853406461,0.000392466288830474,-0.0342390931973428,-0.0196288791865965,-0.000751354141411626,-0.000240612606095195,0.0375848327649232,0.012041127319777,2.40138377160979,-0.000776350419270823,0
0.15,0.000662085236164897,0.000379850202720321,-0.0331220091716093,-0.0189978903932872,-0.00072699252156999,-0.000232647609133435,0.0363655680579124,0.0116418551264333,2.40138202389711,-0.000133558274422394,0
0.16,0.000650297636591312,0.000375836299149547,-0.0326529728851869,-0.0187971380166199,-0.000716078622109953,-0.000226652480400689,0.0359009957554902,0.0114309903167171,2.40138316577608,5.93324811189957e-05,0
0.17,0.000645833100499776,0.000374559467636517,-0.0324289435578139,-0.0187332855275287,-0.000712124453955485,-0.000224218533078574,0.0357027378708536,0.0113087079481658,2.40138483955385,4.42020788450786e-05,0
0.18,0.00064520220523443,0.000374153414547264,-0.0323583904141344,-0.018712975456759,-0.000711398865404822,-0.000224027492860767,0.0356401440143504,0.0112703600330769,2.4013861168765,-3.18753188842753e-05,0
0.19,0.000646001850448498,0.000374024318617258,-0.0323604013920136,-0.0187065091092373,-0.000711842701369576,-0.000224705474358887,0.0356367178867777,0.0112762316207337,2.40138683685533,-0.000101609537279927,0
0.2,0.000646985436017099,0.000373983274929207,-0.0323847578036119,-0.0187044672742983,-0.000712475699339291,-0.000225459579960576,0.0356516338883084,0.0112956024676826,2.4013871366568,-0.000145774971312673,0
0.21,0.0006476953354828,0.000373970214215689,-0.0324079831661005,-0.0187038138222965,-0.000712944825867377,-0.000225992575089627,0.0356668147942462,0.0113131934848795,2.40138720176386,-0.000166902980054444,0
0.22,0.0006480785161433,0.00037396604688198,-0.0324229966513847,-0.0187036055873829,-0.000713200188325816,-0.000226278277081689,0.0356767870931582,0.0113244177127808,2.40138717035111,-0.000173578874477099,0
0.23,0.000648228517167697,0.000373964709916322,-0.0324303246102437,-0.0187035395244266,-0.000713300379489313,-0.000226389892337603,0.0356816811657872,0.011329870884113,2.4013871188983,-0.000173410509168655,0
0.24,0.000648253779253373,0.000373964277439876,-0.0324327288895954,-0.0187035176674346,-0.000713317107087319,-0.000226408806926734,0.0356832870277307,0.0113316593338585,2.4013870784609,-0.00017112560020442,0
0.25,0.000648230961839971,0.000373964136387667,-0.0324327541483459,-0.0187035120301459,-0.000713301619245272,-0.000226392038672346,0.03568330016487,0.0113316809544148,2.40138705517981,-0.000168940362619688,0
0.26,0.000651188657311958,0.000375798747546247,-0.0325253651530329,-0.0187952632321389,-0.000716650867517461,-0.000227338734393305,0.0358134990061295,0.0113381915331096,2.40138743937444,-0.000264986393455456,0
0.27,0.000646596673924768,0.000372076888523121,-0.0323991028131582,-0.0186091164813706,-0.000710806133593188,-0.000226457744733808,0.0355909170723894,0.011370474979574,2.40138637254688,-8.24524416781921e-05,0
0.28,0.000645081553743151,0.00037171052092396,-0.0319756379366688,-0.0185907926190866,-0.000709513765325952,-0.000225586212252054,0.0352917857725113,0.0110701783477047,2.40138641810108,-5.04683298463405e-05,0
0.29,0.000646203233777534,0.000373247041382728,-0.0323612413280591,-0.0186676484850488,-0.000711404597716235,-0.000225378507390799,0.0356085905276644,0.0113030668797171,2.40138700406872,-0.000118172832068215,0
0.3,0.000632769181654758,0.000367898125840674,-0.0317697729730678,-0.0184001176522645,-0.000698394255539044,-0.000219069240376591,0.0350121235249273,0.0110469004998088,2.40138983011395,-6.65465045098113e-06,0
0.31,0.000643435112334583,0.000372034502668014,-0.0321528334721628,-0.0186069946294339,-0.000708641763252732,-0.000224154559031292,0.0354232169930893,0.0111902031835405,2.40138990268164,-0.000259748059006004,0
0.32,0.000648418972323737,0.000373350413685905,-0.0323682471307929,-0.0186728062050541,-0.000712974858563485,-0.000226946130447703,0.0356171014918753,0.0113048306139033,2.40138896133519,-0.000308724438922141,0
0.33,0.000649914771879727,0.000373768941026919,-0.0324576421000263,-0.0186937521832876,-0.000714292910213801,-0.000227767579787294,0.0356928686898224,0.0113566731957322,2.40138801598065,-0.000276339893151432,0
0.34,0.000649797964716352,0.000373902010796266,-0.0324768314879133,-0.0187004009046299,-0.000714312523153066,-0.000227591141949122,0.0357107268460764,0.0113663347484191,2.40138738867016,-0.000229057657024025,0
0.35,0.000649208383110045,0.00037394431051606,-0.0324672314847305,-0.0187025205556753,-0.000713946188613978,-0.000227127082998186,0.0357058207983562,0.0113578059736116,2.40138707424495,-0.000193015384338658,0
0.36,0.000648667809768324,0.000373957761052831,-0.0324517250043748,-0.0187031952347984,-0.000713591560100518,-0.000226718812264422,0.0356958619831548,0.0113458981588113,2.4013869653821,-0.000172716578077135,0
0.37,0.000648325432688376,0.00037396204548798,-0.0324395760311276,-0.0187034092670625,-0.000713363812243838,-0.000226463130590967,0.0356878263358427,0.0113367836141156,2.40138695856677,-0.000164273585579751,0
0.38,0.000648161636451002,0.000373963416071793,-0.0324325900703299,-0.018703477006684,-0.000713254347172661,-0.000226341290458077,0.035683164423988,0.0113315809797334,2.40138698645864,-0.000162447272405339,0
0.39,0.000648109889879716,0.000373963857888327,-0.0324295974076965,-0.0187034991425092,-0.000713219766759014,-0.00022630280747449,0.0356811620626913,0.011329357530552,2.40138701595027,-0.000163338987023266,0
0.4,0.000648111170461271,0.000373964001741079,-0.0324288753717614,-0.0187035064917603,-0.000713220732110292,-0.000226303670237449,0.0356806802921203,0.0113288201881773,2.40138703598802,-0.000164792619680302,0
0.41,0.000648128865595325,0.000373964048904499,-0.0324291120405786,-0.0187035094028241,-0.000713232698910488,-0.00022631671059776,0.0356808419439876,0.011328993330835,2.40138704625491,-0.00016593368988628,0
0.42,0.000648145804024583,0.000373964064235726,-0.0324295669623245,-0.0187035094071501,-0.000713244133343164,-0.000226329209042787,0.0356811487226086,0.0113293293421246,2.40138704995092,-0.000166590079822995,0
0.43,0.000648156747064791,0.000373964068989695,-0.0324299292047927,-0.0187035094383849,-0.000713251517192665,-0.000226337285667434,0.0356813930522992,0.0113295967883659,2.40138705031132,-0.000166870845981122,0
0.44,0.000648162160377235,0.000373964070277426,-0.0324301365525791,-0.0187035094943819,-0.000713255169282179,-0.000226341281024021,0.0356815329465271,0.0113297498123862,2.40138704949058,-0.0001669374959458,0
0.45,0.000648163906607055,0.000373964070506187,-0.0324302139127539,-0.0187035095667959,-0.000713256347385872,-0.000226342569507903,0.0356815851851807,0.0113298068480841,2.40138704857151,-0.00016691364002512,0
0.46,0.000648163906607055,0.000373964070473268,-0.032430217619797,-0.0187035096470243,-0.000713256347506504,-0.000226342569073375,0.0356815877518479,0.0113298095081472,2.40138704793117,-0.000166869101656076,0
0.47,0.00064816344094577,0.000373964070416529,-0.0324301944910046,-0.018703509729336,-0.000713256033480123,-0.000226342225060552,0.0356815722174479,0.0113297923639756,2.40138704759547,-0.000166833039476326,0
0.48,0.000648162917076823,0.000373964070386565,-0.0324301606377872,-0.0187035098119087,-0.000713255680168517,-0.000226341838202686,0.035681549447888,0.0113297673089419,2.40138704746934,-0.000166811849840501,0
0.49,0.000648162509623199,0.000373964070379697,-0.0324301260698938,-0.0187035098939609,-0.000713255405364467,-0.000226341537359725,0.0356815261947058,0.0113297417304729,2.40138704745196,-0.000166802540350406,0
0.5,0.000648162393207877,0.0003739640703844,-0.0324301021340946,-0.0187035099747114,-0.000713255326847666,-0.000226341451419887,0.0356815101108143,0.011329724004308,2.40138704747474,-0.000166800147954841,0
0.51,4.74501630460277,0.0019958791783955,2.7497235058424,-0.06514721614811,-1.67582198997407,4.43923466065933,-1.03315526023813,2.54908095724643,0.361383424206654,111.875722122095,1773.13866083334
0.52,4.68613126927726,-0.00149011168884083,5.69478476687065,0.141472047450927,-4.66124620571844,-0.482298976783437,-5.67924481202693,-0.443583415218791,1.67358141036868,248.653982289482,1773.13866083334
0.53,4.66630187268827,0.0372970952865022,6.68732295459467,-1.76438396355357,3.41646610663993,-3.17860403047493,6.12373220566118,-3.2145361941098,-2.31215077877683,380.426653061374,1773.13866083334
0.54,4.63224182899622,0.0691657712297457,8.39166576192197,-3.31502234787678,-3.74119475356052,2.73238175995655,-8.76484782271518,2.14169794120945,0.95492052460295,511.51553280724,1773.13866083334
0.55,4.60613568509673,0.107754089747447,9.69854671733697,-5.22166011795227,4.15389437863533,1.99330338496692,6.27487108146826,9.05281921429641,-1.09999775119422,643.112142983564,1773.13866083334
0.56,4.60726321626591,0.137130528290818,9.64394398817278,-6.65303705175697,3.66028416478647,-2.80142802134191,11.7139138250338,-0.229740198371666,-2.1942991575209,773.529201676947,1773.13866083334
0.57,4.52488336011437,0.104121544043789,13.7648875427162,-4.93648913848687,3.19868623640758,-3.20215819090667,13.3607586138136,-5.94400398228563,-2.33373009247355,902.543275949697,1773.13866083334
0.58,4.52108787716536,0.19118888174491,13.956868753448,-9.25940130912352,4.52504155701276,0.0280657952317594,13.4918962644414,9.92468806532088,-1.52233101135656,1032.03585597534,1773.13866083334
0.59,4.42047839668415,0.164142299118453,18.9897375357907,-7.88279557014671,-0.870828543067052,4.33696087121972,-12.0922909463572,16.6290437893341,0.235272509579219,1161.16901826812,1773.13866083334
0.6,4.46296575437327,0.16238362949309,16.8679365994839,-7.75399138166732,-1.07228089882206,-4.33527916538915,4.13790609381325,-18.0977733611061,2.93548926270234,1289.33382662823,1773.13866083334
0.61,3.6122170076366,0.163926767876316,19.1220059596427,-7.86828470834642,-0.828483538389598,3.51974412736252,-12.7899301818672,16.2474213989535,0.276523794443074,1408.64697942458,1773.13866083334
0.62,2.60919481204221,0.153475859880906,21.2498802261556,-7.47663443242317,2.59884299720522,-0.278329809096261,21.5837423638323,6.44977035511863,-1.61873378168472,1498.21295520788,1773.13866083334
0.63,1.96698257007429,0.126448760701134,17.6294510135641,-6.12663168640444,0.252591444283966,-1.95479085385968,9.38947180222739,-16.1298164321758,-2.94889078262521,1564.06818845628,1773.13866083334
0.64,1.39691369244736,0.0640298281833814,19.9386741840862,-3.09213959288382,-0.969297749700012,-1.00793330903915,-10.8235186967534,-17.0283146113189,2.4215368169015,1612.94490997558,1773.13866083334
0.65,1.01669952757036,0.054497126844946,19.5726973413579,-2.66669865829847,-0.999390044114142,-0.194595493066206,-18.3350743766299,-7.35029322911802,1.81665506804426,1648.8759222689,1773.13866083334
0.66,0.728019390746085,0.0612739909501999,19.6792793941687,-3.03757063697398,0.632464938311875,0.365725084011779,14.4141116238151,13.7380587764268,-0.962552937795172,1675.45570410715,1773.13866083334
0.67,0.501046911563647,0.0446635745914746,20.4089486938776,-2.22661996695113,0.47897967409674,0.153692271389743,17.9367822085511,9.98773584300059,-1.17139496906194,1695.16986160322,1773.13866083334
0.68,0.368853560960298,0.0295587259857152,19.2074039025801,-1.47348876573039,0.359871227335249,0.08613575013438,17.8065712772126,7.34993558945441,-1.25589866712634,1709.69611792318,1773.13866083334
0.69,0.23041653733236,0.0452504326989062,20.3231191886702,-2.25292643277459,0.232867196528443,0.03020349510664,18.557908571463,8.58538761627039,-1.24789619835181,1720.4793251961,1773.13866083334
0.7,0.181774138222,0.0340262841506597,18.5101368308968,-1.67235040352174,0.180709450308426,0.0392902011789042,16.4052534549409,8.73439067421596,-1.17165800782727,1728.48674493979,1773.13866083334
0.71,0.0987911304095452,0.0096606129362193,19.5401573691554,-0.446396118062002,0.0903013268684157,0.0412151095558749,16.6781421096567,10.1910056066942,-1.04514006798026,1734.36603000744,1773.13866083334
0.72,0.00158331128939843,0.0412314975372401,21.9768787878155,-2.10856780298492,0.0274814918122869,-0.0307784156767982,15.5997940564162,15.6229217764003,-0.880309467028019,1738.91012787894,1773.13866083334
0.73,0.00511196119419899,-0.0236166616784897,20.0816279444548,1.13088141919688,-0.0150122016699703,0.0189344304669399,13.6144045372468,14.8053592587275,-0.687261991530711,1742.16695074455,1773.13866083334
0.74,0.00556748507572578,0.029136029758962,18.8022251736104,-1.47921490896601,-0.0266429253297888,-0.0130406920849642,6.37640915672048,-17.7497367443055,-2.87522097605651,1744.59919666446,1773.13866083334
0.75,-0.0258289237234775,-0.00362411640633379,19.4861346932733,0.190475448811317,-0.00908577359828798,0.0244482358987418,9.09267337676665,-17.2356902108511,-2.64637480007231,1746.37956915302,1773.13866083334
0.76,-0.0974302064534819,0.0155941275880569,22.4202692260939,-0.764072048433526,-0.0769280981527176,0.0617890739484461,15.6079324164528,-16.1134950879433,-2.40619705456121,1747.64570573258,1773.13866083334
0.77,-0.0973222074818086,-0.0149960004696289,21.8832766530106,0.68250168899329,-0.0727202288142775,0.0663947318724643,17.8411671286464,-12.6900102882301,-2.15787249181142,1748.69199562161,1773.13866083334
0.78,-0.0834400842633453,0.0071272277440701,20.83161905248,-0.402658153882717,-0.0812100329178939,0.0204444513417356,19.8263606165118,-6.40577166628378,-1.90262982813864,1749.44990806117,1773.13866083334
0.79,-0.0564194986423924,0.000280191363402625,19.1933897408112,-0.0197496250817216,-0.056295781780627,0.00374476807920981,19.1459122952381,-1.34931174063575,-1.64218416243486,1750.14135905863,1773.13866083334
0.8,-0.12871698248341,0.0387443455417282,22.5749288113884,-1.9264019932814,-0.118874126106847,-0.0627545060806367,21.7841431077505,6.22812528294166,-1.37745079519734,1750.62112989596,1773.13866083334
0.81,-0.144311138056722,-0.0394021120140429,23.1757557146549,1.89904873250791,-0.146763363719522,-0.0289611130332523,21.5980043345467,8.61674229617565,-1.10942820391791,1751.05200014402,1773.13866083334
0.82,-0.030110314588507,0.00321135211641443,17.3696464614188,-0.208535388912682,-0.00022073115526352,0.0302802758374417,-1.50861154217432,-17.3052649912657,3.04263088361747,1751.32725358878,1773.13866083334
0.83,-0.0651962900380822,0.0197066192909191,19.0507477555021,-1.00079016254524,-0.0306639286278296,0.0608163675314001,4.27398641744662,-18.5920846355834,-2.96812090766434,1751.57032056877,1773.13866083334
0.84,-0.106528999707035,0.012113154901275,21.0388555745088,-0.594621504579665,-0.0570305308704002,0.0907891780383768,9.64267011742998,-18.708445462549,-2.69394233060867,1751.81613153747,1773.13866083334
0.85,-0.129272393891873,0.026232701684489,22.1134857901386,-1.36393180708562,-0.105239023817087,0.0795251804539261,15.6612398028635,-15.671379377778,-2.41811879891297,1752.02416014543,1773.13866083334
0.86,-0.0718268469890027,-0.00385055461529584,19.1872116619993,0.135378595696537,-0.0583865082421419,0.0420111696399573,16.0790073374384,-10.4705750448167,-2.14095586408065,1752.19792521241,1773.13866083334
0.87,-0.0370105112624308,0.0345314588935348,17.4290910196395,-1.74582549745587,-0.0453817047578703,-0.0224209828172606,17.1942829724962,-3.34331474739856,-1.86267765455426,1752.30375684695,1773.13866083334
0.88,-0.0801304212375602,0.0280334617882402,19.612557136844,-1.3913026333498,-0.0804838943899333,-0.0270018912554588,19.6288101273335,1.1392688219325,-1.58364146260774,1752.36747073752,1773.13866083334
0.89,-0.139968128951839,-0.0174507415551207,22.5655264135441,0.853409623487769,-0.139616357263632,-0.0200718282061246,21.992030489882,5.12658611923362,-1.30397401445213,1752.51718884032,1773.13866083334
0.9,-0.0474100714427833,0.00496169113297206,17.8930425644762,-0.306000256689913,0.00847364985061452,0.0469098125269971,-4.70232458128708,-17.2668107044548,2.85860753168371,1752.70341108405,1773.13866083334
0.91,-0.0985123325411534,-0.00881492105292558,20.3827349850186,0.410359261508499,0.00887528913187261,0.0985069121366301,-0.422850009310561,-20.3824796838518,3.14097983957605,1752.86211311075,1773.13866083334
0.92,-0.106456522403056,0.0084417700481479,20.8372264496686,-0.417375732547389,-0.0377728013020881,0.0998872871064739,6.20739208468887,-19.895539503211,-2.85919172386981,1752.90799874974,1773.13866083334
0.93,-0.0947414286559093,0.0268681567576806,20.2093747595806,-1.33131798810367,-0.0734867040054785,0.0655556289400784,11.9618105963785,-16.3433877459659,-2.5755543573898,1753.06424247052,1773.13866083334
0.94,-0.127960216688705,0.0176627695889548,21.8698626345777,-0.952270354670921,-0.107816552148157,0.0711433873768777,17.0637805816457,-13.7122245731732,-2.29123546513232,1753.10950044815,1773.13866083334
0.95,-0.0530981225443456,0.0162340125138683,18.1301028466041,-0.842073860767354,-0.0549915856056185,0.00767328434340292,16.7940885696961,-6.8824637106659,-2.00614769604214,1753.19267660742,1773.13866083334
0.96,-0.0345512012079263,-0.000454297288094204,17.2813924545094,0.0325275885246532,-0.0340934803308605,0.00562374340326839,17.0816141673825,-2.62031308195537,-1.72112718457397,1753.18549735318,1773.13866083334
0.97,-0.125839132562861,-0.00173928820330845,21.8903719125754,0.0984459974956493,-0.124927606359641,-0.0152185931307088,21.7043270310076,2.84960737933578,-1.4357536770996,1753.1650595909,1773.13866083334
