t,iq,id,vq,vd,ia,ib,va,vb,theta_e,omega,r
0,0,0,0,0,0,0,0,0,0,0,0
0.01,0.000504383357241229,0.00027647626134243,-0.0236418417000971,-0.0138288821056789,0.000552131020411973,0.000161223541849987,-0.0264949369598538,-0.0069421160144864,-0.785273396626189,-0.00426583532321959,0
0.02,0.000666531557765158,0.000358067128628784,-0.0314592944084207,-0.017909924404625,0.000724481105328238,0.000218182295623831,-0.0349084496078712,-0.0095839836618074,-0.785308436904932,-0.0051163236342054,0
0.03,0.000733615591374052,0.000392496264074925,-0.0347829446341041,-0.019631999527285,0.000796268650940104,0.000241249639895896,-0.0384766128931392,-0.0107153582828566,-0.785345605713988,-0.0050565928519644,0
0.04,0.000729540024973904,0.0003914176293737,-0.0348061327701337,-0.0195780569750104,0.000792632287799801,0.000239103460787803,-0.0384552279959019,-0.0107685947603265,-0.785379463747834,-0.00440455835255097,0
0.05,0.000742835799572125,0.000401570073004012,-0.0356073020455192,-0.0200858569752855,0.000809219933446011,0.000241301985014708,-0.0393811368726255,-0.0109748652844579,-0.785409686153862,-0.00397778840774921,0
0.06,0.000742611312305789,0.000404331412016703,-0.0357637992798312,-0.0202239858107905,0.000811020137738639,0.000239168953023478,-0.0395897632771112,-0.0109867913726167,-0.785436459099348,-0.00348968541060712,0
0.07,0.000746646391645025,0.000409800789312629,-0.0360922377874658,-0.0204975450907971,0.000817746210738073,0.000238135792986507,-0.0400156936126733,-0.011024665434964,-0.785459327949991,-0.0031115102081927,0
0.08,0.000736710033926434,0.000406567386629869,-0.0357616771369325,-0.0203358190334771,0.000808438266397104,0.000233380126368494,-0.0396678100300386,-0.01090449149797,-0.785479776396037,-0.00264918252559105,0
0.09,0.000730747941658011,0.000405684714113263,-0.0355954363588779,-0.0202916787584742,0.000803601997162334,0.000229774828167246,-0.0395192295931293,-0.0108174770062882,-0.785497199327264,-0.00227821901821879,0
0.1,0.000726436770746162,0.000405442482088548,-0.0354897912966815,-0.0202795476676132,0.00080038535912336,0.000226886017804546,-0.0394361033121612,-0.0107507718531069,-0.785512135873526,-0.0019675278087265,0
0.11,0.00072298617300509,0.000405374908426703,-0.035410705776204,-0.0202761679767156,0.00079790024478116,0.000224483901687113,-0.039377922788598,-0.010696741010424,-0.785524970079456,-0.00170289460139019,0
0.12,0.00072009918435893,0.000405355117955338,-0.0353463952456607,-0.0202751790216549,0.000795847039699767,0.000222447963281527,-0.0393318609660336,-0.0106515376435152,-0.785536007127352,-0.00147605489253602,0
0.13,0.000742489031282735,0.000419132022531206,-0.0364414004203176,-0.0209642859293856,0.000821423947478021,0.000228526393215092,-0.0405935689894094,-0.0109379662563485,-0.785546129523593,-0.0014975679605149,0
0.14,0.000754441731103255,0.000427016909931474,-0.0371786247513411,-0.0213586767342094,0.00083545380566591,0.000231392967904922,-0.0413938809961683,-0.0111798848971063,-0.785555378953504,-0.00143923690766308,0
0.15,0.000725421345507124,0.000411245090541309,-0.0357636005641169,-0.0205697872692626,0.000803781287896446,0.000222023184012899,-0.0398354974526137,-0.0107370580847467,-0.785563605666815,-0.00102381624758085,0
0.16,0.000715343331332649,0.000406949395697741,-0.0353370410735162,-0.0203549291312928,0.000793618192860659,0.00021793131097075,-0.0393819864718694,-0.0105871976131938,-0.785569701048331,-0.000820760198457937,0
0.17,0.000711382318785549,0.000405778981861453,-0.0351851812499654,-0.0202963816514311,0.000789990453469644,0.000215954784684315,-0.0392332466313329,-0.0105210477852004,-0.785574634607579,-0.000694878240909992,0
0.18,0.000709463921636707,0.000405459731789971,-0.0351225618306154,-0.0202804182198552,0.000788408889179275,0.000214821027067724,-0.039177717831651,-0.0104879043770035,-0.785578781080455,-0.000602013714278114,0
0.19,0.000708284606413392,0.000405372344274321,-0.035090205739357,-0.020276046444141,0.000787513812619199,0.000214046294335139,-0.0391517807544406,-0.0104679827087926,-0.785582317574685,-0.000526998428110929,0
0.2,0.000707419035784924,0.000405348160362673,-0.0350691719986282,-0.0202748307021107,0.000786885198979293,0.000213449073381904,-0.0391360771199808,-0.0104538534678621,-0.785585350510257,-0.000464000837824273,0
0.21,0.000706721260545856,0.000405341241915562,-0.0350532125866678,-0.0202744924976421,0.000786387368919773,0.000212958607500638,-0.0391245781154819,-0.0104427077891046,-0.78558795691311,-0.00041028686852265,0
0.22,0.000706135884703585,0.000405339071513395,-0.0350401598542948,-0.0202743880841047,0.000785972309154973,0.000212544536046108,-0.0391152962580158,-0.0104334660322961,-0.785590198457971,-0.000364226349903032,0
0.23,0.000705636947348345,0.000405338233962965,-0.0350291385666534,-0.0202743473363727,0.000785619256468369,0.000212190879260617,-0.0391074928306669,-0.0104256277094965,-0.785592126754356,-0.000324645125502216,0
0.24,0.000705209139784759,0.000405337793696909,-0.0350197170048413,-0.0202743237572909,0.00078531673243587,0.000211887440853123,-0.0391008301036214,-0.010418918759754,-0.785593785747047,-0.000290605211007857,0
0.25,0.000704841635365119,0.000405337491171853,-0.0350116313908818,-0.02027430429508,0.000785056904929486,0.000211626720232119,-0.0390951126969517,-0.0104131604478719,-0.785595213100502,-0.000261322424480478,0
0.26,0.000708490666935678,0.000407653800517694,-0.035186204933802,-0.0203901550645264,0.000789275442772455,0.000212567451995424,-0.0393004926573891,-0.0104546027225068,-0.785596244374443,-0.000276054985734069,0
0.27,0.000700144760012192,0.000402719111189973,-0.0348109158860997,-0.0201433441048809,0.00077988448345701,0.000210156037156122,-0.0388605992170419,-0.0103637833366581,-0.785597757331273,-0.00017207126354849,0
0.28,0.00069913210698896,0.000402365016277628,-0.0346446025900536,-0.020125625089551,0.000778918148190914,0.000209689837058822,-0.0387304572629032,-0.0102587013834277,-0.785598684380619,-0.000145956418004398,0
0.29,0.000702278833141879,0.000404527434369005,-0.0349185058145585,-0.0202337907805045,0.000782672538973567,0.000210384650991843,-0.0390006501667619,-0.010375819208161,-0.785599251892417,-0.000164504357464189,0
0.3,0.000691120326069974,0.000398906271615012,-0.0344000122174398,-0.019952623418858,0.000770806595537313,0.000206472058441414,-0.0384351639233324,-0.0102081436138671,-0.785598583542323,-7.43320153844515e-05,0
0.31,0.000699834434061293,0.00040358560917984,-0.0348034083742851,-0.0201866784371914,0.000780277823601344,0.000209322949126232,-0.0388859369356759,-0.0103277843426587,-0.785598871502254,-0.000148998938840183,0
0.32,0.000702467688709488,0.000404859800922885,-0.0349282798858339,-0.0202504175425905,0.000783041117877316,0.000210282951752184,-0.0390193193543421,-0.0103709625183137,-0.785599440307852,-0.000162815680805707,0
0.33,0.000703194985150327,0.000405206709059172,-0.03496544185682,-0.02026775680759,0.000783800873764856,0.000210551310830832,-0.0390578665052623,-0.0103849484501069,-0.785600031249007,-0.000158754045306547,0
0.34,0.000703333877179063,0.000405301108538096,-0.0349751683496105,-0.0202724834500322,0.000783965955951874,0.000210582314733234,-0.0390680927442613,-0.0103884606964276,-0.785600571808381,-0.000150214735603109,0
0.35,0.00070329947878065,0.000405326754095966,-0.034976500630691,-0.0202737713322097,0.00078395985822469,0.000210539485919935,-0.0390699504229298,-0.0103884731481227,-0.785601047060113,-0.00014127197042465,0
0.36,0.000703221190111279,0.000405333684946867,-0.0349754164143567,-0.0202741224135531,0.000783909475144589,0.000210478913795811,-0.0390694360931441,-0.010387442243455,-0.785601459176232,-0.000133073003794138,0
0.37,0.000703138670576161,0.000405335526734606,-0.0349737858580306,-0.0202742006763399,0.000783852490060958,0.000210418994195074,-0.0390683419035508,-0.0103862202564331,-0.785601814773869,-0.000125859049359132,0
0.38,0.000703062593208636,0.000405335989014541,-0.0349721438535983,-0.0202742258364958,0.00078379907552839,0.000210364643323182,-0.0390672015626226,-0.0103850296605943,-0.785602121048913,-0.000119601730030674,0
0.39,0.000702995596204429,0.000405336081101829,-0.034970654469281,-0.0202742334959501,0.000783751812376823,0.000210317007210196,-0.0390661563464478,-0.0103839610059477,-0.785602384667386,-0.000114202011836785,0
0.4,0.000702937446754062,0.000405336077092864,-0.0349693436500615,-0.0202742352952024,0.000783710730976158,0.000210275722790265,-0.0390652328953825,-0.0103830241717357,-0.785602611514612,-0.000109551085354611,0
0.41,0.000702887329958223,0.000405336050973951,-0.0349682059863422,-0.0202742356029702,0.000783675308376753,0.000210240157618755,-0.0390644305252634,-0.0103822120439179,-0.785602806702489,-0.000105547866838088,0
0.42,0.000702844139874003,0.00040533602232676,-0.034967217670557,-0.0202742358793061,0.000783644777176535,0.000210209512522257,-0.0390637334763132,-0.0103815065863018,-0.785602974643738,-0.000102103023502235,0
0.43,0.000702806886971173,0.000405335995996768,-0.0349663565281546,-0.0202742361286654,0.000783618441758203,0.00021018308152953,-0.0390631261082702,-0.0103808919705526,-0.785603119140202,-9.91389473058046e-05,0
0.44,0.000702774930965463,0.000405335972883971,-0.0349656142505844,-0.0202742363539423,0.000783595850607201,0.000210160408779778,-0.0390626025809924,-0.0103803621928924,-0.78560324346411,-9.6588628685086e-05,0
0.45,0.000702747398741965,0.000405335952872609,-0.0349649674851553,-0.0202742365591036,0.000783576386724091,0.000210140874886733,-0.039062146410344,-0.0103799006309938,-0.785603350431518,-9.43943384241916e-05,0
0.46,0.000702723708224071,0.0004053359356205,-0.0349644047449303,-0.0202742367467999,0.000783559638703355,0.00021012406668586,-0.0390617494992378,-0.0103794990674596,-0.785603442465606,-9.25063831202071e-05,0
0.47,0.000702703277335175,0.000405335920767469,-0.0349639119601182,-0.0202742369196846,0.000783545195055027,0.000210109571291236,-0.0390614019203325,-0.0103791474721501,-0.785603521650968,-9.08819994857601e-05,0
0.48,0.000702685950209132,0.000405335907984787,-0.0349634943000106,-0.0202742203256418,0.000783532945688074,0.000210097277337267,-0.0390610955051636,-0.0103788612774249,-0.785603589781552,-8.94843919547446e-05,0
0.49,0.000702670874425019,0.000405335896986063,-0.0349631203757829,-0.020274220474516,0.000783522287848632,0.000210086581187765,-0.0390608317601278,-0.0103785945323901,-0.785603648400565,-8.82819011622035e-05,0
0.5,0.000702657894116689,0.000405335887522555,-0.0349627919768325,-0.0202742206138171,0.000783513111403716,0.000210077371786364,-0.0390606001212074,-0.0103783602984347,-0.785603698835808,-8.72472874020296e-05,0
0.51,4.76326627978509,0.0477040591049887,1.83717008508313,-2.37719150550382,-0.721214588742398,4.70859117426624,-2.64239238217686,1.42968383706943,0.162003328559147,50.1175029440121,3699.35394625028
0.52,4.72411490092678,0.00704156058338068,3.79531463362746,-0.33184006739125,-3.17404050125469,3.49896814462904,-2.79963024559483,2.5839120508453,0.738234322473825,107.252458007189,3699.35394625028
0.53,4.70973644140205,0.0161578072335677,4.51495611747488,-0.775756617502237,-4.64336668572643,-0.78805091465651,-4.31626220332961,-1.53509207034321,1.74234059249056,167.680684984404,3699.35394625028
0.54,4.70523257516408,0.0871753131114552,4.74090695111603,-4.32259055217376,0.213835011057185,-4.70117939560356,4.6168594698386,-4.45483966452708,-3.07761339352308,230.213926286943,3699.35394625028
0.55,4.66330997943424,0.00864679827831449,6.83789221954891,-0.378064791733847,4.31733930202909,1.76270135943852,6.1822205226303,2.94615892349429,-1.18131465661256,287.298688812435,3699.35394625028
0.56,4.71509571781034,0.0240409864815498,4.24956883262091,-1.14374264580091,-4.29865775538388,1.93758795909307,-4.34772199275365,0.681392674405094,1.15242374987278,348.814519097277,3699.35394625028
0.57,4.67922682687508,0.0766900765643976,6.04399975291649,-3.77016011045516,3.23036326152692,-3.386118465702,6.92798869116751,-1.65741152607824,-2.36334262167876,407.809858731649,3699.35394625028
0.58,4.62773729786291,0.0418393700130297,8.61954795815196,-2.00507919462553,-3.42753418443074,3.10961612509861,-7.76968888977199,4.2366123419255,0.843033144985265,466.259565385371,3699.35394625028
0.59,4.65235524945376,0.0300852298216698,7.38980666166347,-1.40677534037999,4.52472699462565,-1.0826634344427,7.51641551148144,-0.302914532216873,-1.79919106546907,525.637672000416,3699.35394625028
0.6,4.62553349424198,0.0398494215627911,8.73213486990581,-1.88475177900289,-3.54937336168923,-2.9663271603254,-5.43076131182124,-7.09290492173025,2.27556380011591,584.889677481169,3699.35394625028
0.61,4.61205910848411,0.0383334756674043,9.40711629398713,-1.79696541724409,-2.18045321933973,4.06425668896282,-6.0923707766954,7.38958320872275,0.500726949922712,644.192636955283,3699.35394625028
0.62,4.62377561854398,0.0636417509511651,8.82271371402114,-3.07367286443445,3.4879779372618,3.03601072993506,4.52476965306062,8.17399545778434,-0.840802240096701,703.97578502367,3699.35394625028
0.63,4.66313010584809,0.100376140544899,6.85641311189825,-4.89213926113485,4.57115943707772,-0.927016264405759,7.61630928526922,3.59656227284737,-1.74935745246921,762.717949399339,3699.35394625028
0.64,4.60604678291844,0.113157888212763,9.71207520718945,-5.50812286782729,3.57928455725367,-2.90124003355522,11.0549942882917,-1.56554260338861,-2.22738345404326,821.105546535112,3699.35394625028
0.65,4.6288547554259,0.0751448679904795,8.57323437415177,-3.61201605882057,3.48505982617501,-3.04734328653588,8.87783857759633,-2.78046575836812,-2.27305495375558,880.371983117194,3699.35394625028
0.66,4.58863571296819,0.0944110424998492,10.5858309607104,-4.57866598166588,4.32857703667007,-1.52574964816826,11.4870100996539,1.03566320338587,-1.88910935534328,939.173324518394,3699.35394625028
0.67,4.57559047413929,0.101607417386199,11.2397530235347,-4.89982637751654,4.07189694855973,2.08949934065844,7.55035126025072,9.66087689636374,-1.07448033514354,997.273353075906,3699.35394625028
0.68,4.59238768984691,0.114835551281168,10.4017015111424,-5.55360885123218,-0.661424036071859,4.54595756053682,-7.22852826549054,9.31591888728057,0.169483756878401,1055.74470359236,3699.35394625028
0.69,4.59138653772806,0.133326211473979,10.4535948261917,-6.46944133942685,-4.45966943907084,-1.09997941422286,-8.34155959545231,-9.030487226611,1.84165015879264,1114.21217272511,3699.35394625028
0.7,4.52906213602987,0.104543589581847,13.5717079578123,-5.01896418902556,3.17686027609631,-3.22968914607945,13.2338456503897,-5.85205841773035,-2.34136163994221,1172.56304511146,3699.35394625028
0.71,4.56638829929668,0.132316284025465,11.7073568505526,-6.40923607224716,-0.716092196831977,4.51183129833201,-8.46753473283045,10.3170425512491,0.186369444157355,1231.11536508443,3699.35394625028
0.72,4.55752861342906,0.0856334973124093,12.152300972092,-4.08514739559329,-0.0849958600911752,-4.55754054966645,4.08684756418824,-12.1517293068567,-3.14145274522294,1289.67722789951,3699.35394625028
0.73,4.54207644595759,0.151368773064223,12.926984485984,-7.33579342665843,-0.934725546094028,4.44743286625677,-10.2033983368873,10.8079348387323,0.24047042409731,1347.35065392589,3699.35394625028
0.74,4.53974632329981,0.142495252138336,13.0455555669892,-6.91767116271006,3.48781619712677,-2.90942258048849,14.5373605845824,-2.58956397886297,-2.23464856805483,1405.95695561674,3699.35394625028
0.75,4.57427971275355,0.130564282693837,11.3210284856791,-6.26761682067492,-4.21541124088754,-1.78083968751346,-7.69583615396439,-10.4030193922582,1.99904840006563,1463.53162714988,3699.35394625028
0.76,4.49650306931613,0.13715878291742,15.2121280042642,-6.61127460015999,-1.51871055850143,4.23448587476651,-11.7219419438941,11.7351551894645,0.374856484238318,1521.61386420931,3699.35394625028
0.77,4.52231934918,0.101081157254189,13.9235645517976,-4.81205346170635,3.39050100130587,2.99434344330499,6.9624966484194,12.9824939348009,-0.825017375727241,1579.71248560018,3699.35394625028
0.78,4.51093719111279,0.136918159081654,14.4950153016819,-6.60257055697533,4.50479526540603,-0.272250879202042,14.686658828364,6.16453234358199,-1.60081553103979,1637.54887507943,3699.35394625028
0.79,4.5423026782691,0.15277372869679,12.9291152751001,-7.3825292844613,4.23830015344892,1.64093425903215,8.99787156513696,11.8617902413613,-1.16777984481531,1695.27501989114,3699.35394625028
0.8,4.52958535332984,0.138553035430594,13.5674501814845,-6.64952261832529,4.09406848805251,1.94292141680066,9.04038628757118,12.1063318660186,-1.09712009874636,1752.77589034099,3699.35394625028
0.81,4.46807746059714,0.124859981731733,16.645292333953,-5.93555725243102,2.64024279363942,3.60671931255668,4.56755387726863,17.071439551423,-0.603966033038118,1810.23509611068,3699.35394625028
0.82,4.47492190935477,0.150156572798798,16.3056279447994,-7.24271122011232,-1.22803298008979,4.30574129401545,-11.8899427032643,13.3026174494066,0.311374302589871,1868.04556436271,3699.35394625028
0.83,4.52043522580848,0.17826427020229,14.032551059017,-8.60382619732823,-4.52064141634051,-0.172956542598989,-13.3227992083931,-9.66650586875062,1.64845174546691,1925.38893442591,3699.35394625028
0.84,4.46285436669056,0.179068809030659,16.9142437268517,-8.6750970245807,0.994958027286655,-4.35421557350971,12.7987600930652,-14.0549169089466,-2.8768422875384,1982.95048684949,3699.35394625028
0.85,4.42217251016742,0.168893965171887,18.9510615511539,-8.10213109757655,2.97258230006763,3.27839737531565,5.9790319098046,19.7240573832941,-0.698340416923183,2039.97415605226,3699.35394625028
0.86,4.44175928109894,0.219176589985799,17.9744978928594,-10.6304521589978,-4.27426898590998,-1.22796112516415,-13.5748064663527,-15.8686394188733,1.89985810556668,2097.35197267179,3699.35394625028
0.87,4.44445610627523,0.186539325029518,17.842433648937,-9.00527576550164,4.38913425664113,0.723524344835024,15.6316455293586,12.4538784390219,-1.3654745376547,2154.6966773031,3699.35394625028
0.88,4.46526924076925,0.206481316346238,16.8046057966543,-9.99568813839254,-4.01540011670368,-1.96413488063731,-9.93606510638826,-16.8399277772371,2.07193541606378,2211.88976463278,3699.35394625028
0.89,4.44746663114328,0.217994791077047,17.6975744808175,-10.5538262010323,1.74924020384565,4.09483087237064,-3.74948914131508,20.2615083635162,-0.35474151417625,2268.9939878625,3699.35394625028
0.9,4.42178431432993,0.225183543744404,18.9846506353105,-10.8823237852395,4.42009123111423,-0.256276529269887,19.060716847134,10.7485349692396,-1.57782941772664,2325.87595747014,3699.35394625028
0.91,4.3404453339497,0.246091844237328,23.0546521821371,-11.9196816656917,-0.364124168700498,-4.33214040430063,11.2878437023415,-23.3705024079983,3.11437469547744,2382.83491352612,3699.35394625028
0.92,4.38234682219716,0.176083992468507,20.9626178374756,-8.45621464783365,-4.14963465050984,-1.42003574240695,-16.4880640633478,-15.4622978956307,1.94067087319713,2439.88397782208,3699.35394625028
0.93,4.33578988750453,0.22890616141126,23.293545234767,-11.0367000828209,-3.92902280476668,1.84776940632266,-25.736050807678,-1.43306913542001,1.18394577309455,2496.52811819241,3699.35394625028
0.94,4.37809422090489,0.206035456216898,21.1814502413115,-9.92479561407575,-3.13459492259498,3.0634089324772,-22.42325643703,6.65980277977707,0.843908807034644,2553.4809348848,3699.35394625028
0.95,4.29600631853026,0.190488547865362,25.289012489927,-9.1812520112819,-3.30249476956578,2.75417582458173,-25.6821289567791,8.01609589873515,0.91999527434903,2610.32552838427,3699.35394625028
0.96,4.32301271324381,0.263526920308125,23.9419280107632,-12.7679167535556,-4.22667174612371,0.945056245476566,-25.6622898230396,-8.81376742015659,1.41170478232027,2666.84341795906,3699.35394625028
0.97,4.31675843188519,0.30372145411205,24.2579044042929,-14.7468114867748,-3.37126617294699,-2.71315581419187,-7.75469366416556,-27.3089564298828,2.31869312608424,2723.40063901017,3699.35394625028
