t,iq,id,vq,vd,ia,ib,va,vb,theta_e,omega,r
0,0,0,0,0,0,0,0,0,0,0,0
0.01,0.000481042110898673,0.000246282013092068,-0.0218087055195095,-0.0123176849562477,0.00053649005752907,-6.50750382480723e-05,-0.0247202613681237,0.00403158492527538,-1.21832194736623,-0.00538176866086,0
0.02,0.000668339953741643,0.000328375174925669,-0.0309184986353155,-0.0164235451329298,0.000740610048752305,-7.74939027404925e-05,-0.0346872227423809,0.00474162113794872,-1.2183649498218,-0.00603538061995194,0
0.03,0.000740960087478487,0.000364987676387483,-0.0348175874466187,-0.0182547127110982,0.000821401027682399,-8.68228476448404e-05,-0.0389785317954744,0.00511595453819359,-1.21840617085822,-0.00522637337248457,0
0.04,0.000727822336571129,0.00036699473258793,-0.0348027900153477,-0.0183550929141417,0.000809760361372657,-9.32665240521338e-05,-0.0389991244374204,0.00521650475450382,-1.21843773856057,-0.0036837339410742,0
0.05,0.00072368288529412,0.00037708935570428,-0.0350195625219452,-0.0188599679066121,0.000809356672492361,-0.000104187702466198,-0.0393766912337974,0.00561643446904259,-1.21846019982792,-0.00265603568010483,0
0.06,0.000709251777264897,0.000380252514943212,-0.0346628823735259,-0.01901816848404,0.000796901927917682,-0.000112148900820002,-0.0390964250070215,0.00588860752628085,-1.21847563971886,-0.00179404031127156,0
0.07,0.000700585516414384,0.000385045194780188,-0.0344518357950457,-0.0192578787983899,0.000790420708972097,-0.000119645186534895,-0.0389810020819831,0.00618678932457701,-1.21848509392003,-0.00126850777841508,0
0.08,0.000685769951812209,0.000382745128740677,-0.0339227207763973,-0.0191428380902486,0.000775720656866452,-0.000122603926910673,-0.0384446480632783,0.00626165076585739,-1.21849173782005,-0.000782039385851862,0
0.09,0.00067600332379267,0.000382023717463077,-0.0335640475739027,-0.0191067593536719,0.000766304484945742,-0.000125299843715336,-0.0380955309051339,0.00635169800906185,-1.21849556019634,-0.000485476185664088,0
0.1,0.000669881561253029,0.000381797363576331,-0.0333345316356584,-0.0190954419175121,0.00076048033678332,-0.000127201376983747,-0.0378761926820392,0.00642035274006254,-1.21849769119355,-0.000311053748458037,0
0.11,0.000666194924478722,0.000381726298581354,-0.0331939598401309,-0.0190918831366234,0.000756995456530872,-0.000128407644715753,-0.0377430190992391,0.00646556113923454,-1.21849884215781,-0.000211741215347441,0
0.12,0.000664049796332504,0.00038170396664555,-0.0331109341408095,-0.0190907716842681,0.000754974293610045,-0.000129127325342862,-0.037664705223019,0.00649318901934669,-1.21849944296439,-0.00015693821827086,0
0.13,0.000685826771794964,0.000393796898163009,-0.0340806592683624,-0.0196955874449801,0.000779586360653528,-0.000132964146281983,-0.0387835594824584,0.00672629280062105,-1.21850053253644,-0.000402169043822641,0
0.14,0.000698105669314502,0.000400727533017061,-0.0348206713348089,-0.02004221881843,0.000793502364534533,-0.000135233423106468,-0.0395977185267374,0.00679635011236859,-1.2185020162552,-0.000502815946185573,0
0.15,0.000675156000142643,0.000387660300807785,-0.0336657210707286,-0.0193886636596091,0.000767453125173594,-0.000130888632097211,-0.0382881815022947,0.00658150522030339,-1.21850340524258,-0.000134565937580523,0
0.16,0.000665083341971107,0.000383563845719599,-0.0332209426794393,-0.0191837781553448,0.000756585641821661,-0.000130519125418348,-0.0378000255962609,0.00654266319980589,-1.21850311666659,-1.18155128074747e-05,0
0.17,0.000661172522241782,0.000382279723460833,-0.0330368898848273,-0.0191195620639138,0.00075247201999381,-0.000130662734791851,-0.0376051237033618,0.00654587030370385,-1.21850236351836,8.09577982383025e-06,0
0.18,0.000660018358338141,0.000381877244012583,-0.0329733985064872,-0.019099426065397,0.000751249961024972,-0.000130682664871813,-0.0375385886150367,0.00654885103557991,-1.21850162393435,-8.41581045883949e-06,0
0.19,0.00065997131203043,0.00038175113317072,-0.0329610681178041,-0.0190931290232822,0.000751162364901463,-0.000130580097778863,-0.0375248464984426,0.00654717363711562,-1.21850104483635,-3.28496161859023e-05,0
0.2,0.000660281323851149,0.000381711641673934,-0.0329673784176297,-0.0190911509845628,0.000751439763145815,-0.000130435755755075,-0.037530089371252,0.0065431244396242,-1.21850063834818,-5.46036099509228e-05,0
0.21,0.000660637554051781,0.000381699289052329,-0.0329781819344623,-0.0190905302778105,0.000751769887191379,-0.000130301042969097,-0.0375400169349472,0.00653880405841712,-1.21850037180445,-7.09225796979418e-05,0
0.22,0.00066093307413236,0.000381695433462819,-0.0329881080724176,-0.0190903360361261,0.000752045948582009,-0.000130195328755711,-0.0375492675025151,0.006535190448203,-1.21850020540825,-8.20915385414606e-05,0
0.23,0.000661147103635419,0.000381694234665319,-0.0329956543461739,-0.0190902758737376,0.000752246432359815,-0.000130120276760303,-0.0375563301991899,0.00653252635945755,-1.21850010553682,-8.92877087630341e-05,0
0.24,0.000661290469083169,0.000381693864474389,-0.0330008589067128,-0.019090256644171,0.000752380872512472,-0.000130070416909464,-0.0375612088536538,0.00653071028091746,-1.21850004760367,-9.37191297165518e-05,0
0.25,0.000661381273027637,0.000381693751516426,-0.0330042175186767,-0.0190902506540099,0.000752466064794315,-0.000130038954130286,-0.0375643593348874,0.00652954453331249,-1.21850001504695,-9.63482975559455e-05,0
0.26,0.000664580238203237,0.000383596446446549,-0.0331390664023283,-0.0191854110332731,0.000756125126169531,-0.000130720772304182,-0.0377237634153653,0.00657232016224903,-1.21849974667869,-0.000150913631141386,0
0.27,0.000659058445520448,0.000379717700671131,-0.0329087056077651,-0.0189914231042528,0.000749604011308201,-0.000128986018798371,-0.0374406104860517,0.00646975600274454,-1.21850035011288,-5.06593316553574e-05,0
0.28,0.000657994971095204,0.000379346840691532,-0.0326886167914871,-0.0189728741683999,0.000748477884899275,-0.000129004896596725,-0.0372276384539068,0.0065282889868503,-1.21850035664515,-3.60974556123765e-05,0
0.29,0.000659872664488667,0.000380957968826613,-0.032938877794995,-0.0190534509556433,0.000750796221410995,-0.000129868938806954,-0.0374903344806655,0.00651755201287603,-1.21850005004831,-7.45780532433945e-05,0
0.3,0.00064766621294229,0.000375510551448589,-0.0323756131154613,-0.0187810013944845,0.000737460024621287,-0.000128966700050059,-0.0368676652372899,0.0064561287109836,-1.21849832697819,1.47376468862443e-05,0
0.31,0.000656847190208149,0.000379755541473333,-0.0327717344180391,-0.0189933104122991,0.000747541917998454,-0.00012978283168138,-0.0373127177585354,0.00651870467626146,-1.2184980684599,-0.000119718863238494,0
0.32,0.000660707886100535,0.000381086278238217,-0.0329459250105439,-0.019059869293174,0.000751624634920532,-0.000129699924431244,-0.0374991743669157,0.00652108227772917,-1.21849839115744,-0.000157588853403894,0
0.33,0.00066208632453741,0.000381503403787744,-0.0330137876948244,-0.0190807367292179,0.000753062287687774,-0.00012961612208189,-0.0375700666580803,0.00651726809300233,-1.2184988277642,-0.000157200968904124,0
0.34,0.0006623959964455,0.00038163412701875,-0.0330340014190705,-0.0190872773757775,0.000753397997749639,-0.000129632249071077,-0.0375912933113177,0.00651644646701698,-1.21849920782307,-0.00014490989600825,0
0.35,0.000662305609649694,0.000381675077272801,-0.0330350206425736,-0.0190893133790648,0.00075332725577607,-0.000129702085139551,-0.0375929506308817,0.0065180163396157,-1.21849948987962,-0.000131486364122071,0
0.36,0.000662108693840811,0.000381687894728993,-0.0330297907319611,-0.0190899556306372,0.000753146831845556,-0.000129782206497027,-0.0375882622888473,0.0065204309582775,-1.21849968165097,-0.000120543774412329,0
0.37,0.000661920159448852,0.000381691900310087,-0.0330237097902745,-0.0190901570121868,0.000752971242897336,-0.000129851113267312,-0.0375826235074848,0.00652272284838694,-1.2184998046266,-0.000112690008003751,0
0.38,0.000661774058289185,0.000381693148474257,-0.0330186398689984,-0.0190902200573926,0.000752834535750723,-0.000129902754388512,-0.0375778862285235,0.00652453425421546,-1.2184998800725,-0.000107462985764251,0
0.39,0.000661672078489886,0.000381693535388591,-0.0330149499850884,-0.019090240787799,0.000752738946974966,-0.000129938339675351,-0.037574429828931,0.00652582859756307,-1.21849992469052,-0.000104163053600028,0
0.4,0.000661605488932321,0.000381693654229466,-0.0330124672157561,-0.0190902468710361,0.000752676484849162,-0.000129961447435493,-0.0375721014767118,0.00652669195627829,-1.21849995022565,-0.000102163933136736,0
0.41,0.000661564045079418,0.000381693690152591,-0.0330108807499361,-0.0190902485200985,0.000752637596915652,-0.000129975792181378,-0.0375706129237285,0.00652724145263444,-1.21849996438859,-0.00010099463336675,0
0.42,0.000661539248615907,0.000381693700714726,-0.0330099049869856,-0.0190902486682978,0.0007526143260366,-0.00012998436394073,-0.037569697090862,0.00652757856851533,-1.21849997199668,-0.00010033230696321,0
0.43,0.000661524871323683,0.000381693703672297,-0.0330093190197423,-0.0190902487878378,0.000752600832264439,-0.000129989330630495,-0.0375691471275504,0.00652778101939214,-1.21849997594453,-9.9968717126778e-05,0
0.44,0.000661516838666489,0.000381693704429165,-0.0330089751635928,-0.0190902488899074,0.000752593292955814,-0.000129992104522118,-0.0375688244124527,0.00652789983804845,-1.21849997791172,-9.97755212048291e-05,0
0.45,0.000661512473091927,0.00038169370458905,-0.0330087729511535,-0.0190902489818762,0.000752589195436614,-0.000129993611732191,-0.0375686346449849,0.00652796973357485,-1.21849997884306,-9.96765174379666e-05,0
0.46,0.000661510202993155,0.000381693704607787,-0.0330086531224866,-0.0190902490680706,0.000752587064714059,-0.0001299943953651,-0.0375685222029212,0.00652801117724456,-1.21849997925311,-9.96279359191821e-05,0
0.47,0.000661508980632278,0.000381693704603214,-0.0330085740525973,-0.0190902491513746,0.000752585917404724,-0.000129994817261962,-0.0375684480169794,0.00652803854483678,-1.21849997941337,-9.96054130934115e-05,0
0.48,0.00066150845676333,0.000381693704600072,-0.0330085241010019,-0.0190902492327532,0.000752585425703003,-0.000129994998058229,-0.0375684011610366,0.00652805585901988,-1.21849997946137,-9.95958116613891e-05,0
0.49,0.000661508223932687,0.000381693704600364,-0.033008485968121,-0.0190902493133298,0.000752585207171857,-0.000129995078399996,-0.0375683653979525,0.0065280690926687,-1.21849997946449,-9.95922864374982e-05,0
0.5,0.000661508107517366,0.000381693704602539,-0.0330084524366547,-0.0190902493935855,0.00075258509790873,-0.000129995118562677,-0.0375683339536642,0.00652808073771676,-1.21849997945261,-9.95914094189141e-05,0
0.51,4.73908905771346,-0.0300460119103623,3.04608437376309,1.51563463441836,-1.02242400430111,4.62758219972374,0.843699537831932,3.29605058319716,0.21110801249402,65.300743153096,4904.57533197677
0.52,4.74797187612826,0.0677532829329022,2.60263290721426,-3.35987140520609,-3.85888011533067,2.7671052924236,-4.05524718563747,-1.2717720600074,0.962971489888019,140.307653048685,4904.57533197677
0.53,4.70853453624438,0.010911560098037,4.57533751938015,-0.510156100010309,-3.56224909173153,-3.07909044193374,-3.12002332570236,-3.38517755955262,2.28588964557132,222.014044682998,4904.57533197677
0.54,4.68524354373343,0.0456809395076259,5.74092233670401,-2.22751729738098,4.05513968198172,-2.34721877377191,6.09345288063551,-0.888737631516365,-2.08575126316278,297.963912724607,4904.57533197677
0.55,4.6503828628608,0.0133393259952124,7.4851336843664,-0.606863404762907,-1.72740043377677,4.31767604738883,-3.36308445634889,6.71454930761115,0.383440694483996,377.075336595927,4904.57533197677
0.56,4.67158558907978,0.0333403948547162,6.42629500390245,-1.58833542660251,1.25802379573535,-4.49913320845144,3.30120560812642,-5.73777992236168,-2.86180454551907,453.18807425404,4904.57533197677
0.57,4.63363351456099,0.0530339804109148,8.32538038820714,-2.54415619672303,-3.09253406005629,3.45102959096743,-7.50182682196087,4.41670507222032,0.742111842398177,529.632190195171,4904.57533197677
0.58,4.60138813993947,0.0103567409635364,9.93929486357877,-0.41828257482432,4.51526815219694,0.886134070113002,9.6674363325167,2.34631998122612,-1.3747556329457,606.76223728011,4904.57533197677
0.59,4.55469273204876,0.0496899697878483,12.2758005254058,-2.37902621565986,0.909187397005297,-4.46330295337456,4.90720374143749,-11.5010606343229,-2.92973005079673,683.716203331703,4904.57533197677
0.6,4.59092769768311,0.0994086064765585,10.4658995716648,-4.82846905509806,-3.31177122160395,-3.1809857862228,-3.96993777668147,-10.8207560414922,2.35770382078847,759.046236221721,4904.57533197677
0.61,4.57360992694808,0.104429406785169,11.3338130431187,-5.09684429378296,-4.33451081206438,-1.46315730014806,-8.91302924082516,-8.65973727105108,1.9191750811463,835.817019508981,4904.57533197677
0.62,4.51603867056304,0.0579669889586657,14.2145079444459,-2.71912351915745,-4.05836904677836,-1.98181889333537,-11.4673815522928,-8.82864820622537,2.03789863753215,910.718193065921,4904.57533197677
0.63,4.55079931531987,0.10557250143031,12.478716076849,-5.09846101480554,-1.99301848461427,-4.09252944783051,-0.567558700717352,-13.4681304109866,2.71160210145193,986.618455566365,4904.57533197677
0.64,4.50381361880765,0.135833506540292,14.8303701189033,-6.60624221586143,3.12738129117431,-3.24380549880371,15.2259832839495,-5.63486886406232,-2.3443154829925,1062.16160038383,4904.57533197677
0.65,4.47697803557342,0.13978841851224,16.1746392369959,-6.78288984976902,2.51534631450921,3.7061983286168,2.93251555150322,17.2923943310711,-0.565064151020853,1137.22739700485,4904.57533197677
0.66,4.45407438158083,0.157304315318037,17.3224744517546,-7.6313390646692,-4.40099674144966,-0.70338533253248,-15.5286270655647,-10.824379821045,1.76458234850105,1212.10055738097,4904.57533197677
0.67,4.41730659809525,0.127940264928581,19.1635678528325,-6.21116215831784,4.39798287546091,-0.432102904547532,19.5461027412596,4.8755241600424,-1.63977693650781,1287.60634660041,4904.57533197677
0.68,4.40287886723122,0.10420715884116,19.8877455150859,-4.95506660091791,-4.32248302447904,-0.844003527572929,-18.3590944614383,-9.11146295873148,1.78729260474525,1361.70013060939,4904.57533197677
0.69,4.41907214284692,0.152697111593097,19.0810585506714,-7.40996191738211,2.33620132780648,3.75415481400671,3.09325885378082,20.2342798412671,-0.522113247849947,1436.56129549728,4904.57533197677
0.7,4.34577067922744,0.15288828138076,22.7492237881929,-7.43428876554241,3.17779617766375,-2.96828386045576,22.0410659538841,-9.32669523632486,-2.28695248125617,1510.91155106253,4904.57533197677
0.71,4.34508686123432,0.0869127645722085,22.7865801601036,-4.12666640500319,-1.63757872654064,-4.0256266064674,-4.30944179967959,-22.7527212083782,2.77524770049269,1584.96708105025,4904.57533197677
0.72,4.31934440038223,0.107346909282164,24.0769695577237,-5.13685252814742,-3.7894277417551,-2.07569188418286,-18.2437236219906,-16.5304042716418,2.09676459364364,1658.91235162649,4904.57533197677
0.73,4.31869165303319,0.183226470313788,24.1130134485921,-8.89342186841394,-4.06607488814675,-1.4668689571276,-18.9450247549983,-17.3671070456213,1.95942371581579,1732.43629144475,4904.57533197677
0.74,4.28836197698524,0.153152765433805,25.6329449867295,-7.32676398964318,-3.12425451361777,-2.94151966666072,-12.8141304441209,-23.3779254899507,2.36177644769687,1805.75847239614,4904.57533197677
0.75,4.32774883863408,0.175154653734443,23.6671786756164,-8.49026856706599,4.21605076432554,-0.992474239289606,24.8476038241561,3.84923252119745,-1.76154050417095,1879.60606817189,4904.57533197677
0.76,4.2803820274149,0.233014785586974,26.0391568165968,-11.2950353970257,1.41617661434678,4.04603633052101,-3.59420759906048,28.1548785128659,-0.282304720590606,1952.61527988106,4904.57533197677
0.77,4.25929897274317,0.231642158034091,27.0970387306927,-11.2259483495789,-4.24035594698174,-0.46332199547,-24.9135785223615,-15.4785344761771,1.7339609862145,2025.70106609085,4904.57533197677
0.78,4.30446878681311,0.204439728275776,24.8424073676495,-9.86286323763489,3.83361806662936,-1.96815133014684,26.6966929423795,-1.30685156189978,-1.99764146043947,2098.71184258293,4904.57533197677
0.79,4.2703085925854,0.196577928084843,26.5543789985963,-9.4508678661779,-3.6909226326697,2.1566799663755,-27.9068054961883,3.95779666265953,1.08798720118225,2171.44936098159,4904.57533197677
0.8,4.22046420191647,0.260060460248589,29.0506987882145,-12.6003219161589,4.21877552314994,-0.286151372378422,29.1280534935484,12.4204553922707,-1.57697954468033,2244.00123673197,4904.57533197677
0.81,4.20141525049227,0.237686326107316,30.0073834248536,-11.5833553972137,-2.46433819013375,-3.41107346466413,-6.41328661717083,-31.5196278060252,2.57246904209138,2316.64670160503,4904.57533197677
0.82,4.16658084426825,0.249997532751892,31.7534043354631,-12.0988925336134,-3.29184279273191,2.56645002408856,-33.0206211876466,8.01875699926593,0.968523126313962,2388.54755578666,4904.57533197677
0.83,4.14455152783214,0.154861190539532,32.8592665302558,-7.41889574278436,0.595310975682498,4.10449682633852,-3.87771387731956,33.4624378375864,-0.106686715443659,2460.89132979893,4904.57533197677
0.84,4.08916036101366,0.298341314490861,35.6333501185431,-14.5701204789261,2.72614457439111,3.06241338776061,10.134548801147,37.1391299310884,-0.654541373133268,2532.59983271136,4904.57533197677
0.85,4.04207143022232,0.27382956212593,37.992441862403,-13.2462570338332,-1.84972331421858,3.60442058269423,-30.9405161155729,25.7210697012473,0.541778921247545,2604.10379424102,4904.57533197677
0.86,4.09727423089223,0.367713797589858,35.2370821826772,-17.92560063584,-3.35703112279856,2.37764833409681,-39.4722313523126,2.21857408573275,1.04405489197986,2675.53889209273,4904.57533197677
0.87,3.93264804814481,0.19306260555381,43.4732429303018,-9.33128269035955,-3.5466755219942,-1.7099960765825,-33.7266866609851,-28.97423500968,2.06910745010532,2746.94026671763,4904.57533197677
0.88,4.02432650964149,0.24454090265502,38.8942672000865,-11.8622770938776,1.62042859432664,-3.69177671046925,28.3164722244527,-29.183129366904,-2.66729220683345,2818.05602777815,4904.57533197677
0.89,4.02504752956253,0.343375407422935,38.8632214617182,-16.6912895437232,2.55627202179194,3.1280005812442,8.17002286497599,41.4993958438039,-0.600050918412268,2888.74678397335,4904.57533197677
0.9,3.96640079994129,0.194027195085753,41.8005789635772,-9.3323819146385,-3.70783115721313,-1.42195990372699,-34.4875841315214,-25.3966197487414,1.98587844740737,2959.59447878574,4904.57533197677
0.91,3.85997536563112,0.241607462250301,47.1269592101539,-11.6583206159726,3.67840359665758,1.19462586996544,39.538732929778,28.1701139913918,-1.1942632937868,3029.94268375877,4904.57533197677
0.92,3.95818435081058,0.280441397616303,42.2216093104802,-13.511239011755,-2.81320659530203,-2.79852450134851,-17.5718850861059,-40.6994683862122,2.42431099576155,3100.00105957179,4904.57533197677
0.93,3.94878869045936,0.302779288466232,42.696492312894,-14.6251444227703,-3.91249671661471,0.613984415032659,-43.7190003377521,-11.2042096856286,1.49166353963559,3169.96394054338,4904.57533197677
0.94,3.90125191115899,0.29022579198305,45.0784658702991,-13.9841531864668,0.860391322162999,3.81624478478523,-7.20772618396319,46.6441133351177,-0.147491234151315,3239.68968620228,4904.57533197677
0.95,3.82256835452211,0.176225790239961,48,-8.44697256419032,3.70958185562172,0.93919476711793,43.4917922864235,21.9958029909067,-1.27675746048079,3309.25984652503,4904.57533197677
0.96,3.89713784257137,0.118500080713116,45.2944131556359,-5.48490401888214,3.65142763751734,-1.36704127264153,44.6482232549238,-9.39170886411356,-1.89863049379718,3378.19028980505,4904.57533197677
0.97,3.94538040895787,0.438801276026825,42.8873728335713,-21.379584346738,3.37160524109391,-2.09543580895703,47.9138685239539,0.821327263817299,-2.01610742727824,3446.83119087157,4904.57533197677
0.98,3.86826782557547,0.352734250974983,46.7480784855184,-17.1593081238694,3.84034435730022,-0.582814412609733,47.68826274872,14.3406517769286,-1.63047292490481,3515.36833796184,4904.57533197677
