t,iq,id,vq,vd,ia,ib,va,vb,theta_e,omega,r
0,0,0,0,0,0,0,0,0,0,0,0
0.01,0.000773940130123743,0.000389495315688796,-0.0316421455603121,-0.0195009241645186,-7.12877405454262e-05,-0.000863485948934549,0.00623085528566824,0.0366427054314954,-2.75770944690955,-0.02835088414381,0
0.02,0.000801307147324752,0.000430981957463904,-0.0371492490763344,-0.0215780394851795,-9.96393363719285e-05,-0.000904384096863999,0.00610055489260722,0.0425260123331801,-2.75785768554388,-0.0154092890832545,0
0.03,0.000802352763694683,0.000446632759886312,-0.0387563282941,-0.022361637838199,-0.000113827879655539,-0.00091120469348291,0.00622877533837637,0.0443091208153678,-2.75793170225395,-0.00814948258097633,0
0.04,0.000765381213912931,0.00043763489559757,-0.038071471344556,-0.0219111260520906,-0.000119341173190741,-0.000873550450081153,0.00606826160249541,0.0435052936587449,-2.7579522040539,-0.00378294711691526,0
0.05,0.000781454154804963,0.000446828172572517,-0.0388938484453962,-0.0223714085348891,-0.000121864125932167,-0.000891894134231874,0.00618796983407366,0.0444400764632663,-2.75796793883516,-0.00324168103749343,0
0.06,0.000778580063283821,0.000447104892679425,-0.0389760501346136,-0.0223852738330793,-0.000123203540113502,-0.000889331539812021,0.00617041500470647,0.0445214436799566,-2.75797590074058,-0.00227194253006168,0
0.07,0.000802585336423845,0.000459475673051558,-0.0397450507131773,-0.0230046419578226,-0.000125692346098391,-0.000916221889337425,0.00645703523495036,0.0454663535350621,-2.75797785122526,-0.00359647574943876,0
0.08,0.00077707165151077,0.000447486399258406,-0.0390567929937989,-0.0224043695027183,-0.000124127190621333,-0.000888074810841623,0.00615816923278098,0.0446034281583291,-2.75798187934047,-0.0015848171109039,0
0.09,0.000775523057385321,0.000447123907576452,-0.0389979426334102,-0.0223862163743616,-0.000124370148215904,-0.000886503168350495,0.00616333680783157,0.0445420643054598,-2.75798132533302,-0.00154174190695798,0
0.1,0.00077559721281152,0.000447113005551875,-0.0389923069029261,-0.022385667494261,-0.000124331959507568,-0.000886567899317158,0.00616492080073751,0.0445366350131689,-2.75798095900858,-0.00158269076797516,0
0.11,0.00077567627811369,0.000447112699937416,-0.0389915053064675,-0.02238566965182,-0.000124301954598702,-0.000886641121850647,0.00616521630835986,0.0445358933860749,-2.75798081287231,-0.00160216149711135,0
0.12,0.000775709223649592,0.000447112699580374,-0.03899126926276,-0.0223856695627078,-0.000124289575821829,-0.000886671679441231,0.00616530216709718,0.0445356747976292,-2.75798075891034,-0.00160958501047679,0
0.13,0.000819363704109001,0.000468528171943814,-0.0404939990546767,-0.0234578779301244,-0.000127817746986197,-0.000935167445472525,0.00659754058992993,0.0463304268768269,-2.75798916579265,-0.003537298526707,0
0.14,0.000856904478993519,0.000493254677474662,-0.0432998209333952,-0.0246958577575709,-0.00013669867967053,-0.000979233850490332,0.00669551172751915,0.0493956476418006,-2.75799088027905,-0.00574091205616368,0
0.15,0.000775817230548067,0.000448506278437795,-0.0392348564252119,-0.0224554252971263,-0.000125551471240209,-0.0008872919953898,0.0061393262049941,0.044787596025356,-2.75799206009188,-0.000497823823358121,0
0.16,0.000773343727116527,0.000447154068821972,-0.039019194392843,-0.0223877249982902,-0.000125217433609951,-0.000884493004977803,0.00615696597181785,0.0445623106636922,-2.75798545710992,-0.000994994240676939,0
0.17,0.0007746667052333,0.000447113665370681,-0.0389960700548826,-0.0223857136019062,-0.000124682190097028,-0.000885705078133139,0.00616362328985928,0.044540132477717,-2.75798248965945,-0.00137235724078543,0
0.18,0.000775328351591118,0.000447112628288625,-0.0389922047308422,-0.022385652060503,-0.000124432600372494,-0.000886318386992339,0.00616496299213898,0.0445365319625515,-2.7579813690822,-0.00152508635438485,0
0.19,0.000775582602652632,0.000447112664294149,-0.0389911250751444,-0.0223856508262856,-0.000124337112176204,-0.000886554223183966,0.00616534771702147,0.0445355328369399,-2.75798096007856,-0.00158163950979587,0
0.2,0.000775675579621762,0.00044711268977753,-0.0389907016779454,-0.0223856703733484,-0.000124302205750257,-0.000886640470442938,0.00616551771043533,0.044535148442158,-2.75798081191011,-0.00160219207279997,0
0.21,0.000775709340064914,0.000447112699369907,-0.0389904982775416,-0.0223856702800212,-0.0001242895315325,-0.000886671787389912,0.00616559136439681,0.0445349601206072,-2.75798075832035,-0.00160962998373385,0
0.22,0.000775721563673641,0.000447112702849809,-0.0389903700782814,-0.0223856702974173,-0.00012428494261815,-0.000886683126283761,0.00616563849889924,0.0445348413650133,-2.75798073894094,-0.00161231916868524,0
0.23,0.000775725987455847,0.000447112704109108,-0.0389902685149042,-0.0223856703549131,-0.000124283281869324,-0.000886687229883175,0.00616567625229704,0.0445347472481323,-2.75798073192893,-0.00161329123419063,0
0.24,0.000775727617270344,0.000447112704565573,-0.0389901778765106,-0.0223856704267732,-0.000124282670044716,-0.000886688741727571,0.00616571012919277,0.0445346632400068,-2.7579807293875,-0.00161364259127546,0
0.25,0.00077572819934695,0.00044711270473166,-0.0389900892277406,-0.0223856705040208,-0.000124282451522468,-0.000886689281675428,0.006165743338365,0.0445345810689532,-2.75798072846146,-0.00161376958928919,0
0.26,0.000786054991444739,0.000451599213150535,-0.0393068624820123,-0.0226102978553909,-0.000124577995504301,-0.000897944665293748,0.00625549268479904,0.0449124016120241,-2.75798089830774,-0.00224980974413322,0
0.27,0.000754904739535827,0.000436106380636516,-0.0384167575882879,-0.0218346005395758,-0.000121872095826231,-0.000863259597840915,0.00586942825581546,0.0437966534825431,-2.7579834757671,-2.53728863582688e-05,0
0.28,0.000754251546909837,0.000433750854501891,-0.0368643074764815,-0.0217166810982687,-0.000119931784551722,-0.000861772340500229,0.00634109199200925,0.0423129053126035,-2.75798294740319,-3.6380947793431e-05,0
0.29,0.000774671572271756,0.000446708766541337,-0.0389373670218645,-0.0223654386084756,-0.000124302492567986,-0.000885558387308405,0.00616667190520905,0.0444781244249168,-2.75797977345399,-0.00164147522997333,0
0.3,0.000771600417684366,0.000444766013028538,-0.0386511088449163,-0.0222681682160948,-0.000123642381498269,-0.000881984451344482,0.00618320880131087,0.0441763223861069,-2.75797069090313,-0.00234627438309181,0
0.31,0.000777729759409309,0.00044704248346858,-0.0389538833064131,-0.0223821545860063,-0.000123464168388637,-0.000888519645151822,0.00617583164381918,0.0444997187864006,-2.75797618480616,-0.00218999732956296,0
0.32,0.00077674060497839,0.000447110863823772,-0.0389839299833648,-0.0223855639993683,-0.000123900303686315,-0.000887627628410627,0.00616787328913837,0.0445288402230154,-2.75797901002273,-0.00184782321671184,0
0.33,0.000776118132462355,0.000447112752391198,-0.0389881714969739,-0.0223856676822138,-0.000124135997558022,-0.000887050969785818,0.00616643051237334,0.0445328055369525,-2.75798010054679,-0.00170053990008764,0
0.34,0.000775871273776719,0.000447112743705451,-0.0389891079748893,-0.0223856704866599,-0.000124228736650841,-0.000886822000204021,0.00616610042335297,0.0445336725342074,-2.75798050043885,-0.00164535417630683,0
0.35,0.000775780236995531,0.000447112719578199,-0.0389893460661958,-0.0223856710349443,-0.000124262915426007,-0.000886737553039954,0.00616601827848254,0.0445338926318343,-2.7579806454459,-0.00162524621683943,0
0.36,0.000775747175044307,0.000447112710216597,-0.0389893724939354,-0.0223856712851685,-0.000124275327423197,-0.000886706884049239,0.00616601095491031,0.0445339169090525,-2.7579806978905,-0.00161796490474379,0
0.37,0.000775735300681544,0.000447112706814009,-0.0389893306335545,-0.0223856714264662,-0.000124279785317944,-0.000886695869100201,0.00616602759711977,0.0445338780271592,-2.75798071684234,-0.00161533198328131,0
0.38,0.000775730993314659,0.000447112705584708,-0.0389892592046212,-0.0223856715288577,-0.000124281402374173,-0.00088669187348714,0.00616605473070448,0.0445338117858892,-2.75798072368573,-0.00161438022613338,0
0.39,0.000775729363500162,0.000447112705141615,-0.038989174145642,-0.0223856716174806,-0.000124282014144454,-0.00088669036165711,0.00616608675793472,0.0445337329270576,-2.7579807261519,-0.00161403620715939,0
0.4,0.000775728781423556,0.00044711270498247,-0.0389890881891249,-0.0223856717007137,-0.000124282232636181,-0.000886689821717032,0.00616611904564625,0.0445336532436585,-2.75798072703625,-0.0016139118612936,0
0.41,0.000775728665008235,0.000447112704926153,-0.0389890062007119,-0.0223856717815515,-0.000124282276432154,-0.000886689713702985,0.00616614982052199,0.0445335772425861,-2.75798072734884,-0.00161386691658642,0
0.42,0.000775728548592914,0.000447112704907207,-0.0389889172891676,-0.0223856718623895,-0.000124282320079158,-0.000886689605728662,0.00616618317731186,0.0445334948228405,-2.75798072745434,-0.00161385067135905,0
0.43,0.000775728548592914,0.00044711270490123,-0.0389888316180104,-0.022385671942629,-0.000124282320101344,-0.000886689605722538,0.00616621531745403,0.0445334154082007,-2.75798072748561,-0.00161384479954788,0
0.44,0.000775728548592914,0.000447112704900448,-0.0389887450263465,-0.0223856720228685,-0.000124282320104052,-0.000886689605721764,0.00616624780089624,0.0445333351401266,-2.75798072748948,-0.00161384267717053,0
0.45,0.000775728548592914,0.000447112704901501,-0.0389886581053433,-0.0223856721031081,-0.000124282320100159,-0.000886689605722841,0.00616628040718406,0.0445332545667078,-2.75798072748399,-0.00161384191006579,0
0.46,0.000775728548592914,0.000447112704903059,-0.038988571014159,-0.0223856721833476,-0.000124282320093215,-0.0008866896057246,0.00616631307698912,0.0445331738355013,-2.75798072747453,-0.00161384163278183,0
0.47,0.000775728548592914,0.000447112704904901,-0.0389884838892154,-0.0223856722635871,-0.000124282320085662,-0.000886689605726587,0.00616634575938555,0.0445330930729952,-2.75798072746408,-0.00161384153254063,0
0.48,0.000775728548592914,0.000447112704906688,-0.0389883967305079,-0.0223856723438267,-0.000124282320077495,-0.000886689605728633,0.00616637845439067,0.0445330122791831,-2.757980727453,-0.00161384149630409,0
0.49,0.000775728548592914,0.000447112704908347,-0.0389883095607704,-0.0223856724240662,-0.000124282320069293,-0.000886689605730619,0.00616641115352817,0.0445329314751421,-2.75798072744202,-0.00161384148321653,0
0.5,0.000775728548592914,0.00044711270491058,-0.0389882223800057,-0.0223856725043058,-0.00012428232006123,-0.000886689605732876,0.00616644385677314,0.0445328506608781,-2.75798072743059,-0.00161384147852831,0
0.51,1.78332577948543,0.026060349927465,6.55701508557408,-1.26609863647719,-1.54669098390061,-0.888074871807678,-4.99161334366061,-4.43635535289102,2.10662441717214,572.107695803183,953.103766169653
0.52,0.567142083187812,-0.0506896941374759,6.79409582686991,2.54918560663688,-0.526721683334534,0.216295760290387,-4.85569595723259,5.39261551871546,1.09200626452946,818.557749249701,953.103766169653
0.53,0.214990430300307,-0.0321457775257778,4.17496143070746,1.60805733152509,-0.209977515552513,0.0562465918597946,-3.18749452001472,3.13943147946289,1.16064887177918,900.514559678699,953.103766169653
0.54,0.0534929207373241,0.0358471692594746,5.62416107803676,-1.78570312093174,-0.0543322676351679,0.0345617824561689,-5.57999402176237,-1.9192681378341,1.59463724817445,927.689289428265,953.103766169653
0.55,-0.0222619294760804,0.0246019322829096,7.07581246426728,-1.24421000631977,0.00515689924191186,0.0327758289942393,-5.23950738434396,-4.91556130454209,2.1502448924023,936.913706887427,953.103766169653
0.56,0.0132458840485155,-0.0108190735639927,4.78927056438766,0.542314774011766,0.00488718812071747,-0.0163896671498393,-2.34393048814012,-4.21155644860528,2.74649167634176,939.478617056209,953.103766169653
0.57,0.00607866003800952,0.00938631686427226,4.61572399405372,-0.459077552629687,-0.00785134233816691,-0.00796300669490636,1.44546060451716,-4.40752808605919,-2.92382595268696,941.821086347458,953.103766169653
0.58,0.029949114529413,0.0121118687696596,3.5884554609728,-0.612528678970205,0.0141464362217959,-0.0290435047542822,3.07622374178406,-1.94654860417883,-2.30402988672859,941.302191947024,953.103766169653
0.59,0.0387073525267775,-0.0286409889470377,2.81241738972885,1.44477048310184,0.0416134822065183,0.0242256782390988,2.63710925077811,-1.74433601188306,-1.68062763941378,942.972556937551,953.103766169653
0.6,-0.0174722060605637,0.000136239925958046,5.65839157323958,-0.0186625233349982,-0.0151143903065675,-0.00876651308109226,4.90741183515853,2.81692253461679,-1.05300164500401,942.183647972981,953.103766169653
0.61,0.0105702891604311,0.00423099069520804,4.57956319084194,-0.207465154704791,0.00826632525174384,0.0078294419999414,1.72812517038645,4.24605984470401,-0.431793411628074,941.482447239237,953.103766169653
0.62,0.014906298184046,-0.0160844774046955,4.09771686825301,0.800810537577542,-0.0186195121889104,0.0115854177646242,0.00915953897315536,4.175224203837,0.190802238139303,942.96966131309,953.103766169653
0.63,-0.0336982298840017,0.0138753011154907,6.51486661811583,-0.698944185601303,0.0341067294536717,-0.0128384455575668,-5.24088242575822,3.93257694467692,0.820185687458983,942.797764751154,953.103766169653
0.64,-0.0425362392400265,-0.0244117253204874,6.74833657239384,1.23200033542247,0.0393175938170506,-0.0293153679534322,-6.55298800139361,2.02884685828693,1.45112474036051,943.812905218586,953.103766169653
0.65,0.020275493589259,0.00784181782956842,3.63779493931574,-0.401346708095208,-0.021511183020708,-0.00313986499866196,-2.97044212481369,-2.13801421504685,2.08478072426691,943.702527150882,953.103766169653
0.66,0.00237965995053911,0.0382350772868216,4.57121377168857,-1.90662823329701,-0.0358608597424023,0.0134752608562941,-0.130954871371216,-4.95116929503978,2.71999390762761,943.956987441526,953.103766169653
0.67,-0.0257591732402141,0.00989858228550772,6.11200259004638,-0.508183195088917,-0.0150601028905184,0.0231238024167594,1.77346931456197,-5.87108443226731,-2.93119360456793,943.274158208515,953.103766169653
0.68,0.0334732454970602,0.0573667748509995,3.22816062413874,-2.87012079511388,-0.0133819689918231,-0.0650563442472263,4.31952171034036,-0.0186168655580845,-2.30186012672524,943.452424011243,953.103766169653
0.69,0.0347637638216756,-0.0238693008822987,2.92772607754308,1.20652382912685,0.0369111699940694,0.020391869196517,2.79717727137767,-1.48427728132748,-1.667753711278,943.861198471493,953.103766169653
0.7,0.00483918392094528,-0.0236801446107639,4.69986087790981,1.17993582077227,-0.00794140311479242,0.0228276382128286,4.64282545680036,1.38748426677034,-1.03442587212746,942.845848516181,953.103766169653
0.71,-0.0193199822299172,-0.009309779983441,5.69716771299456,0.475750612578896,-0.0161105599118251,-0.0141556905883072,2.6611113563853,5.05989574440759,-0.400856429152306,944.433045871066,953.103766169653
0.72,0.00612099114848678,-0.0118007594751627,4.47636147448799,0.580150750205281,-0.0129059009278007,0.00318781713281806,-0.484070459065417,4.48776812390126,0.236333755415725,943.538050949177,953.103766169653
0.73,0.0148084068398589,0.0121703404719243,4.19346918065751,-0.603536923253606,-0.00345594330198945,0.018853714653372,-3.59260565200955,2.245579038022,0.869215380242425,943.506500820712,953.103766169653
0.74,0.000427196446508907,-0.0170851542179908,4.97643411432374,0.84400303558464,-0.00162858203132881,-0.0170127220639048,-4.90469346095987,1.19214918206518,1.50035857792824,943.238892895878,953.103766169653
0.75,-0.0201834712841246,0.0347005357642511,6.1318508835822,-1.73970983440075,-0.00130247830491296,0.0401223534412973,-4.27459996021675,-4.72799965593415,2.13006310702396,943.037699608454,953.103766169653
0.76,0.00541913718435964,0.00618020797337322,4.62992471108523,-0.298392121965141,-0.00774613901177132,-0.00274942699982555,-1.43497164763479,-4.41204001106663,2.76278416776319,944.007736994227,953.103766169653
0.77,-0.0230862732268808,0.0182531857009821,5.94793623781943,-0.922842612595304,-0.0236234647779019,0.0175523990277101,2.4361884093576,-5.50405032779488,-2.87882115102696,944.496976324916,953.103766169653
0.78,-0.000662972436364373,0.0539525173663452,4.77472820092287,-2.69271292189038,-0.0339149715723603,-0.041965323373747,5.416864441998,-0.840423636876797,-2.23820963350891,944.659813850262,953.103766169653
0.79,0.000151611865835243,-0.037237226771121,4.83792212730306,1.8525720897876,0.00115096994905628,0.0372197435770066,4.786458028772,-1.98175008427214,-1.59763862440541,944.528416565731,953.103766169653
0.8,0.01915771720318,-0.0313564426352109,3.88170742601644,1.5734835582627,-0.00229586430953863,0.036673882126719,4.08212882513707,0.937937793405981,-0.959832083920336,944.683176371196,953.103766169653
0.81,0.0192715987975872,0.00593267936189026,3.95760536413919,-0.297142684796118,-0.0170216113385799,-0.0108099931574673,-2.34266914748775,-3.20356602223213,2.43524660115388,944.169593005829,953.103766169653
0.82,-0.00780044551423955,-0.00811799931709476,5.37246451192534,0.40203712581426,0.00862386731360153,0.00723724917978965,-0.762179015851124,-5.333300285023,3.07433802254094,944.285732903493,953.103766169653
0.83,-0.0411160773985551,0.0400409402095181,6.93232514108593,-1.99555003802953,-0.0559447305871651,0.0128060857812093,5.43813453281448,-4.73983592743698,-2.56797677354658,944.718678126501,953.103766169653
0.84,-0.00970658192899781,-0.0432446364076869,5.32157646017503,2.15489901324793,0.0059620142427411,0.0439177719943389,4.23791984563167,-3.87334495762863,-1.92652350780836,944.602559036487,953.103766169653
0.85,-0.0281670490081487,0.0270192118304745,6.27134797741042,-1.34678612369888,-0.0193302509697923,-0.0339081384804939,5.63031234870283,3.07298245566128,-1.28272850210315,945.071820611911,953.103766169653
0.86,0.0249959702606757,0.0232161816185766,3.56213984041369,-1.17404985547844,0.0335459259531524,0.00620165060003677,1.18378075893828,3.55891787213177,-0.639490670951792,945.147991386581,953.103766169653
0.87,-0.00559680644096718,0.00704149504808695,5.16656575298633,-0.352256571087183,0.00706374735762588,-0.00556869536943063,-0.372847126526439,5.16512065609762,0.00398589879001696,945.245352951531,953.103766169653
0.88,-0.0472855205758997,0.00510507022613164,7.13265998903628,-0.247016347956108,0.0326220501343857,-0.0346090167900967,-4.50386456738604,5.53633990593073,0.648306377265687,945.70595934243,953.103766169653
0.89,0.0420772569930978,0.0054640417306093,2.93441676305463,-0.278661532621672,-0.0389317152499307,0.0168722510589236,-2.89724844346274,0.542591417101102,1.29098342111782,945.017841547584,953.103766169653
0.9,0.00489076003619029,0.0207748292390398,4.43927054828488,-1.03013038225413,-0.0120475183439617,0.0176173313925454,-3.76994768558437,-2.56042692793012,1.939389657715,946.083620600313,953.103766169653
0.91,-0.00627765935102016,-0.0302997155482566,5.08823058112366,1.5058087038253,0.0291013903886681,-0.0105162182688954,-3.9470473888636,-3.54659938663265,2.59053440289179,945.783587143114,953.103766169653
0.92,-0.0081737004058534,0.0428595518369623,5.34499324707137,-2.14082352188675,-0.0434484241579834,0.00399812458258558,2.64679856287838,-5.11336831556725,-3.04490813444023,945.223184086195,953.103766169653
0.93,-0.0353182723246249,0.0113808810540865,6.80537688534471,-0.582851835307313,-0.0322288435422155,0.0183903903573313,5.02165194291008,-4.62989012588556,-2.40106345804251,945.091366967471,953.103766169653
0.94,-0.000695819363751783,-0.0144374531742267,4.92186878513261,0.721466090077902,0.00195176150199632,0.0143218310904816,4.70742364613292,-1.60793913847003,-1.7543988938857,945.676249211951,953.103766169653
0.95,-0.00838015935487331,-0.00890275930021498,5.23107982573192,0.455997539616196,-0.0114860358112233,0.00419012831711997,4.87852748840433,1.94218934303505,-1.10496951084026,946.129643211155,953.103766169653
0.96,-0.0186899036999508,-0.0403107398637309,5.78973444343957,2.00992190310133,-0.0444239112532819,0.000885639675798723,4.34581814684147,4.32142055540772,-0.45407708250549,945.830491107585,953.103766169653
