t,iq,id,vq,vd,ia,ib,va,vb,theta_e,omega,r
0,0,0,0,0,0,0,0,0,0,0,0
0.01,0.000673942915848404,0.000375396702947936,-0.0315517197749311,-0.018790020481917,0.000670068369098584,-0.000382269694247391,-0.0313578982022004,0.0191117270493034,-1.58102381739093,-0.00420677279471022,0
0.02,0.000752888802775409,0.000419446056939385,-0.0356810037207926,-0.0209948706941987,0.000748546540246605,-0.000427147071992099,-0.0354637623990869,0.0213597794579076,-1.58105444088233,-0.00422733737584571,0
0.03,0.000782422851970231,0.000437038325379304,-0.0372561869464567,-0.021875428063843,0.000777885583245004,-0.000445064081358129,-0.0370291803234458,0.0222575295875225,-1.58108363284026,-0.00393440855184694,0
0.04,0.000761797945996381,0.000427340121100227,-0.0365159653212839,-0.0213899991471467,0.000757350652521149,-0.000435173159503262,-0.0362934472279641,0.0217654192509846,-1.58110864119822,-0.00336952918408926,0
0.05,0.000777853167937435,0.000437478762337364,-0.0374273346973457,-0.0218974712681893,0.000773290304205128,-0.000445494471109211,-0.0371990265553672,0.0222831114035136,-1.58113146028301,-0.00309248658601145,0
0.06,0.000776705842950272,0.000438053345921972,-0.0375362292021723,-0.021926232875474,0.000772128034416694,-0.000446072862674183,-0.0373071643996647,0.02231375529318,-1.58115178867428,-0.00274007279651989,0
0.07,0.000794408897444091,0.000449224675779171,-0.0384807986039199,-0.0224853883020564,0.000789706426256694,-0.000457440778676452,-0.0382454911858949,0.0228833335036513,-1.58116934585922,-0.00256348327186468,0
0.08,0.000774163663886038,0.000438716820758759,-0.0376866907162115,-0.0219594367470604,0.000769564114669357,-0.00044673582877501,-0.03745652324828,0.0223497737245501,-1.58118538113671,-0.00215329386701325,0
0.09,0.000771367586121048,0.000438113711037961,-0.0376687560036712,-0.0219292476931886,0.000766768300643429,-0.000446114278908503,-0.0374385952986979,0.0223199163375145,-1.58119917323778,-0.00190040144054092,0
0.1,0.000769885194542301,0.000438076623280819,-0.0376971137129317,-0.0219273870209822,0.000765280981582048,-0.000446071025588279,-0.0374667009697646,0.0223188037828169,-1.58121126449781,-0.0016853185205261,0
0.11,0.000768646626010804,0.000438072181348662,-0.0377248660907728,-0.0219271807841707,0.000764037791442606,-0.000446061795042877,-0.0374942170662432,0.0223192846054231,-1.58122187981252,-0.00149692082901593,0
0.12,0.000767563297423224,0.000438069885625952,-0.0377494192659657,-0.0219270660224464,0.000762950388229,-0.000446055316462842,-0.0375185620732508,0.0223197755191671,-1.58123120033149,-0.00133153077426432,0
0.13,0.000803406328896298,0.000458595571233525,-0.0394518527223409,-0.0229544522459136,0.000798573070553624,-0.000466961109999737,-0.0392099713031398,0.0233652244059876,-1.58124023478714,-0.00142340136469946,0
0.14,0.000834415601938085,0.000477266814916761,-0.0412377432816234,-0.0238890217044996,0.000829381779523868,-0.000485961802174109,-0.0409858101350958,0.0243187211121186,-1.58124821017849,-0.00150018355221775,0
0.15,0.000769221313952425,0.000440302970366419,-0.0380165438805775,-0.0220388336202636,0.000764574165952082,-0.000448324079557261,-0.0377839630743403,0.0224352385849232,-1.5812553953934,-0.000932749957294598,0
0.16,0.000764426104616446,0.000438190812607401,-0.0378403546315436,-0.0219331204960335,0.000759798943868422,-0.00044616591372385,-0.0376087707076174,0.022327887925112,-1.58126069798393,-0.000810092606957439,0
0.17,0.000763621477565445,0.000438069179266249,-0.0378400975179648,-0.0219270305537392,0.00075899358612391,-0.000446039351453439,-0.0376084748655088,0.0223219682681454,-1.58126528849565,-0.000726781513296808,0
0.18,0.000763136070405405,0.000438061347814216,-0.0378498934348574,-0.0219266317163628,0.00075850649167205,-0.000446029492852175,-0.0376181845451286,0.0223218234690564,-1.58126931487403,-0.000655215037318375,0
0.19,0.000762724145546555,0.000438060123319728,-0.0378591377098569,-0.0219265753079967,0.000758093025520117,-0.000446026634294828,-0.0376273499954888,0.022321996890694,-1.58127284989201,-0.000592480116747257,0
0.2,0.000762363443459711,0.000438059370768097,-0.0378672952782143,-0.0219265376383032,0.000757730966725004,-0.000446024454831212,-0.0376354382264735,0.0223221614991177,-1.58127595373663,-0.000537403456520969,0
0.21,0.000762046746366104,0.000438058728287824,-0.0378744541768466,-0.0219265012694324,0.000757413078222203,-0.000446022557741509,-0.0376425362788166,0.022322302739871,-1.58127867901342,-0.000489044760048342,0
0.22,0.000761768815573822,0.000438058165106088,-0.0378807429387967,-0.0219264647629239,0.000757134101328844,-0.000446020893010428,-0.0376487716630898,0.0223224222443593,-1.58128107189671,-0.000446584252769802,0
0.23,0.000761524668935814,0.00043805767058493,-0.0378862549478156,-0.0219264477454438,0.000756889036196412,-0.000446019428995826,-0.0376542366473118,0.0223225421315047,-1.58128317292696,-0.000409302524476901,0
0.24,0.000761310266409717,0.000438057236313772,-0.0378910890464254,-0.0219264291541393,0.000756673827212197,-0.000446018142276455,-0.0376590294949024,0.0223226437071799,-1.58128501770101,-0.000376567933789707,0
0.25,0.000761122115538407,0.000438056854956831,-0.0378953346503155,-0.0219264104574806,0.000756484968245076,-0.000446017012854417,-0.0376632389036656,0.022322730547465,-1.58128663747343,-0.000347825880264278,0
0.26,0.000768892041273765,0.000442466866800291,-0.0382592147733908,-0.022147146057845,0.000764207615303593,-0.000450509289651389,-0.0380247539534805,0.0225473209131646,-1.58128794623347,-0.0003787541239587,0
0.27,0.000745163342077787,0.000429024272426518,-0.0371926330336116,-0.0214742950915311,0.000740620530516501,-0.000436819713938253,-0.0369652538676661,0.021863378241938,-1.58128960260233,-0.000188478381201768,0
0.28,0.000743812934985008,0.000428156052302143,-0.0368454685657966,-0.0214308315551737,0.000739278828587639,-0.000435938184810708,-0.0366185405834088,0.0218163145494507,-1.58129070250085,-0.000160603201706778,0
0.29,0.000759479489983096,0.000437490357918314,-0.0378579409090614,-0.0218980563715923,0.000754846269589212,-0.000445436884714017,-0.037626039246935,0.0222941636603736,-1.58129136566695,-0.000256453259099864,0
0.3,0.000753906955264244,0.000434620066381462,-0.0376005348693708,-0.0217543825296206,0.000749304380290478,-0.000442507903855662,-0.0373701659919266,0.0221477781152803,-1.581290879215,-0.000226606674108699,0
0.31,0.00076009972568023,0.000437859448456051,-0.0378886175694326,-0.0219165348528053,0.000755462457905865,-0.00044581270089156,-0.0376565132983422,0.0223129748686437,-1.58129167896939,-0.00025538306446858,0
0.32,0.000760415029436729,0.000438044272956744,-0.0379092773589215,-0.0219257770403526,0.000755775447514374,-0.000446001429367566,-0.0376770570828315,0.0223224635351017,-1.5812924794602,-0.000243968686004621,0
0.33,0.000760359034620041,0.000438054672051274,-0.0379123182472621,-0.0219263070250286,0.000755719030305015,-0.000446011776155202,-0.0376800764086069,0.0223230521317997,-1.58129318869888,-0.000231564742499453,0
0.34,0.000760288405069699,0.000438055128686339,-0.0379140115171391,-0.0219263183987453,0.000755648121920783,-0.00044601196227167,-0.0376817555551962,0.0223231047599422,-1.58129381184805,-0.000220519020435185,0
0.35,0.000760224900514534,0.000438055034238248,-0.0379154263107082,-0.021926320221205,0.000755584377810923,-0.000446011614637876,-0.0376831580370809,0.0223231420529897,-1.58129435902043,-0.000210810469510625,0
0.36,0.000760169021160285,0.000438054923013493,-0.0379166589802778,-0.0219263205540941,0.0007555282884232,-0.000446011279790605,-0.0376843799103556,0.0223231734312028,-1.58129483945749,-0.000202285388636176,0
0.37,0.000760120161222532,0.000438054823735146,-0.0379177475354089,-0.0219263027335255,0.000755479244075317,-0.000446010986261533,-0.0376854591757858,0.0223231829368349,-1.58129526129703,-0.000194800043287748,0
0.38,0.000760077087553634,0.000438054736470375,-0.0379186906979432,-0.0219263030095485,0.000755436008499086,-0.000446010726587505,-0.0376863940151726,0.0223232070734916,-1.58129563168607,-0.000188227659712332,0
0.39,0.000760039252571551,0.00043805465984184,-0.0379195140930091,-0.0219263018065546,0.00075539803135829,-0.000446010498395151,-0.0376872101176726,0.0223232267718722,-1.58129595689959,-0.000182456889347078,0
0.4,0.000760006074204967,0.000438054592557269,-0.0379202351839833,-0.0219263020375855,0.000755364728169528,-0.000446010298453227,-0.0376879247921114,0.0223232453356626,-1.58129624244786,-0.000177389962063462,0
0.41,0.000759977063079325,0.000438054533478271,-0.0379208703592664,-0.0219262841311757,0.000755335607439522,-0.000446010124146875,-0.0376885545234992,0.0223232435486997,-1.5812964931684,-0.00017294103229936,0
0.42,0.00075995145170863,0.000438054481603774,-0.0379214171581125,-0.0219262843284131,0.00075530989984037,-0.000446009969631102,-0.0376890963758713,0.0223232577842099,-1.58129671330925,-0.000169034724799791,0
0.43,0.000759928983551611,0.000438054436055608,-0.0379218942583461,-0.0219262845112786,0.000755287347190734,-0.000446009834155443,-0.0376895691330041,0.022323270261752,-1.58129690659991,-0.000165604857598736,0
0.44,0.000759909192946983,0.000438054396062176,-0.0379223060526791,-0.0219262846819049,0.000755267482402306,-0.000446009714535923,-0.0376899771142336,0.0223232811529476,-1.58129707631555,-0.00016259332073952,0
0.45,0.000759891963479425,0.000438054360946399,-0.0379226709921368,-0.0219262848408289,0.000755250187790945,-0.000446009611047247,-0.0376903387053815,0.0223232907603839,-1.58129722533128,-0.000159949091757689,0
0.46,0.000759876713072329,0.000438054330112985,-0.0379229813190129,-0.0219262849907236,0.00075523488019225,-0.000446009518890954,-0.0376906460927785,0.0223232991003917,-1.58129735617197,-0.000157627371244451,0
0.47,0.000759863325310375,0.000438054303040413,-0.0379232499393768,-0.0219262851321168,0.000755221442214243,-0.000446009437998571,-0.0376909121323002,0.0223233063925252,-1.58129747105402,-0.000155588823833429,0
0.48,0.000759851567362919,0.000438054279269219,-0.0379234816373319,-0.0219262852660539,0.000755209640175564,-0.000446009366937349,-0.0376911415643127,0.0223233127614242,-1.58129757192442,-0.000153798911772391,0
0.49,0.000759841322814641,0.000438054258397542,-0.0379236850858553,-0.0219262853930754,0.00075519935690955,-0.000446009305374144,-0.037691343023172,0.0223233183630772,-1.58129766049156,-0.000152227309773832,0
0.5,0.000759832242419577,0.000438054240071199,-0.0379238554821094,-0.0219262855147731,0.000755190242523769,-0.000446009250421569,-0.0376915116727828,0.0223233232051983,-1.58129773825642,-0.000150847391232178,0
0.51,1.85555738766682,0.00855009822110931,3.30332090881446,-0.424937958997218,-0.210678159778164,1.84357832383031,-0.812133788275793,3.2300061928034,0.118390969636826,35.3672580736924,224.865184026598
0.52,1.56654968897189,-0.0280926584457343,1.47975823757347,1.41192319760503,-0.780778820285496,1.35840036781137,0.522259831538137,1.97748735165702,0.503736619868566,68.8003874344842,224.865184026598
0.53,1.25877666232585,0.00494517263532829,3.03343921083049,-0.240163903309334,-1.12802258896787,0.558666429210515,-2.82933260659606,1.11995944011781,1.11487504043769,97.3212381834312,224.865184026598
0.54,1.04871463711693,0.001254410006442,1.25758331630606,-0.0593064987263594,-0.984816853590631,-0.360471536368142,-1.15998867244084,-0.489345826641503,1.92287505628914,122.482193409229,224.865184026598
0.55,0.798606680721583,0.0161724010288989,4.1826010613862,-0.805968804645262,-0.210236284907982,-0.770606826829528,-0.23724981444205,-4.25293426687005,2.89550311096077,141.846579031095,224.865184026598
0.56,0.673547380240566,-0.0359570047161905,3.09581874213736,1.80657162445759,0.529963331325249,-0.417250341003736,1.13522669753849,-3.3998610359337,-2.29109103899058,156.894714023146,224.865184026598
0.57,0.587733017149511,-0.028943545992627,0.968630709557251,1.45138014726403,0.508258959782933,0.296547901868595,1.52851427985948,-0.84166138062478,-1.09183497965984,170.190154592416,224.865184026598
0.58,0.436291181467803,0.0131297209445089,3.22793595892225,-0.655036226755538,-0.0726134170951923,0.430406408242735,-1.27483295088003,3.03701234120245,0.197219973027638,180.847870794542,224.865184026598
0.59,0.372093467294621,0.0285842949504322,2.39857662645834,-1.42436550833448,-0.371559838313722,0.0348410228527752,-2.42220317944793,-1.38380587215026,1.55396972162886,189.157461746209,224.865184026598
0.6,0.28632961725306,-0.0231655915820468,3.04048136411703,1.15856790695123,-0.0264348591226473,-0.286046311937063,-1.66432821927221,-2.79585731021712,2.96871029732358,196.600371725846,224.865184026598
0.61,0.271908270506202,0.024456973334396,1.0261293942333,-1.2197989511927,0.254424601032599,-0.0989968358269916,1.32448286835778,0.88690255748146,-1.85216745680616,202.133120512083,224.865184026598
0.62,0.199753318644429,-0.0155378691898931,2.29467912974561,0.775487619964449,0.0543733873590754,0.192837621940131,1.51995353607771,1.88591479271283,-0.352458539168832,206.957760790938,224.865184026598
0.63,0.130531670201264,-0.00748266558523823,3.8632943126308,0.37624973582016,-0.123512702749907,0.0428849562108352,-3.42751257004103,1.82174762025945,1.17934653601017,210.761923909163,224.865184026598
0.64,0.115676397214005,0.0130354559641834,3.07824985687058,-0.65133775918365,-0.0575995583093121,-0.101159492224796,-0.615461159949501,-3.08562321394815,2.73619759075083,213.950351404654,224.865184026598
0.65,0.101239126332084,-0.028010011845382,2.48998296081034,1.40218092394149,0.10418377331377,-0.0134038368449868,1.75219752364858,-2.25741673749244,-1.96866896044413,216.565007429338,224.865184026598
0.66,0.14518802320616,-0.0243689311824459,-0.744530625679727,1.22509232601737,0.0302622157964751,0.144074998471542,0.869162766818872,-1.14005839526643,-0.373329100730212,218.686640539391,224.865184026598
0.67,0.0444178384261022,-0.032620341969747,3.43864414345524,1.63146008840329,-0.0526603503171672,-0.0162455712470751,-2.71323645820302,2.66913534449825,1.23658999302747,220.391541908612,224.865184026598
0.68,0.043912948929223,-0.0328635029852467,2.78090574260185,1.64957756699951,0.0192262601861564,-0.0513683543767569,-2.36341161471743,-2.20654219044248,2.8572713783352,221.784151789301,224.865184026598
0.69,0.0909843473361416,-0.00973652200249463,-0.180128287500613,0.485752105262969,0.0908667454816784,-0.0107789557219884,-0.283823462934526,-0.433411524550471,-1.79547577711685,222.998417721621,224.865184026598
0.7,0.0212396551597136,-0.0407509095808726,2.80165679477919,2.04408515117328,-0.0369331341840563,0.0273441617592219,2.45660852793941,2.44798681398305,-0.156840131619099,223.989834107471,224.865184026598
0.71,0.0525199973924012,-0.00944862688830604,0.867021122988299,0.470457852538181,-0.0531216272503193,-0.00507142923152618,-0.825129741290142,0.540571113509769,1.48797489518275,224.745729319782,224.865184026598
0.72,0.00991696838337742,-0.0402968784857457,2.69818242220424,2.0211647250239,0.0402572994818227,-0.0100764336966358,-2.03183150345908,-2.69015909766023,3.13763345224291,225.319804970014,224.865184026598
0.73,0.0324797309389129,0.014721471885013,1.36392364528933,-0.739972731466178,0.0335369558915336,-0.0121213549512724,1.30150017303113,0.844952456113829,-1.49206551365857,225.765387269804,224.865184026598
0.74,-0.0179926042662909,-0.000420815128381225,3.67311374449403,0.0246716872172217,0.00252785579807118,-0.0178191144201888,-0.576462243458778,3.62768032687661,0.164305676116247,226.148820764916,224.865184026598
0.75,0.0153493295086425,-0.0695795955646566,1.86069737202033,3.47944415585828,0.00250539258376849,-0.0712084618799428,-2.67034856186696,2.90481753335984,1.82308923885022,226.449952339993,224.865184026598
0.76,-0.0198993993119339,0.036151165513225,3.47971182369345,-1.80625379385966,-0.0407336822634761,0.00660757067298982,2.86964635747731,-2.6713436556912,-2.79921740711282,226.727083511042,224.865184026598
0.77,-0.0238108447737406,0.0144068334147634,3.54264455860735,-0.725344493841916,-0.0155346671573868,-0.0230908487108881,2.90821550604595,2.14912486230347,-1.13633820907808,226.951703759743,224.865184026598
0.78,-0.00186696871025376,0.0277683957643177,2.34881133513696,-1.38671228271204,0.0249268444582327,0.0123782793975543,-2.38127009963599,1.33020237395364,0.528043859772881,227.15627117857,224.865184026598
0.79,0.0406012309342089,0.0182719448604967,0.127162083245539,-0.918402303141148,-0.0436342786409102,-0.00885288935011618,0.432635741773067,-0.820036158209367,2.19385006877728,227.340804739862,224.865184026598
0.8,0.00119204633599689,-0.0126480059898828,2.02811409941451,0.636198166416312,0.0102998019688516,0.00743687497472665,0.857718449777223,-1.94481720686217,-2.42225681023503,227.465069014647,224.865184026598
0.81,0.0443500226819473,-0.0135182054416609,-0.144298664144783,0.67281215257974,0.0205442995196165,0.041564385566257,0.391149256232034,-0.566127685670007,-0.754919541515659,227.473340829517,224.865184026598
0.82,0.00163048525149074,0.0365268489474239,1.90938456356466,-1.82556101859311,0.0210302848244129,0.0299098026805146,-2.6269740813195,-0.278261783688134,0.913368754331865,227.60300470717,224.865184026598
0.83,-0.00323794095690797,0.00755910405919589,2.16665635147959,-0.382888431901639,-0.00468454836041539,0.00675864797700718,-0.826491247173704,-2.0390967399896,2.58159389016375,227.572276697955,224.865184026598
0.84,0.0384503312475467,-0.0135397657711706,0.0147575906117869,0.680711954491533,0.0404532439874093,-0.00502874547768779,-0.290365167155846,-0.615852759327183,-2.03304885227339,227.665550112587,224.865184026598
0.85,0.0180644077492294,-0.0225698612023036,1.03089383861008,1.12537780564998,-0.0146590404352964,0.0249165406013358,1.41867615962854,0.562650216418162,-0.364034072713438,227.663994383096,224.865184026598
0.86,-0.00600129607723768,-0.0188423855615321,2.20247346894676,0.945359355400892,0.000839504732692811,-0.019757182999099,-1.87668708135292,1.49085186753796,1.30492039125894,227.742321383485,224.865184026598
0.87,-0.00406526685853683,0.0346804571933274,2.12045379619023,-1.740765314818,-0.0335171215970641,0.00979096857399477,1.36283224136717,-2.38102424702923,2.97407042811406,227.685891753449,224.865184026598
0.88,0.0318330547972435,-0.00572148888327715,0.307342877125416,0.288669262431092,0.0321529098649387,0.00350274178079137,0.286609195642009,-0.309264864098203,-1.64011960689541,227.69404972923,224.865184026598
0.89,-0.0250793560269432,-0.00302780428039408,3.17864274490054,0.146604878209192,-0.00230708769898081,-0.0251558948128616,0.0553564168593674,3.18154024917744,0.0286916906651058,227.601681308208,224.865184026598
0.9,0.0107025752323055,0.00250221746625901,1.34576063748637,-0.123519077960982,-0.0109330016854728,0.00112946137475319,-1.31935713736646,-0.292618181438244,1.69752448353326,227.754048851294,224.865184026598
0.91,0.00864335461493306,0.00320502207159925,1.44340613039051,-0.165066464650465,-0.00119349023429826,-0.00914086027349492,0.483292505442284,-1.37007173140111,-2.91633457841188,227.721329564489,224.865184026598
0.92,-0.0184320072178277,-0.0172922944606039,2.7726221700672,0.866780638191478,-0.0229742886608297,0.0105330146833257,2.90433286658248,0.0599414112329525,-1.24716530332048,227.721603027394,224.865184026598
0.93,-0.0188181161153265,-0.0211215686633881,2.79657155415423,1.0524773825153,-0.011557178607031,-0.0258200267152711,-0.185729177725236,2.98228532685127,0.422146987241842,227.69282028709,224.865184026598
0.94,0.0396080830320575,-0.0399452083265138,-0.179313470726511,2.00100011673895,-0.0144757507236119,-0.054358739414291,-0.840288442402345,1.82484797217147,2.09169643326531,227.770425774654,224.865184026598
0.95,0.0390808642575095,-0.00718125182100919,-0.114807650577124,0.355313118426511,0.0285344522877315,-0.0276526555952553,-0.355960730698637,-0.112783717608099,-2.52222824765956,227.680191312978,224.865184026598
0.96,0.014507659753483,-0.0414884940547243,1.11693879298685,2.07770654558439,-0.0163453429472448,0.0407994741925515,2.20760414691766,-0.831204359562134,-0.853361219079261,227.697760410087,224.865184026598
