t,iq,id,vq,vd,ia,ib,va,vb,theta_e,omega,r
0,0,0,0,0,0,0,0,0,0,0,0
0.01,0.000497217847207827,0.000245435866342817,-0.019627623038706,-0.0122777475726099,0.000207945790771523,-0.000514026166814338,-0.006486136635666,0.0222242368406598,-2.29864658098493,-0.0111794410719359,0
0.02,0.000628981832047786,0.000304999696162833,-0.0268955950419857,-0.0152573958294012,0.000266644404418854,-0.000646176230836236,-0.00992786135332743,0.0292847866494981,-2.29872613416563,-0.0100069520722826,0
0.03,0.000654169692488206,0.000328590331131178,-0.029499457271343,-0.0164374883887599,0.000269711762434749,-0.00068056238324444,-0.0110847032482077,0.0318988770606989,-2.29878677799,-0.0068754992118076,0
0.04,0.000614812237576107,0.000324668177812236,-0.0291488717240466,-0.0162412931140478,0.000242918207098793,-0.000651455491815953,-0.0109524458970246,0.0315195217868877,-2.29882114714863,-0.00350611082737765,0
0.05,0.00060675690676272,0.000332809528494027,-0.0294042073659397,-0.0166485471711673,0.000231475758573357,-0.000652177199351196,-0.0108714774638727,0.0319936323583658,-2.29883954318512,-0.0020894998240449,0
0.06,0.00059599929188262,0.000334556831858196,-0.0293168902156049,-0.0167359605727766,0.000222276499281948,-0.000646325450167746,-0.010747821223675,0.0320008869744463,-2.29884923503794,-0.00114949320723463,0
0.07,0.000596437581533208,0.000339758896385179,-0.0294303387351147,-0.0169961971092407,0.000219139894427721,-0.000650501039974775,-0.0106592306914253,0.0322706733011062,-2.29885266479115,-0.000943072667392558,0
0.08,0.000586967773195354,0.000336048453708681,-0.0291951110346272,-0.0168105767503933,0.000214538032587191,-0.000641430559440011,-0.0106070590215939,0.031975620367985,-2.29885569666424,-0.000467498761351561,0
0.09,0.000582776426884683,0.000335251726030161,-0.029075180678628,-0.0167707260862017,0.00021193898424799,-0.000638046981416424,-0.0105440271811558,0.0318660771943507,-2.29885649028056,-0.000292096585153681,0
0.1,0.00058117070058445,0.000335080665128759,-0.0290215630038404,-0.0167621695122203,0.00021085416635419,-0.000636850811330277,-0.0105096958850644,0.0318240119775264,-2.29885652898471,-0.000241876822202713,0
0.11,0.000580676166199583,0.000335043952070885,-0.0290007420673874,-0.0167603318796829,0.000210509529503971,-0.000636494303037773,-0.0104953808940481,0.0318087840865554,-2.29885639255398,-0.000235903306522412,0
0.12,0.000580591357187843,0.000335036081580676,-0.028994158066295,-0.0167599378960037,0.000210451540168866,-0.000636431967489619,-0.0104907323482489,0.0318041075185047,-2.29885626596862,-0.000241480765103564,0
0.13,0.000605277349419364,0.000347545739972456,-0.0298864323606387,-0.0173857209235155,0.000220553411586327,-0.000662197027878233,-0.0107403161280735,0.032864992632685,-2.29885806416644,-0.000860420997683528,0
0.14,0.000617788979571905,0.000354887305189832,-0.0308838452131634,-0.0177529783479197,0.000225006111117332,-0.000676003308146677,-0.0112403911756307,0.0338028658783711,-2.29886035353818,-0.0010859472144501,0
0.15,0.000589812936266701,0.000339296127934187,-0.0294785286004992,-0.0169730391278922,0.000214496587262154,-0.000645749468657597,-0.0107103052851219,0.0322855550732351,-2.29886218729844,-0.00013678401617762,0
0.16,0.000580670019196501,0.000335948697314072,-0.029117716645481,-0.0168055886463272,0.000209900304079182,-0.000637166430980285,-0.0105524534425979,0.0319204473455164,-2.29886047121832,2.5260218376202e-05,0
0.17,0.000578734878466493,0.000335230141639516,-0.0289976126528591,-0.0167696462982649,0.000208935131681351,-0.000635341969467289,-0.0104867769402745,0.0318136776550447,-2.29885859046716,-3.75437627572542e-05,0
0.18,0.000579015430510406,0.00033507597218218,-0.0289707444610124,-0.0167619267842261,0.000209247944781378,-0.000635413309199417,-0.0104718976788946,0.031790023327261,-2.29885732730032,-0.000126708732424057,0
0.19,0.000579673015313263,0.000335042929236637,-0.0289731470733258,-0.0167602830004058,0.000209761237320003,-0.000635826070896608,-0.010474806971635,0.0317903878002966,-2.29885663489532,-0.000190568751393501,0
0.2,0.00058018320505524,0.000335035861315891,-0.0289809730473636,-0.016759926604711,0.000210146989843328,-0.000636160217599026,-0.010480896439179,0.0317953258891699,-2.29885630509701,-0.000226841110097124,0
0.21,0.000580484720653608,0.000335034354287596,-0.0289872260684422,-0.0167598516199604,0.000210373151613407,-0.000636359699026774,-0.0104856183851062,0.0317994293745656,-2.29885616744972,-0.000244613227403419,0
0.22,0.000580636875460726,0.000335034034104422,-0.0289909537694924,-0.016759835261184,0.000210486974188263,-0.000636460697019185,-0.0104884134248129,0.0318018971490236,-2.29885611874156,-0.000252253499504333,0
0.23,0.000580704221719313,0.000335033966042737,-0.0289928287356414,-0.0167598307841906,0.000210537299343665,-0.000636505457250788,-0.0104898164094819,0.0318031413181827,-2.29885610599208,-0.000255071429921791,0
0.24,0.000580730007713055,0.000335033951296493,-0.0289936373086249,-0.0167598307909606,0.000210556557941801,-0.000636522604694795,-0.0104904199976863,0.0318036793594367,-2.29885610537069,-0.000255878254516979,0
0.25,0.000580737982162587,0.00033503394786873,-0.0289939209883505,-0.0167598308484738,0.000210562511489635,-0.00063652790897647,-0.0104906316472086,0.0318038681922616,-2.29885610756303,-0.000255974237065214,0
0.26,0.000584879646308043,0.000337326485316559,-0.0291223127674449,-0.0168745111270871,0.000212128900751851,-0.000640995076289401,-0.0105101749956107,0.0319749034129067,-2.2988556701764,-0.000407107550685447,0
0.27,0.000576875620323292,0.000332106110606418,-0.0288893632361158,-0.0166133742178515,0.00020962704134553,-0.000631772469772326,-0.0105100085633862,0.0316249779618605,-2.29885704778217,-8.09735635958458e-05,0
0.28,0.000575827171260647,0.000331884141493451,-0.0283585305946157,-0.0166022683452705,0.000208992219995605,-0.000630909079438703,-0.0101211553257884,0.0312634576872967,-2.29885687807275,-6.06566022180615e-05,0
0.29,0.000578930421062165,0.000334357653465429,-0.0289309099686414,-0.0167260002449037,0.000209663276162413,-0.000634820276527906,-0.0104661090350876,0.031736685357356,-2.29885606410541,-0.000205010212403633,0
0.3,0.000568703762761673,0.000330033466705088,-0.0284796308006284,-0.0165096904910699,0.000204909062004621,-0.000624786631765637,-0.0102732934078585,0.0312748891797729,-2.29885248463422,-0.000129975216286853,0
0.31,0.000578812442005181,0.000333960584252481,-0.0288345186378319,-0.0167061442783019,0.000209841462605821,-0.000634444698477109,-0.0104074702527796,0.0316576891869957,-2.29885285642386,-0.000406753172951734,0
0.32,0.000581645790561218,0.00033480366217605,-0.0289657869793815,-0.016748311792443,0.000211394697968318,-0.000636959653003989,-0.0104773604497948,0.0317765272054211,-2.29885406617346,-0.000413588906880136,0
0.33,0.000581937130153912,0.000334984591680421,-0.0290035658694675,-0.0167573698930891,0.000211491161690436,-0.00063728877962969,-0.0104995029081025,0.0318084378359123,-2.29885503547742,-0.000360230945057653,0
0.34,0.000581583040378025,0.000335023388799211,-0.029008197373862,-0.0167592995369758,0.000211200658346487,-0.000637082244150522,-0.0105016576550551,0.0318129662613695,-2.2988556168091,-0.000312501553761934,0
0.35,0.000581213480415977,0.000335031694426917,-0.0290040964760188,-0.0167597182568719,0.000210919078425411,-0.000636842593145276,-0.0104983084140576,0.0318105531055853,-2.29885591324383,-0.000282545853801172,0
0.36,0.000580968891926491,0.000335033467307616,-0.0289995308608457,-0.0167598077895354,0.000210735237107338,-0.000636681189798923,-0.0104948365410984,0.0318075832666825,-2.29885604575462,-0.000266795601052206,0
0.37,0.000580836003856765,0.00033503384419047,-0.0289964341199638,-0.0167598257083487,0.000210635757052002,-0.000636593055240528,-0.0104925113680602,0.0318055365406521,-2.298856097156,-0.000259555421235532,0
0.38,0.000580773139588062,0.000335033924076455,-0.0289947075202284,-0.0167598303329317,0.000210588767496836,-0.000636551286977888,-0.0104912189264793,0.031804391244118,-2.29885611334127,-0.000256651322146886,0
0.39,0.000580747178972997,0.000335033941140512,-0.0289938600351744,-0.0167598319422794,0.000210569375477998,-0.000636534025572902,-0.010490585139888,0.0318038285414743,-2.29885611636546,-0.00025568408449981,0
0.4,0.000580738040370248,0.000335033944949874,-0.0289934724455299,-0.0167598320485603,0.000210562551816601,-0.000636527947205959,-0.0104902957731994,0.0318035707010462,-2.29885611552089,-0.000255467469368287,0
0.41,0.000580735770271476,0.000335033945912606,-0.0289933046902195,-0.0167598321352668,0.000210560857500721,-0.000636526437059088,-0.0104901705356035,0.0318034591231234,-2.29885611414112,-0.000255486827930232,0
0.42,0.000580735653856155,0.000335033946213978,-0.0289932190673328,-0.016759832215831,0.000210560771046254,-0.00063652635960489,-0.0104901065996355,0.031803402197209,-2.29885611312584,-0.000255550011529556,0
0.43,0.000580736119517441,0.000335033946329662,-0.0289931669072047,-0.0167598322947348,0.000210561118942007,-0.00063652666942972,-0.0104900676299107,0.0318033675414501,-2.2988561125414,-0.000255600649713993,0
0.44,0.000580736468763406,0.000335033946378302,-0.0289931181429689,-0.0167598323739727,0.000210561379794238,-0.000636526901801296,-0.0104900311854937,0.0318033351487416,-2.29885611225224,-0.000255631022923302,0
0.45,0.000580736701594049,0.000335033946398585,-0.0289930706378102,-0.016759832453543,0.000210561553660843,-0.000636527056720826,-0.0104899956755029,0.0318033035958187,-2.29885611212697,-0.0002556465121289,0
0.46,0.000580736876217032,0.000335033946406126,-0.028993024391466,-0.0167598325332793,0.0002105616840356,-0.000636527172914771,-0.010489961102555,0.0318032728814912,-2.29885611208062,-0.000255653436538455,0
0.47,0.000580736934424693,0.000335033946408614,-0.0289929744013526,-0.0167598326133475,0.000210561727492562,-0.0006365272116465,-0.0104899237337384,0.0318032396765686,-2.29885611206722,-0.000255656122761871,0
0.48,0.000580736934424693,0.000335033946409054,-0.0289929224180017,-0.0167598326935818,0.000210561727492937,-0.000636527211646608,-0.0104898848765328,0.0318032051455542,-2.29885611206617,-0.000255656968717066,0
0.49,0.000580736934424693,0.000335033946408833,-0.0289928707718756,-0.0167598327738161,0.000210561727491811,-0.000636527211646864,-0.0104898462709574,0.0318031708389689,-2.29885611206817,-0.000255657126838481,0
0.5,0.000580736934424693,0.000335033946408544,-0.0289928192469235,-0.0167598328540503,0.00021056172749071,-0.000636527211647076,-0.0104898077558335,0.0318031366130157,-2.29885611207021,-0.000255657082736997,0
0.51,4.69717587063353,0.0104970483260846,5.14198283757271,-0.495510882277025,-2.69921098405757,3.84419450746556,-3.36909734044663,3.91595475547697,0.61440392337324,190.598056087052,3494.01280475444
0.52,4.66668656173837,0.0190150704208651,6.66750975960418,-0.896570713990527,-1.39618334127873,-4.45297620877861,-1.11224400033395,-6.63494074753676,2.84183578710613,422.865277971574,3494.01280475444
0.53,4.58662313648985,0.0514094443958355,10.6719985933704,-2.46874283083412,-2.07505418422905,4.09070957899367,-7.12325434759736,8.32138766319236,0.480646982080423,645.539074839005,3494.01280475444
0.54,4.56583930611181,0.0392298173850183,11.7128139233586,-1.8475246033002,1.07452542645602,4.43777226271326,0.859178956344267,11.8264605306912,-0.228967806540001,873.128307957119,3494.01280475444
0.55,4.5517467139229,0.0520055855911619,12.4193510170066,-2.44628128172274,-2.92847365117546,3.48498849395686,-9.95260720484896,7.82113684951992,0.710266966450542,1096.58891648332,3494.01280475444
0.56,4.54443753479626,0.0530034363825667,12.7870405593315,-2.48057345732781,0.575880414546384,-4.50811308865199,4.22485254389269,-12.3212122749976,-3.00287482589534,1319.82552199549,3494.01280475444
0.57,4.50941099423359,0.111307834488241,14.5408188627571,-5.35746385484643,-4.15132165501968,1.76456948446296,-15.4918306854539,0.375518533135335,1.19355152641489,1540.1709579106,3494.01280475444
0.58,4.43809446989693,0.157448475880449,18.1093312963924,-7.60798777782312,-2.81436240288087,3.43523460793253,-17.6765249572979,8.56561868542061,0.721838840432534,1759.54213831125,3494.01280475444
0.59,4.39450492180548,0.151804743842433,20.2917447944614,-7.29925759652287,-4.25558691462357,-1.10666083336779,-17.3707002401196,-12.7786087439852,1.8597407077431,1977.97593469268,3494.01280475444
0.6,4.37378302849654,0.165908734184565,21.3310257160627,-7.96880175281467,4.32522138074846,-0.670793333269998,22.1097009497768,5.4475300262073,-1.68674495860272,2195.74884740364,3494.01280475444
0.61,4.30814368954216,0.156623735899097,24.6164586729264,-7.54124363428064,-2.20757500580868,-3.70286991914619,-5.21562448326732,-25.2118554334467,2.64032637388397,2412.99736744876,3494.01280475444
0.62,4.22257891440022,0.111856028215112,28.8984290928828,-5.30205167580917,-3.32048819718514,-2.61094668496689,-18.8492797975362,-22.5374268079459,2.26362010436349,2627.91366855285,3494.01280475444
0.63,4.19275417430758,0.159393869289314,30.3936938841333,-7.65408754024724,1.15021223310538,-4.03504718566653,16.7122096974452,-26.5153489704509,-2.82590399465099,2841.42422389453,3494.01280475444
0.64,3.69274871517167,0.222400801404083,29.8509557922965,-10.7562461984787,0.497985775845658,3.66576940858568,-8.49334162940684,30.5718750154797,-0.0748673126854805,3048.27815188311,3494.01280475444
0.65,2.30994635924186,0.150632592554832,29.6244033550591,-7.34842585396866,1.65802318884953,-1.61539514229545,27.2935332425459,-13.6626380985722,-2.27805450929684,3196.63442841258,3494.01280475444
0.66,1.38038295494472,0.0095062673418097,31.6213109104698,-0.39794125650862,-0.629315552727868,-1.22862093687008,-13.866209592817,-28.4217151570467,2.67510906960486,3290.97852934604,3494.01280475444
0.67,0.835114159831861,0.117379215680148,30.5082525321593,-5.85242412761825,0.671097284508669,-0.510707328075927,29.4744421354267,-9.81129968663262,-2.08166257878298,3351.16354362268,3494.01280475444
0.68,0.48283776995249,0.0084405145000884,30.0599257940365,-0.43147124630524,0.283156563680524,-0.39118526917863,18.3936740068779,-23.7793621173503,-2.49756423978533,3389.84094569575,3494.01280475444
0.69,0.25961608407319,0.0504127107227491,29.6436298170515,-2.53523818826764,0.0692692529733548,-0.255232684240139,15.3506640900558,-25.4858653648627,-2.68478478017754,3414.55142251581,3494.01280475444
0.7,0.117409908362078,-0.0231317522330431,29.4044255773567,1.16007506293682,0.0686318128095925,-0.0980297853380875,10.8288695622887,-27.3624122052295,-2.72531732425742,3430.44556953535,3494.01280475444
0.71,0.00534191237089274,0.0674648148609884,30.3774111144442,-3.35219247224834,-0.0577339103885048,-0.0353105205747216,16.7435428505961,-25.5671287632618,-2.67169742188672,3440.68528702608,3494.01280475444
0.72,-0.059232279301305,-0.0014682841200832,30.6451812797926,0.106973595950114,-0.0314533193109967,0.0502126226541253,16.8174618772535,-25.6185783178674,-2.55720183019009,3447.35597652065,3494.01280475444
0.73,-0.150210934245508,0.0209624059731406,33.3195594367283,-1.13812744061697,-0.116603039652948,0.0969870010608853,23.2674452527385,-23.8770677961003,-2.40326936501161,3451.54977327358,3494.01280475444
0.74,-0.0960215466613604,0.018725916143549,29.3424937582997,-1.01723461233753,-0.0876816219122837,0.043390442927981,23.9385381045237,-16.9989146603735,-2.22292685705733,3454.53748418283,3494.01280475444
0.75,-0.11553916672206,-0.077446691215404,29.4581840184956,3.82531111581607,-0.0432849109573198,-0.132188144364232,-4.29045436087246,29.3940404194049,0.274072896464951,3456.61175018027,3494.01280475444
0.76,-0.0815233972694198,0.0407647101123573,27.3213810729299,-2.04215295391789,0.0740765283076796,-0.0531083218222316,-14.5467736145696,23.2167962868676,0.485115248868679,3458.0194231937,3494.01280475444
0.77,-0.121843880644452,-0.0273375938231892,28.9952047480966,1.39099677454842,0.0581349641006447,-0.110515162921465,-17.7297744592771,22.9850357414126,0.70496954940297,3459.05862651354,3494.01280475444
0.78,-0.191075804061662,-0.00512873913839476,32.2172096141353,0.222851524610626,0.150284100225687,-0.118114165460016,-25.7223051796828,19.4000328444674,0.931522982374039,3459.91762655851,3494.01280475444
0.79,-0.162877486260375,-0.00102798518301743,30.6443283419434,-0.04015220840351,0.149138092202799,-0.0654825300224756,-28.1518979872208,12.1056644363616,1.16337756211742,3460.45243121895,3494.01280475444
0.8,-0.145909464719574,-0.0310916060047914,29.7057547742662,1.49611129869536,0.138462461697271,-0.0555374338571882,-29.0145954984754,6.54396392003926,1.3992894084079,3460.92977902461,3494.01280475444
0.81,-0.116265612185041,0.0399309925557411,28.2556810080859,-2.00971955864424,0.113324558388261,0.0476415911715245,-28.0571762962035,-3.9009409401913,1.63793945958052,3461.33830531088,3494.01280475444
0.82,-0.105828507170142,0.000443371839980142,27.6701065088711,0.000710840258189262,0.100682262441762,0.0326029375679149,-26.3600271752782,-8.4133086259902,1.87977114557855,3461.87886645266,3494.01280475444
0.83,-0.208857820572344,0.00194137896557792,32.8007803708018,-0.112436330679693,-0.200734115310833,0.0577163158638405,31.4700678580972,-9.24871147072897,-1.8600652921597,3462.13033226245,3494.01280475444
0.84,-0.156837497033272,-0.00957060682811155,30.139274137288,0.386650540779214,-0.156296483022747,0.0161556920446014,30.0963730364244,-1.65338265857222,-1.61284934661509,3462.50375814779,3494.01280475444
0.85,-0.152848831865165,-0.00520548027877891,29.9152913704905,0.197980579404907,-0.150627011869999,-0.0264833102650221,29.3108692330497,5.98638445927324,-1.36271145488459,3462.75811331528,3494.01280475444
0.86,-0.0982628043644112,0.0631476270093057,27.3307472149899,-3.17109197212072,-0.0601160900582723,-0.100146179330869,23.0971789551322,14.9514511650183,-1.11181181521021,3462.9240329162,3494.01280475444
0.87,-0.10130653595344,-0.0547373542448188,27.4806913471857,2.76128323525827,-0.112466226173875,-0.0247091106034858,22.6141859646778,15.8559665482611,-0.859153356848842,3463.29910497723,3494.01280475444
0.88,-0.215854956799338,0.048682636733478,33.1960504518333,-2.44801837847027,-0.0826164159970194,-0.205275155101574,16.8514755055562,28.7053711501459,-0.604453714189416,3463.5523186308,3494.01280475444
0.89,-0.17302905735163,-0.00715481258648266,30.9732344265657,0.263767315863993,-0.0655616401847058,-0.160286984398087,10.7795316416336,29.0381218681053,-0.346936817601056,3463.94569838374,3494.01280475444
0.9,-0.129408830318912,-0.0319412855512168,28.7341290551414,1.53824020552598,-0.0429576240695271,-0.126180559602003,4.00492227202473,28.4952093005554,-0.0861500880174722,3464.34399702458,3494.01280475444
0.91,-0.132138172199644,0.0879445115746028,28.9213751853261,-4.41473477180622,0.012498376845826,0.158235660470635,-14.3989460648286,-25.4677477986953,2.4755415861351,3464.57157772834,3494.01280475444
0.92,-0.165133570906361,0.0200891956205479,30.6986353942787,-0.988898965009173,0.0461998787599347,0.159806893541969,-11.1149533387634,-28.6328822948541,2.73910796977009,3464.69468741221,3494.01280475444
0.93,-0.197025420305751,-0.0166667096564207,32.3012036309351,0.812476014694052,0.043560583810889,0.192871125354429,-5.23975753242751,-31.8837390260766,3.00385691967107,3464.87233132784,3494.01280475444
0.94,-0.143111247417148,-0.00931125986855137,29.511462230073,0.375306174523193,-0.00928303899225287,0.143113080760286,3.44610376276233,-29.3119707037575,-3.01184682111815,3465.25173884834,3494.01280475444
0.95,-0.146701750434633,-0.0761897474144554,29.7204751422884,3.75234012437757,0.0131909110920693,0.16477949221983,8.09238719386912,-28.8426761691231,-2.74246566310907,3465.44157663249,3494.01280475444
0.96,-0.123924194753156,0.0618649464456424,28.5398930886258,-3.10636399811196,-0.125504431082424,0.0585927932651915,20.1779669018353,-20.4211813200754,-2.47060113880178,3465.9313723572,3494.01280475444
0.97,-0.108729463192082,-0.0146253621622076,27.7703998316725,0.755262326317356,-0.0796281691077348,0.0754675563998467,22.0810671397976,-16.8579951939803,-2.19566589597929,3466.34668995222,3494.01280475444
