t,iq,id,vq,vd,ia,ib,va,vb,theta_e,omega,r
0,0,0,0,0,0,0,0,0,0,0,0
0.01,0.00116176061287254,0.000660012391666775,-0.0577758187940513,-0.033063326086258,8.72447741793445e-05,0.00133330132684029,-0.00455483430272637,-0.0664114617643972,0.451301821508952,-0.00106989039124333,0
0.02,0.00129412478707948,0.000736490175539239,-0.0644232098308186,-0.0368944727938248,9.83481971115115e-05,0.00148576726822347,-0.00510380709493606,-0.0740641832519447,0.451294045889844,-0.00112170932619678,0
0.03,0.00132833170399332,0.000756256367835648,-0.0661366781342231,-0.0378846819139485,0.000101228554279483,0.00152516936420984,-0.00524817078710419,-0.0760379248910717,0.45128633318088,-0.00107800035089712,0
0.04,0.00130820505654712,0.000745692319331693,-0.0651555777026381,-0.037355466182998,0.000100510147141211,0.0015024497380636,-0.00520033296430834,-0.074924206345973,0.451279452245786,-0.00098939162974703,0
0.05,0.00132632664448644,0.000756319052851945,-0.0660694743271293,-0.0378877976721267,0.000102180087424468,0.00152339098963971,-0.00528131469678409,-0.0759787362712801,0.451272764604838,-0.000940187448729947,0
0.06,0.00132550355830052,0.000756397990344628,-0.0660434538606606,-0.0378917506527237,0.000102619572675031,0.00152268408613498,-0.00529669331041699,-0.0759570115614666,0.451266530328107,-0.000876963577805693,0
0.07,0.00136126764725555,0.000777108609438424,-0.06782938716576,-0.0389292656633946,0.000105669021334719,0.00156389943930489,-0.00545194062068119,-0.0780165997198179,0.451260790463082,-0.000854531978808881,0
0.08,0.00132405014680958,0.000756553131755797,-0.0659978506147458,-0.0378995398544416,0.000103410012946188,0.00152144267117051,-0.00532443831790162,-0.07591931087374,0.451255364427399,-0.000763746979984054,0
0.09,0.00132295579455725,0.000756388598554262,-0.0659554257662563,-0.0378912849956743,0.000103746771238197,0.00152038559379953,-0.00533588932960157,-0.0758775062300666,0.451250379115598,-0.000712761931540591,0
0.1,0.00132222232221191,0.000756384091601444,-0.0659300351612415,-0.0378910674905378,0.000104069607710971,0.00151972309324235,-0.00534711718060145,-0.0758545375689019,0.45124575226457,-0.000665719300414518,0
0.11,0.0013215437979272,0.000756381068940718,-0.0659065796997996,-0.0378909082665023,0.000104369307091711,0.00151911071980582,-0.00535752818527976,-0.0758333374495048,0.451241457703716,-0.000622057498150537,0
0.12,0.00132091380670275,0.000756378271833627,-0.0658847980271387,-0.0378907835135664,0.000104647571581555,0.00151854214976143,-0.00536721674168446,-0.0758136601859889,0.451237471565328,-0.000581531374239033,0
0.13,0.00138222040726215,0.000791407626645849,-0.0689323535238377,-0.0396455626621676,0.00010944252811926,0.00158898760813419,-0.00561769513207299,-0.0793213811184493,0.45123350372067,-0.000601863284203739,0
0.14,0.00149002294817545,0.00085403886894329,-0.0743597043285432,-0.0427830776837622,0.000118801095812485,0.00171331172744167,-0.00607474788008112,-0.0855736805455781,0.451229894059568,-0.000671330721438765,0
0.15,0.00132061772116218,0.000757135856351085,-0.065896104181514,-0.0379287148130483,0.000105475107417652,0.00151860490982194,-0.00539725318492967,-0.0758403165323581,0.451226499313274,-0.000471386739331913,0
0.16,0.0013187323777868,0.000756374519987385,-0.0658095687732923,-0.0378905846905879,0.000105616531044847,0.0015165759615263,-0.00540089557034014,-0.0757457990740053,0.451223585425311,-0.000440365984784354,0
0.17,0.0013182934116905,0.000756366672206393,-0.0657942106833689,-0.0378901917257045,0.000105804984988819,0.00151617722159471,-0.00540744376593032,-0.0757317921376253,0.451220882804356,-0.0004128772963228,0
0.18,0.00131789705386988,0.00075636486350842,-0.0657805038931175,-0.037890095567077,0.000105979997356964,0.00151581947853603,-0.00541352421951478,-0.0757194016751282,0.451218374294406,-0.000387373767907367,0
0.19,0.00131752897285622,0.000756363227399128,-0.0657677711564272,-0.0378900337164184,0.000106142559840225,0.0015154872757855,-0.00541919710041247,-0.0757079036871474,0.451216045938325,-0.000363701918641339,0
0.2,0.00131718779589642,0.000756361708942444,-0.0657559754498971,-0.0378899404301768,0.000106293241562588,0.00151517935281963,-0.00542442038098292,-0.0756972361232575,0.451213884797829,-0.000341730110792049,0
0.21,0.00131687070478771,0.000756360299381347,-0.0657450051903444,-0.0378898756148073,0.000106433282043166,0.00151489316853758,-0.00542929754843221,-0.0756873246304463,0.451211878863861,-0.000321336251756338,0
0.22,0.00131657666391449,0.000756358990914388,-0.0657348357901536,-0.0378898136795152,0.000106563142992796,0.00151462778650622,-0.00543381714732324,-0.0756781358665519,0.451210016990179,-0.000302407018021672,0
0.23,0.001316303577798,0.000756357776300136,-0.0657253877362626,-0.0378897517159268,0.000106683747533894,0.0015143813168108,-0.00543801202317183,-0.0756695969555308,0.451208288830607,-0.000284837224631247,0
0.24,0.00131605028228502,0.000756356648814686,-0.0657166262685383,-0.0378896897241461,0.000106795611983582,0.00151415270794254,-0.00544189806664763,-0.0756616765670906,0.4512066847823,-0.000268529240693226,0
0.25,0.00131581514756105,0.000756355602214549,-0.0657084916395896,-0.0378896277062929,0.000106899455069588,0.00151394048960263,-0.0054455020127786,-0.0756543208885013,0.451205195932061,-0.000253392446870038,0
0.26,0.00132678532703447,0.00076261020865927,-0.0662553776833364,-0.0382029689510375,0.000107746654484912,0.00152653997420068,-0.00548911938544194,-0.0762831008612514,0.451203825808927,-0.000250421732549407,0
0.27,0.00127676415170881,0.00073433257897659,-0.0637796717229556,-0.0367863848433162,0.000104112651264072,0.00146919419801532,-0.00529393197088768,-0.0734374490244327,0.451202472862317,-0.000187873230460986,0
0.28,0.00125484694395048,0.000721415609784016,-0.0626270414797906,-0.0361393205634415,0.000102047085380312,0.00144383784655594,-0.00521431382223405,-0.0721180126366628,0.451201251848997,-0.00015417757043727,0
0.29,0.00131452240005904,0.000756078355877781,-0.0656561337532994,-0.0378757559443339,0.000107221157850545,0.00151265569241418,-0.00545622401857939,-0.0756011270236427,0.451200237888348,-0.000202486280919408,0
0.3,0.00131205572987324,0.000754809354524704,-0.0655355141361697,-0.0378121775753968,0.000107155765230281,0.00150988245964681,-0.00545165552438039,-0.0754648516736695,0.451199555018269,-0.000193232861747749,0
0.31,0.00131474595689207,0.000756338867059955,-0.065671128202889,-0.0378888005905473,0.000107360622118895,0.00151297029376251,-0.0054615501457188,-0.0756202999176566,0.451198582232955,-0.000186128743487874,0
0.32,0.00131462664400801,0.000756350219556309,-0.0656673535508671,-0.037889372104918,0.00010742423628268,0.00151286777387111,-0.00546377896036657,-0.0756171472640417,0.451197675317924,-0.000176931855745674,0
0.33,0.00131449382623953,0.000756349721470611,-0.0656627553015222,-0.0378893441509431,0.000107482975845786,0.00151274794010564,-0.0054658224936532,-0.075612992391811,0.451196833501193,-0.000168373496217896,0
0.34,0.00131437055452366,0.000756349172661884,-0.0656584868571811,-0.0378893132643987,0.000107537415630079,0.00151263668136957,-0.00546771500089949,-0.0756091333682069,0.451196052141043,-0.000160429586870208,0
0.35,0.0013142558975413,0.000756348662568975,-0.0656545121860863,-0.0378892823575192,0.000107588048825042,0.00151253319809583,-0.00546947514389679,-0.0756055390140899,0.451195326895754,-0.000153056183524578,0
0.36,0.00131414926110671,0.000756348189086122,-0.0656508113985717,-0.0378892827620977,0.000107635138754009,0.00151243695422539,-0.0054711400975125,-0.0756022050706884,0.451194653735587,-0.000146212315715077,0
0.37,0.00131405066943844,0.000756347749591988,-0.0656473948443798,-0.0378892518140162,0.000107678678184749,0.00151234797002173,-0.00547264923955103,-0.0755991135079022,0.451194028919736,-0.000139859953813176,0
0.38,0.00131395929551982,0.000756347341647994,-0.0656442296481985,-0.0378892208482495,0.000107719030811881,0.00151226549980547,-0.00547404536752398,-0.0755962483851357,0.451193448976309,-0.000133963799349808,0
0.39,0.00131387396308549,0.000756346962989891,-0.0656412648602444,-0.0378892182816386,0.000107756712391288,0.00151218848369925,-0.00547537651502552,-0.0755935762248693,0.45119291068276,-0.000128491088884876,0
0.4,0.00131379516202128,0.000756346611515901,-0.0656385322721074,-0.0378891872829478,0.000107791511963606,0.00151211736133499,-0.00547657790242442,-0.0755911008404922,0.451192411047948,-0.000123411411950971,0
0.41,0.00131372170395335,0.000756346285275436,-0.0656359792535813,-0.0378891875917489,0.000107823950165444,0.00151205106212018,-0.0054777264502826,-0.0755888009024827,0.451191947295409,-0.000118696542066555,0
0.42,0.00131365384592909,0.000756345982457402,-0.0656336249307561,-0.0378891565642566,0.000107853917194572,0.00151198981631806,-0.00547875763925785,-0.0755866662939449,0.451191516848241,-0.00011432027989195,0
0.43,0.00131359063240946,0.000756345701380501,-0.0656314273798086,-0.0378891568426721,0.000107881831818171,0.00151193276302692,-0.00547974630443609,-0.0755846865879506,0.451191117314488,-0.000110258307644509,0
0.44,0.00131353232044127,0.000756345440484339,-0.0656294048577187,-0.0378891257898325,0.000107907583916601,0.00151188013265555,-0.00548062828428117,-0.0755828508903021,0.451190746474183,-0.000106488053971536,0
0.45,0.00131347772165545,0.000756345198320219,-0.0656275029813895,-0.0378891260424737,0.000107931693484194,0.00151183085490702,-0.00548148381651285,-0.0755811375609289,0.451190402266528,-0.000102988568526121,0
0.46,0.00131342755875947,0.00075634497354371,-0.0656257625615311,-0.0378890949676612,0.000107953847082872,0.00151178557937748,-0.00548223888579474,-0.0755795560059067,0.451190082778887,-9.97404055523912e-05,0
0.47,0.00131338052696955,0.000756344764906472,-0.0656241226938368,-0.037889095197495,0.000107974615213594,0.00151174313112172,-0.0054829765474861,-0.0755780787159895,0.451189786235995,-9.67255158300054e-05,0
0.48,0.00131333687122396,0.000756344571250438,-0.0656225996511849,-0.0378890954165815,0.000107993892528761,0.00151170372988653,-0.0054836616491247,-0.0755767066719927,0.451189510989959,-9.39271463786242e-05,0
0.49,0.00131329647510736,0.000756344391499102,-0.0656211913333035,-0.0378890956252657,0.000108011731137999,0.00151166727027416,-0.00548429522258187,-0.0755754379756685,0.451189255511285,-9.13297473664376e-05,0
0.5,0.00131325935072712,0.000756344224655083,-0.0656199018084071,-0.0378890645139381,0.000108028127014864,0.00151163376259429,-0.00548484742497761,-0.0755742626282987,0.451189018380344,-8.89188857042578e-05,0
0.51,4.01519574544517,-0.0304529125024266,12.0360782921579,1.53129915196708,-0.259801276205343,4.00689749694236,0.841146890254962,12.1039055538609,0.0571636106228266,17.4887445396915,775.939175859701
0.52,4.03409478176505,0.055734066247861,7.96224576551438,-2.7788968707143,-0.970142619957769,3.91610141484436,-4.70907928884455,6.99601298597227,0.256657570379746,36.9198212515349,775.939175859701
0.53,3.92070203955154,-0.0251494351215968,10.4031144456741,1.28153497027421,-2.23102008741101,3.22414117969407,-4.80613979649222,9.31494188422035,0.598904243322302,56.5778011751829,775.939175859701
0.54,3.71851340536168,0.0209824915225654,16.8983101213143,-1.03454961772596,-3.28623140949139,1.7402486414525,-15.4569978469791,6.90683686112065,1.08942588445699,77.4476508186899,775.939175859701
0.55,3.6795328318633,-0.00669028764734958,15.4444783592786,0.359665845630018,-3.63173497862779,-0.591191733467392,-15.3054550350597,-2.09864658303938,1.73034757913788,96.9348187525239,775.939175859701
0.56,3.6524018919761,0.0813078592435481,13.812163723834,-4.03222385110454,-2.2307146201971,-2.89319249821444,-4.94091845839495,-13.5137715204492,2.50703055241907,115.059771605,775.939175859701
0.57,3.63108608312032,0.0836731838706948,11.4596598696997,-4.16300307847072,0.924266544158847,-3.51248041988533,7.17121543067079,-9.86042941293489,-2.86124819380306,134.455152042744,775.939175859701
0.58,3.58473159395291,-0.0126687709606721,10.8184288194578,0.688060860081598,3.48456273629008,-0.841595885981156,10.3431206398463,-3.24525581402102,-1.81131326884993,151.976421956257,775.939175859701
0.59,3.49628596260653,0.0472538315400795,11.9749887121964,-2.32691952488312,2.09392113244014,2.80031118771384,5.15867802707303,11.0545443210251,-0.628542291793252,170.371848119494,775.939175859701
0.6,3.3453433875367,0.0424700677860974,16.5144914298045,-2.09367696214396,-2.07829168409955,2.62179895548761,-12.0463181451571,11.4890438920111,0.68296648681338,187.92105423275,775.939175859701
0.61,3.34567938653184,-0.0245212109139624,13.5179829007582,1.29648753906039,-2.83508035042966,-1.77665169739495,-12.1873209597703,-5.990488249523,2.1232645008882,204.782359617921,775.939175859701
0.62,3.17992853231281,-0.0453487038985516,18.7694460690174,2.33281972940134,1.69210416998761,-2.69272825466532,7.76625355357606,-17.2458533963734,-2.5948137502751,221.751492200875,775.939175859701
0.63,3.19061390220347,0.0211305035784697,15.2643477598864,-1.00315192172484,2.52782333690583,1.94693932841006,11.4138814495221,10.1847894710232,-0.907867020854162,238.397639118156,775.939175859701
0.64,3.15740027969986,0.0516578958619147,14.0200576067282,-2.53540398173086,-2.43876528764115,2.00605805904271,-12.550254707509,6.74398957763154,0.898802626024373,254.651471013666,775.939175859701
0.65,3.02948262356224,0.0163184677792785,17.5580699647882,-0.765762842106416,-0.963985668299722,-2.87206596201566,-4.76991616559615,-16.9150853793864,2.82315233327568,270.539763126964,775.939175859701
0.66,2.96804323283081,0.101621105753006,17.8185734287628,-5.03430870968362,2.94977223965926,0.344167423244586,16.8632997318898,7.64689122278162,-1.42042051085481,286.06168259028,775.939175859701
0.67,2.95938426285472,-0.0316059522602434,15.48975527568,1.65206406886884,-2.00185817231282,2.17979769919019,-9.12626482049737,12.6243068963906,0.732191908645218,301.248039013435,775.939175859701
0.68,2.84442587281809,0.00483816877185328,18.5289114907089,-0.15869478159329,-0.419093058593497,-2.81338638691396,-2.54183690570308,-18.3544220886694,2.99541707112792,316.079481406716,775.939175859701
0.69,2.78394177605706,0.0074332756801293,18.8791049978167,-0.27675417528383,2.21321692213532,1.68880369541192,14.8096172623622,11.7120636496933,-0.9163229180569,330.728649560135,775.939175859701
0.7,2.67899569884724,-0.0102974281131989,21.4169281822853,0.557748620750906,-2.6789800408001,0.0137815986892163,-21.411050102808,0.750219823893735,1.56180828135748,345.325974371904,775.939175859701
0.71,2.69871115390577,0.010989893416478,17.7842558958768,-0.481311039273822,2.26900332933315,-1.46109088062578,15.250413439543,-9.16167604805816,-2.13882392101319,359.320771076902,775.939175859701
0.72,2.64056110127616,0.00988850683150377,18.1499565795798,-0.392611165352666,-1.36175674088911,2.26236144123418,-9.75378334928982,15.3113937230713,0.545573650588801,372.988574189966,775.939175859701
0.73,2.54179572922383,0.104820025264411,20.4919197940685,-5.20318485077248,0.373421296590869,-2.51640006796402,8.95158347241198,-19.1536174853286,-2.953057495907,386.66908077646,775.939175859701
0.74,2.4695591617555,0.103016057060439,21.6242736981126,-5.06151198317366,0.277079785536771,2.45612734887052,-3.52247696636896,21.9276143834229,-0.0706465289896438,399.705557938309,775.939175859701
0.75,2.49130523662597,-0.011569296238685,18.0356215130807,0.628620758587045,-0.566449470004544,-2.42608133181619,-4.79372765213641,-17.3982465386133,2.90757466770566,412.798463992053,775.939175859701
0.76,2.39513643869776,0.0661117972052537,20.4394545227831,-3.20394145716353,0.779024826560141,2.26587061618938,3.05214414951492,20.4626723118079,-0.303552585870577,425.321923159957,775.939175859701
0.77,2.33218268098497,-0.0524115758785092,21.1366630921533,2.69389844733512,-0.596207209792347,-2.25529598806098,-8.44814092155311,-19.5613018606976,2.86067679478526,437.859545079095,775.939175859701
0.78,2.16017248962809,0.0170109817338096,27.3888820666105,-0.817857200777803,0.378475178144154,2.12682653217753,3.77974821207839,27.1391461677197,-0.168234818853635,450.053714325703,775.939175859701
0.79,2.17371857277535,0.102633153510854,24.3807118309884,-5.0331706342429,-0.0316696380875549,-2.17590970213644,5.82581536968086,-24.2035491467159,-3.10896585620624,461.842888425533,775.939175859701
0.8,2.15954167932836,-0.0184103789989906,22.7694982285062,1.0079848624,-0.696646229857086,2.04417299591721,-6.20410760903046,21.9311452468024,0.319927034366734,473.521670434374,775.939175859701
0.81,2.0678207488808,-0.00483811896596986,25.075232737644,0.296119700580102,1.3226338505048,-1.58951116837723,15.7655426484998,-19.5013499205163,-2.44992180486184,484.982538945679,775.939175859701
0.82,2.07567782336765,0.00617051685033687,22.4538326313597,-0.27168788655835,-1.88873355852364,0.860907687621085,-20.5709998930623,9.00457536724796,1.14609230963815,496.197581458603,775.939175859701
0.83,2.05127822966121,-0.00614779270995144,21.4787225783905,0.341618955085641,2.03801037422663,0.233010483416183,21.3847046819348,2.03632825850138,-1.4599553464975,507.127159664705,775.939175859701
0.84,1.88116814216378,-0.0132210545658312,27.8120601461917,0.714460473092412,-1.39831147039038,-1.25844880990466,-21.2772157554395,-17.9248774902221,2.29657098398969,517.796832197447,775.939175859701
0.85,1.86102779060345,0.0400201714396112,26.6677311429229,-1.91535649719696,0.321802501201923,1.83343099181305,2.15125293658418,26.6497389410368,-0.15224845423015,528.284191549127,775.939175859701
0.86,1.76121496444127,0.0806540647319992,29.5458579285965,-3.95327428235339,0.95255205639131,-1.48358613130291,20.3092076336509,-21.8202241872439,-2.52505647820112,538.54043734179,775.939175859701
0.87,1.72450302834388,0.0222383037358077,29.3130332628674,-1.0640084473213,-1.44681407090477,0.93868753115838,-25.3620807141469,14.7360406790644,1.00816256995796,548.536462816892,775.939175859701
0.88,1.70690039377594,-0.034952195962979,28.1510911328814,1.77236600820227,1.58973087047502,0.622484031709904,27.0301170277807,8.06213288797118,-1.21805614068328,558.325278468,775.939175859701
0.89,1.64425859382035,0.0451517048527147,29.264352614997,-2.24060809823918,-0.421824219197161,-1.5898708525858,-4.54485517593102,-28.9959816190897,2.90970145175768,567.915614785594,775.939175859701
0.9,1.69423584961159,0.0265143984630632,24.7738204847369,-1.287517448844,-1.22504314332249,1.17064402122657,-19.0513608061893,15.888534672003,0.823749858640305,577.243953364796,775.939175859701
0.91,1.64656968357318,0.0781908803818119,25.2059447638818,-3.84608141588604,1.56008757010358,0.532383611924206,22.0287803188879,12.8399700684878,-1.19448414275133,586.367492963532,775.939175859701
0.92,1.57660469492371,0.053019266312508,26.8002945221297,-2.55321433734077,-0.0608219398893044,-1.57632296763192,2.42053639935582,-26.812603257884,3.13664318536013,595.246291961021,775.939175859701
0.93,1.53714968151033,0.0581915418611974,26.8943028152232,-2.8429891369044,-1.43998322729747,0.540984014563689,-26.4144606817816,5.80192882066765,1.24926157470681,604.016802468129,775.939175859701
0.94,1.50209811619926,-0.054204031804622,26.7729818126274,2.73805448988148,0.771153152972364,1.29017814367397,16.853727658705,20.9819294044909,-0.574804313726496,612.578234569412,775.939175859701
0.95,1.47914928160263,0.128723985956775,26.0915550045102,-6.37156983207845,0.976381841877033,-1.11853965538956,23.2163848667701,-13.5042814839014,-2.33714193434932,620.849098479813,775.939175859701
0.96,1.423787238561,0.0458449875126403,27.0638223844172,-2.18835386261154,-1.14166435868006,-0.851982602926163,-19.7931603410088,-18.5868280886871,2.24409007860794,629.003191979312,775.939175859701
0.97,1.42497230641676,0.0650930433905502,25.2246918380089,-3.23798821873752,-0.752310743104742,1.21194542953127,-16.9378165496826,18.9705038561577,0.601183168983692,636.998589061968,775.939175859701
0.98,1.34358151971695,0.0867651452668877,27.5531265584149,-4.25338632979436,1.16694909555562,0.671542477390689,20.5912173499925,18.795420890735,-0.984122044673207,644.714285417395,775.939175859701
