t,iq,id,vq,vd,ia,ib,va,vb,theta_e,omega,r
0,0,0,0,0,0,0,0,0,0,0,0
0.01,0.000928906040900475,0.000518865057690588,-0.0451755567908631,-0.0259692456240928,-0.000464619955083201,-0.000957191557762675,0.0233299241716565,0.046593425370901,-3.08408751335341,-0.00546100730833852,0
0.02,0.00104500171864754,0.000583063638280013,-0.0510344337644092,-0.0291824025543407,-0.000522083366668526,-0.00107676402080897,0.0262031595863513,0.0526262337260579,-3.08412778954199,-0.00559711616362964,0
0.03,0.00108868807556339,0.000608647670967898,-0.0532420419575049,-0.0304628802849761,-0.000545159930884765,-0.00112182635153854,0.0273568777268796,0.0549026715934485,-3.08416684242108,-0.0052908620795552,0
0.04,0.00106049008350515,0.000595000398970381,-0.0519763044894183,-0.0297798443426802,-0.000533190851239529,-0.00109287337241884,0.0267494427810325,0.0535989054772134,-3.08420096626549,-0.00460102199140701,0
0.05,0.00108368095282778,0.000609443274916671,-0.0531770675059317,-0.0305026888010348,-0.000546314889876117,-0.00111683729968269,0.027403948251956,0.0548382909364188,-3.08423246099699,-0.00427743766996167,0
0.06,0.00108275543694805,0.000610417250132301,-0.0532089310822641,-0.0305514554959663,-0.000547372123383312,-0.00111595354475107,0.027452371742193,0.0548721155557865,-3.08426095792715,-0.00384527245183971,0
0.07,0.00110660495365836,0.000625432868599859,-0.0544239056109452,-0.0313029890263879,-0.000561025031715638,-0.00114061023595913,0.0281344567477333,0.0561274528857774,-3.08428598385307,-0.00362264575803442,0
0.08,0.00107995589350523,0.000611491802696864,-0.0532031985678024,-0.0306052406293479,-0.000548658952444756,-0.00111319374350755,0.0275090402164194,0.0548681492142456,-3.08430913166362,-0.00310684418375611,0
0.09,0.00107602438125259,0.000610540977127158,-0.0530682861099659,-0.0305576470735888,-0.000547957257603911,-0.00110920313632833,0.0274703581351348,0.0547301764043443,-3.08432940144203,-0.00277862144350818,0
0.1,0.00107402558772682,0.000610472388499303,-0.0530204459620963,-0.0305542042839093,-0.000548023160351044,-0.00110719380233581,0.0274706459410725,0.0546817218183798,-3.08434745066449,-0.00249591156666589,0
0.11,0.00107235759164831,0.000610464119063483,-0.0529832841623006,-0.0305537842181946,-0.000548128130633128,-0.00110551924335959,0.0274732322445334,0.0546441546801945,-3.08436354578853,-0.00224453669934288,0
0.12,0.0010708787121485,0.00061046033233254,-0.0529505534731577,-0.0305535933298719,-0.000548224786622442,-0.00110403469910015,0.0274756977038712,0.0546110722671366,-3.08437790013944,-0.00202040463329573,0
0.13,0.00112001594614557,0.000638705134221379,-0.0553528795198284,-0.0319672670633255,-0.000573629544769924,-0.00115469871112258,0.0287504765001865,0.0570899074762505,-3.08439176938134,-0.00212554627516794,0
0.14,0.00115992034057707,0.000662738522252051,-0.0574785489920694,-0.0331701393121743,-0.000595357230789538,-0.00119590439129049,0.0298305974838008,0.0592804958648478,-3.08440425135786,-0.00219270031101584,0
0.15,0.00107396809172079,0.000614000116313088,-0.0532002875258979,-0.0307307636957453,-0.0005516238848788,-0.00110730063419927,0.0276403672005369,0.05486948633969,-3.08441562048565,-0.00147580953715446,0
0.16,0.00106661491284732,0.000610689872188453,-0.0528699684849656,-0.0305650922068186,-0.000548748965523944,-0.00109976545914947,0.027494324341876,0.0545299968659114,-3.08442445088402,-0.00129693791133496,0
0.17,0.00106532454794978,0.000610463427801752,-0.0528286558426209,-0.0305537512459006,-0.000548605160298891,-0.00109845999801599,0.0274857860861808,0.0544878899991472,-3.08443222681166,-0.0011724097841067,0
0.18,0.00106457384350822,0.000610446495610391,-0.0528110421869925,-0.0305529130456682,-0.000548638747284669,-0.00109770575167609,0.0274863328494107,0.0544700668160401,-3.08443915424834,-0.00106400887319533,0
0.19,0.00106393489899333,0.000610443953201923,-0.0527967961275665,-0.0305527845359575,-0.000548679484402266,-0.00109706431565921,0.0274873547294311,0.0544556668696187,-3.08444533194199,-0.000967533166533745,0
0.2,0.00106336743357006,0.000610442537843812,-0.0527841976072288,-0.0305527052671832,-0.000548716524049771,-0.00109649467259139,0.0274882951271021,0.0544429329407195,-3.08445084150462,-0.000881506198369742,0
0.21,0.00106286126046039,0.000610441333101613,-0.0527729497715852,-0.0305526540474467,-0.000548749614570397,-0.00109598656043547,0.0274891538251501,0.0544315654644844,-3.08445575523165,-0.000804783790668198,0
0.22,0.0010624100353814,0.000610440262324308,-0.0527629209985998,-0.0305526026222374,-0.0005487791141129,-0.00109553360562748,0.027489913678117,0.0544214296510713,-3.08446013756302,-0.000736358622071168,0
0.23,0.00106200758832648,0.000610439307414029,-0.0527539681146461,-0.0305525539230869,-0.000548805421279678,-0.00109512961574107,0.0274905889467453,0.0544123811501143,-3.08446404596661,-0.000675333305143703,0
0.24,0.00106164868059535,0.00061043845563231,-0.0527459765926529,-0.0305525021467134,-0.000548828879707635,-0.00109476933183364,0.0274911831898852,0.0544043038826689,-3.08446753169543,-0.000620907576219672,0
0.25,0.00106132836418787,0.000610437695841848,-0.0527388304565699,-0.0305524755233949,-0.000548849811702685,-0.0010944477883062,0.0274917337197322,0.0543970824182493,-3.08447064045955,-0.000572367721940482,0
0.26,0.00107187529722968,0.000616498188995681,-0.0532534523678222,-0.0308558111605934,-0.000554301173223877,-0.00110532207035271,0.0277653378526851,0.0549281101567891,-3.08447325292209,-0.000600387723577117,0
0.27,0.00104043423106053,0.000598649350647971,-0.0517480343201485,-0.0299624610326831,-0.000538279593192346,-0.00107291169895124,0.0269595472073512,0.0533740661886362,-3.08447626410021,-0.000355316663082855,0
0.28,0.00103899169884288,0.000597791815942629,-0.0515220483395301,-0.0299195445119001,-0.000537508167124447,-0.00107142138103872,0.0269297183601477,0.053145939430436,-3.08447846940887,-0.000313151040336077,0
0.29,0.00105872180167026,0.000609577137292431,-0.0526383680235643,-0.0305093933757823,-0.000548149755168388,-0.00109179118220949,0.0274549689161615,0.0542940655519094,-3.08448006283168,-0.000414836952601193,0
0.3,0.00105013154891381,0.000605135130519198,-0.0522249509284882,-0.0302870722414414,-0.000544205368070992,-0.00108296136291897,0.0272566103588386,0.0538686312819227,-3.08448009252101,-0.000359741761615355,0
0.31,0.00105941393922081,0.000610075221432624,-0.0526759655409214,-0.0305343448542077,-0.000548609291162126,-0.00109250973271272,0.0274778217253437,0.0543329814622228,-3.08448168501548,-0.000394975612006951,0
0.32,0.00105997072843682,0.000610410191540035,-0.0527068994569801,-0.0305511028019285,-0.000548913645584446,-0.00109308387453572,0.0274928717888656,0.0543647784285304,-3.08448325116576,-0.000375089708559994,0
0.33,0.00105988033451273,0.000610432610525899,-0.0527062560036203,-0.0305522159301869,-0.000548942726347933,-0.00109299413478297,0.0274940963671458,0.0543641608517783,-3.0844846590319,-0.0003534546252514,0
0.34,0.00105975507178115,0.000610433848340679,-0.0527035276238976,-0.0305522951991123,-0.000548952484900957,-0.00109286845717449,0.0274943995371429,0.0543614068989075,-3.08448591548687,-0.000333862871922107,0
0.35,0.00105964011200976,0.000610433679096909,-0.052700930937762,-0.0305522734905276,-0.000548960101925514,-0.00109275305995901,0.02749458698825,0.0543587823952331,-3.08448703612634,-0.000316367342763379,0
0.36,0.00105953725942584,0.000610433441721155,-0.0526985916498013,-0.0305522488174763,-0.000548966827257142,-0.00109264981281945,0.0274947501959804,0.0543564180326309,-3.08448803557886,-0.000300762156809995,0
0.37,0.00105944552415269,0.000610433224139455,-0.0526964974253426,-0.030552249351684,-0.000548972819561107,-0.00109255772532328,0.0274949187038506,0.0543543027442655,-3.08448892694564,-0.000286844464805265,0
0.38,0.00105936345135121,0.000610433029682189,-0.0526946090158499,-0.0305522498380441,-0.000548978178022365,-0.00109247533877931,0.0274950701745794,0.0543523955828491,-3.08448972191574,-0.000274431892824604,0
0.39,0.00105929063391995,0.000610432856221064,-0.0526929362126001,-0.0305522250244522,-0.000548982935183922,-0.00109240224090835,0.0274951794060151,0.0543507045959935,-3.08449043091317,-0.000263361678685571,0
0.4,0.00105922532491894,0.000610432701511398,-0.0526914182858628,-0.0305522225189692,-0.000548987198698963,-0.00109233668238726,0.0274952979007486,0.0543491716144179,-3.08449106323621,-0.000253488653683182,0
0.41,0.00105916723367364,0.000610432563528998,-0.0526900645641582,-0.0305522228879709,-0.000548990992221239,-0.00109227836834957,0.0274954061757196,0.0543478046143873,-3.08449162717627,-0.000244683347758993,0
0.42,0.00105911542885568,0.000610432440465006,-0.0526888497926916,-0.0305522232257168,-0.000548994375197403,-0.00109222636482271,0.0274955031736997,0.054346578013118,-3.08449213012922,-0.000236830292349425,0
0.43,0.00105906950336338,0.000610432330707464,-0.0526877725606526,-0.0305521982854798,-0.000548997376472641,-0.00109218026165714,0.0274955641284488,0.0543454887799962,-3.08449257868978,-0.000229826506248107,0
0.44,0.00105902817592434,0.000610432232817549,-0.0526867856761866,-0.0305521985720616,-0.000549000074171283,-0.00109213877635774,0.0274956424756956,0.054344492520621,-3.08449297874079,-0.000223580145156401,0
0.45,0.00105899138868282,0.000610432145512435,-0.0526859013655254,-0.0305521988359276,-0.000549002476054753,-0.00109210184821061,0.0274957125946523,0.0543435998561027,-3.084493335528,-0.000218009297285485,0
0.46,0.00105895855956223,0.000610432067647606,-0.0526851039810147,-0.0305521990799962,-0.000549004619318004,-0.00109206889345413,0.0274957756357195,0.0543427950358116,-3.08449365373062,-0.000213040909207471,0
0.47,0.0010589293393166,0.00061043199820243,-0.05268438810542,-0.0305521993060218,-0.000549006527436358,-0.00109203956106323,0.0274958321366916,0.0543420725367397,-3.0844939375207,-0.000208609827857636,0
0.48,0.00105890326228464,0.00061043193626653,-0.0526837411345977,-0.0305521995163363,-0.000549008230145727,-0.00109201338404042,0.0274958830215923,0.0543414196730839,-3.08449419062035,-0.00020465794615637,0
0.49,0.00105888027061039,0.000610431881028029,-0.0526831697159353,-0.0305521744667248,-0.000549009733565855,-0.00109199030275607,0.0274959028884435,0.0543408415495428,-3.08449441634814,-0.000201133441019486,0
0.5,0.00105885954868321,0.000610431831763029,-0.0526826415390269,-0.03055217465076,-0.000549011086755322,-0.00109196950126225,0.0274959441533652,0.0543403087085008,-3.08449461766462,-0.000197990093774453,0
0.51,4.63713779148404,-0.0750198087800601,8.14412821462187,3.76642122011642,-1.14251436861031,4.49481209689992,1.786498518588,8.7932460574367,0.232737077172648,71.5206252786586,4408.67422236869
0.52,4.71662417297087,0.0204101284063949,4.17103157678519,-0.995287420599195,-4.08978142356568,2.34960593926977,-4.11768472688069,1.19698536087777,1.05366026536257,152.898723849824,4408.67422236869
0.53,4.63963724089809,-0.00145244444832837,8.0217164031918,0.105779398212738,-2.80609240098766,-3.69487229465954,-4.93782187021913,-6.32273979476527,2.4917541622457,241.166989883192,4408.67422236869
0.54,4.57920429085757,0.0298799217404608,11.044795633198,-1.44608567946575,4.53271389692706,-0.651543916966375,11.1388568224384,-0.0674022305510338,-1.70703594483239,325.384830573734,4408.67422236869
0.55,4.58986443270521,0.0633566261266348,10.5133239115164,-3.11633838019227,-3.78072947516462,2.60325838293242,-10.472349347904,3.25137566328095,0.981592393010565,410.629556989958,4408.67422236869
0.56,4.63441839958652,0.0483170485171693,8.2872799944454,-2.33429537581127,4.21887855687018,-1.91865373686459,8.52330002703243,-1.21708720191193,-1.98719132318236,492.888505151668,4408.67422236869
0.57,4.63729235427777,-0.00336539915718737,8.14536756417209,0.26378185087151,-4.31788060546737,-1.6912713507546,-7.68250109204616,-2.71951660980873,1.943392862365,577.254452404767,4408.67422236869
0.58,4.56834030584549,0.0675069685849221,11.5948777848572,-3.27170958005043,-0.861660497090479,4.48685095903283,-5.5582748877977,10.6888191440236,0.204507398400886,661.157344796521,4408.67422236869
0.59,4.56635862138274,0.0418173864578479,11.695958179395,-1.96846894322733,3.66087209691081,2.72972438955776,8.1208142634344,8.64422832955074,-0.920928440611734,744.733365163115,4408.67422236869
0.6,4.50984097686884,-0.00790259546111827,14.5239396735508,0.503519534126642,4.46650248368343,0.623765701934654,14.4566128023116,1.4848238435014,-1.43379188084507,829.283345107478,4408.67422236869
0.61,4.53376017424422,0.110918134598493,13.3301846027353,-5.41847334285061,4.43371345346836,0.95366092647203,11.6910359713472,8.38888269240002,-1.33447118186226,912.308461647343,4408.67422236869
0.62,4.43903953376414,0.0806869407025255,18.0684997781693,-3.89396884742676,2.67029779471349,3.54698351451894,7.45016677575943,16.9153389747828,-0.627139178797948,995.295855630604,4408.67422236869
0.63,4.50154866292113,0.122410354980151,14.9454383880619,-5.95687113110487,-2.77148640586671,3.54933624241905,-14.1086119211184,7.73288509828128,0.690138554415268,1077.8281333582,4408.67422236869
0.64,4.48309640061631,0.0877269243607475,15.8705009780997,-4.22476282582817,-2.33050489919816,-3.83074356558751,-4.33015923968974,-15.8420687787073,2.61460821111502,1161.13764832719,4408.67422236869
0.65,4.51975698555429,0.0969922585844152,14.0400607655514,-4.68147329623358,4.14402134836711,1.80684746754388,10.7838641807933,10.1364575594202,-1.13817828829242,1243.83444080376,4408.67422236869
0.66,4.52036800133995,0.0400090705530034,14.0121240256629,-1.81229164576152,-4.13215030218271,-1.83321070077501,-12.0078727590004,-7.44546926147124,1.99720407594349,1326.19827223297,4408.67422236869
0.67,4.42324142757519,0.110889693946567,18.8711596674901,-5.33429029026868,2.39368985081158,3.72123771734118,5.25097598890498,18.8945116703423,-0.54655157880327,1408.15784067473,4408.67422236869
0.68,4.40418371139315,0.0888563891618461,19.8268131254598,-4.22421907032111,2.60970078953541,-3.54882958321386,15.4177527039795,-13.1620457006083,-2.48734833869592,1490.61626535215,4408.67422236869
0.69,4.36620816093596,0.144737700808129,21.7284596703102,-7.03013040640631,-2.87120392336871,-3.29255383207187,-8.28162822679089,-21.2829351145136,2.45758494994311,1572.84702510705,4408.67422236869
0.7,4.37493743392965,0.160151102594152,21.2949652465082,-7.80591940568145,-4.35011483855924,-0.492165437437239,-19.8975180852019,-10.8856188003737,1.72004590915384,1654.69105451094,4408.67422236869
0.71,4.44947983079966,0.104889123341557,17.570870471695,-4.97477419566862,-4.45039646317076,0.0533274177655378,-17.5120499006038,-5.17802816810967,1.58238325834204,1736.06154625023,4408.67422236869
0.72,4.37890466733429,0.191745785337121,21.1027189710931,-9.32846267610697,-3.98544798143906,-1.82421953696365,-14.5358088461677,-17.9180139820273,2.04381226166738,1817.85704749651,4408.67422236869
0.73,4.33916171376766,0.157656281894921,23.0930728341497,-7.61498800940881,-0.326153061131764,-4.32975796808117,6.71186071610492,-23.3715421193038,3.10272378150592,1899.31941702544,4408.67422236869
0.74,4.36920499926332,0.126603968783077,21.5941523222989,-6.03357050567633,4.37041168696111,0.074044425671215,21.2945027204062,7.01822922511273,-1.52488741353267,1980.57249685938,4408.67422236869
0.75,4.29807012315331,0.17759860771935,25.1542238302999,-8.57205171859865,-2.72238406035907,3.33070158929163,-23.1169734846165,13.1080350961804,0.726534415167934,2061.94317401408,4408.67422236869
0.76,4.34245350927332,0.0781403923143353,22.9384422393717,-3.63909295512188,-1.51360393496787,4.07087355848361,-11.7672327520631,20.0236700747836,0.373966297270692,2143.34076273556,4408.67422236869
0.77,4.24563691734223,0.222005413425732,27.7827315175841,-10.7728418132337,2.47228538118774,-3.45868822408944,25.7393492369264,-15.0139998724742,-2.46875716325997,2223.88607433997,4408.67422236869
0.78,4.31692134314738,0.116725045515698,24.2220204982428,-5.53066848234558,-4.31617273746053,0.141730446885899,-24.2536525197173,-5.39026069237054,1.56500342538326,2305.02780297277,4408.67422236869
0.79,4.25222357885835,0.134695294328574,27.4604865417374,-6.45860133120015,0.524979158414548,4.22184143119368,-3.90715827371439,27.9378948113215,-0.0920475026183429,2385.98117350838,4408.67422236869
0.8,4.21982884775834,0.192622775501324,29.0837817857864,-9.35828806217079,3.94111185192652,1.5204263903983,22.8660308440551,20.2629847716602,-1.1569876006128,2466.7488902365,4408.67422236869
0.81,4.21310935237004,0.133941668463265,29.4233824654539,-6.41212100997463,4.19773599177285,-0.383722984656128,29.7520413922548,4.65475719543938,-1.63017393126449,2547.42642882656,4408.67422236869
0.82,4.28952386161669,0.235585651180755,25.6063933916063,-11.4684415334542,4.29596632895162,0.0137425956478445,24.8976982065943,12.9351133642232,-1.51273133909557,2627.8626953645,4408.67422236869
0.83,4.27594413068708,0.221441595099587,26.2891080533377,-10.6997271370288,3.23710276807024,2.80248108963282,11.5467288133929,25.9282551814984,-0.805494974603429,2708.07373941301,4408.67422236869
0.84,4.15001483426317,0.109214660268861,32.5894469530147,-5.13201210835343,-1.85991564140559,3.71150438144384,-19.8880996468338,26.3224826606696,0.490855240183096,2788.43042066821,4408.67422236869
0.85,4.22717726151019,0.192911680665934,28.7352637270814,-9.26338002969959,-3.07153611080758,-2.91065429702175,-13.2633981334081,-27.1220917518222,2.37491191853525,2868.44272442747,4408.67422236869
0.86,4.13426301102222,0.193880382452646,33.3849649210407,-9.37179469733769,-4.13709950477973,-0.118860988376329,-32.5819604354715,-11.8660133494588,1.64638060098303,2948.69726804436,4408.67422236869
0.87,4.10139065733669,0.219409299494464,35.032595477447,-10.6427100889031,4.09929102351693,-0.255653807534475,35.1253000894929,10.3326336210062,-1.57963565831802,3028.53106849621,4408.67422236869
0.88,4.12607764540172,0.264184219421489,33.8022427010167,-12.7810462475223,-3.75978122542906,-1.71998696930713,-23.7283693154729,-27.2563982291914,2.06378553335234,3108.42197135419,4408.67422236869
0.89,4.14063312005075,0.289749223265638,33.0786120669641,-14.1225214877614,0.250098877602554,4.1432170832176,-14.4385262783363,32.9419056576692,0.00957285365977946,3188.23072400588,4408.67422236869
0.9,4.08599329986655,0.219015912402651,35.814747616301,-10.6052760873613,4.08517798032275,0.233730797127813,34.4238829774502,14.4970448182831,-1.460093899702,3268.09476134236,4408.67422236869
0.91,4.08929624238385,0.231716073969724,35.3623721826743,-11.1710452353488,2.76002377626332,-3.02626913069075,33.0839477285314,-16.7553579708698,-2.34557165462995,3347.59829812248,4408.67422236869
0.92,3.77147728115666,0.225159604284245,38.9007000592866,-10.8165368872538,1.56358492286681,-3.43946797029219,27.7432053725023,-29.3355840404629,-2.65528942242592,3424.35617547932,4408.67422236869
0.93,3.60478039218233,0.20763049356346,35.525192135489,-10.0052611859039,2.23310006364665,-2.83739602513659,31.033246853314,-19.9770397557506,-2.41727877522327,3496.9732988981,4408.67422236869
0.94,3.36337125144792,0.21072380135872,36.4805080081254,-10.2486697913917,-3.29396724940935,0.711653325253244,-37.6033787479636,-4.6742490050362,1.42058995217009,3565.35957305299,4408.67422236869
0.95,3.15532558469396,0.243625511701083,36.3084222629081,-11.8023353478743,-1.67668318257178,-2.68405783109397,-6.34728857132053,-37.6471589190699,2.66027990249595,3629.56596487085,4408.67422236869
0.96,2.98794364465999,0.193174162528194,34.6542055705532,-9.27660428293055,2.73512565078571,-1.21828205073641,35.7195947183802,-3.32864896060143,-1.92527437152121,3690.09208781991,4408.67422236869
0.97,2.74234809795073,0.298846717806542,37.4814673207464,-14.5931703792672,-0.259319249249216,2.74636777909415,-21.8396319071344,33.7764931926833,0.202689930542535,3746.95655974592,4408.67422236869
0.98,2.5228187354255,0.188737983720196,39.4734921201066,-9.10245102736584,-1.17004959718301,-2.24303819371061,-7.23237695954483,-39.858548874448,2.73545963558137,3800.55307169746,4408.67422236869
