t,iq,id,vq,vd,ia,ib,va,vb,theta_e,omega,r
0,0,0,0,0,0,0,0,0,0,0,0
0.01,0.00109229880655966,0.000616188145682405,-0.0539540509962348,-0.030867961497532,-0.000715978550722732,-0.00102965005152049,0.0357952002643656,0.0508190348585191,3.04760647061293,-0.00132743975271684,0
0.02,0.00121486488923007,0.000687586217270521,-0.0601686817204532,-0.0344446477821456,-0.000798574917384667,-0.00114496707663952,0.0399398674605482,0.0566701950591941,3.04759700257311,-0.00134634351985477,0
0.03,0.00124601906570918,0.000706040756337162,-0.0617533274360375,-0.0353691158167947,-0.000819882683587076,-0.00117424420240169,0.0410095123906847,0.0581607057777205,3.04758793734138,-0.00124933614640773,0
0.04,0.00122573741680661,0.000696177820808655,-0.060810310429761,-0.0348750433845627,-0.000808168460643906,-0.001154971650027,0.040429546610032,0.0572679165549636,3.04758020582045,-0.00110403527583464,0
0.05,0.00124201665764916,0.000706099886369781,-0.0616548196285331,-0.035372085586306,-0.000819583419957204,-0.00117024161827405,0.041004093662433,0.0580617389084613,3.04757293304252,-0.00101457135274827,0
0.06,0.00124037932286897,0.000706174079183156,-0.0616169761386153,-0.0353758066209867,-0.000819511187320416,-0.00116859920784148,0.0410046236827712,0.0580234459437429,3.04756641475041,-0.00091271832687552,0
0.07,0.0012733963946177,0.000725510383478506,-0.0632712922411445,-0.0363444442406042,-0.000841868883197724,-0.00119965014811148,0.042124645598187,0.0595792688965705,3.04756065856213,-0.000868794632105178,0
0.08,0.00123764855869984,0.000706320171277089,-0.0615546877610481,-0.0353831100608402,-0.00081941308306984,-0.00116585776941215,0.0410066847990447,0.0579602955886998,3.04755540634199,-0.000740749520210696,0
0.09,0.00123607305862128,0.000706167242186891,-0.0615075260399558,-0.0353754597190317,-0.00081911826964544,-0.00116429980697425,0.0409949073135387,0.0579138712593369,3.0475507877644,-0.000668026459464395,0
0.1,0.00123493481851892,0.000706163785148112,-0.0614785204230172,-0.0353752825590769,-0.000819012732326415,-0.0011631635490043,0.0409922455354946,0.0578848416728904,3.04754667058582,-0.000603553515769305,0
0.11,0.00123392242341038,0.000706161743635318,-0.0614527763830092,-0.0353751665258705,-0.000818919894362578,-0.00116215281343987,0.0409899248430082,0.0578590718321487,3.04754299987683,-0.000546075178545896,0
0.12,0.00123301981981303,0.000706159931003229,-0.0614298222901337,-0.0353750769825576,-0.000818837125661986,-0.00116125168927492,0.0409878693301769,0.0578360934528918,3.04753972721737,-0.000494829786191075,0
0.13,0.00129052627774008,0.000738864719521271,-0.0642672712889863,-0.0370134285810297,-0.00085680200740504,-0.00121542974597366,0.042885654072,0.0605069973562719,3.04753646988237,-0.000521817661375605,0
0.14,0.00139074656671453,0.000797336138551841,-0.0693595205915954,-0.0399425429110394,-0.000924431106568166,-0.00130971296850805,0.0462802567692168,0.0653015134914309,3.04753366046088,-0.000612693360468411,0
0.15,0.00123204128126116,0.000706869743448461,-0.061437894557986,-0.0354106430504161,-0.000819461908389471,-0.00116020374660368,0.041024535155533,0.0578404360653913,3.04753110269118,-0.000361651506578079,0
0.16,0.00123010559299029,0.000706159650952963,-0.0613559784097443,-0.0353750654822126,-0.00081857544888797,-0.00115834168405435,0.0409815357226305,0.057762142223974,3.04752911753983,-0.000328712936033698,0
0.17,0.00122960603088306,0.000706153114280363,-0.0613429794563688,-0.035374728518811,-0.000818524066043142,-0.00115784349775781,0.0409800813831325,0.0577491599609544,3.04752735025121,-0.000301023310871467,0
0.18,0.00122917109136623,0.000706152196717435,-0.0613318993324758,-0.0353746972511126,-0.000818484123767302,-0.00115740927761971,0.0409791005082101,0.057738067190328,3.04752577462934,-0.000276351067619906,0
0.19,0.0012287835328874,0.000706151417016951,-0.0613220293774641,-0.0353746688176292,-0.000818448570180094,-0.00115702235605906,0.0409782262275921,0.0577281859767636,3.04752436986727,-0.00025435439731714,0
0.2,0.00122843845412741,0.000706150722071097,-0.0613132502870576,-0.0353746110275179,-0.000818416913851854,-0.00115667784321378,0.0409774163659943,0.057719399806993,3.04752311743668,-0.000234743034086893,0
0.21,0.00122813029089474,0.000706150102409974,-0.0613053958893884,-0.0353745795610685,-0.000818388642116958,-0.00115637018683498,0.0409767117100878,0.0577115373361805,3.04752200081907,-0.000217258315514611,0
0.22,0.00122785577169221,0.000706149549883627,-0.0612984024829341,-0.0353745509478378,-0.00081836345683504,-0.00115609611857999,0.0409760837656578,0.0577045367449627,3.04752100528689,-0.000201669629500358,0
0.23,0.00122761071743999,0.000706149057224395,-0.0612921501675192,-0.0353745515517288,-0.000818340973589884,-0.00115585146776582,0.0409755482800552,0.0576982756483459,3.04752011770979,-0.000187771371394213,0
0.24,0.00122739242683759,0.000706148617949954,-0.0612865832849893,-0.0353745228358673,-0.000818320945868221,-0.00115563353605035,0.0409750424263852,0.0576927036527944,3.04751932638103,-0.000175380232192727,0
0.25,0.00122719788496055,0.000706148226279542,-0.0612816218568229,-0.0353744940784863,-0.000818303096892492,-0.0011554393138307,0.0409745884459382,0.0576877379552837,3.04751862086357,-0.000164332780812996,0
0.26,0.00123764199201437,0.00071198843063467,-0.0617971023173672,-0.0356670749933731,-0.000825099267052352,-0.00116528812971925,0.0413143333664939,0.0581734299477714,3.04751800408378,-0.000168849069939912,0
0.27,0.00119059214427807,0.00068558836269387,-0.0594970708913697,-0.034344551401879,-0.00079439698842078,-0.00112092572540107,0.0397816383293814,0.0560077754198403,3.04751735572039,-9.61053862189427e-05,0
0.28,0.00117051869877082,0.00067353063440167,-0.0583669779616633,-0.0337405358276002,-0.00078050753776751,-0.00110207328392342,0.0390741660159049,0.0549393977439903,3.04751681883227,-6.10904899618921e-05,0
0.29,0.00122611670068056,0.000705891420109091,-0.0612424424291526,-0.0353616302292474,-0.000817948324417735,-0.00115438529064331,0.0409582239754128,0.0576498528700466,3.04751649022061,-0.00013031052990497,0
0.3,0.00122383816701095,0.000704706957972401,-0.0611306740118918,-0.0353022922249518,-0.000816555026321907,-0.0011522281217866,0.0408886474252433,0.0575441539447598,3.04751651961787,-0.00012771735064864,0
0.31,0.00122648458402791,0.000706135553331404,-0.0612628340702677,-0.0353738701338749,-0.000818226359411065,-0.00115472831406426,0.0409723464344809,0.0576689895370318,3.04751612366053,-0.000125197223995488,0
0.32,0.00122640996230827,0.00070614655235947,-0.0612614880911871,-0.0353744320613871,-0.000818230713561959,-0.00115465269602683,0.0409728000936252,0.057667582048324,3.04751576549085,-0.000119621099258026,0
0.33,0.00122632228969833,0.000706146462755486,-0.0612592510832156,-0.0353744060103496,-0.00081822275728816,-0.00115456515819974,0.0409725824342002,0.0576653442939013,3.04751544611587,-0.000114620394633896,0
0.34,0.00122624359294085,0.000706146305306441,-0.0612572281998039,-0.0353744062679996,-0.000818215536611879,-0.00115448659124884,0.0409724090832929,0.0576633186648812,3.0475151613732,-0.000110161706459181,0
0.35,0.00122617351091718,0.000706146164319316,-0.061255426641217,-0.0353744065062035,-0.000818209105894439,-0.00115441662465908,0.0409722547224718,0.057661514649032,3.04751490750814,-0.000106186513541235,0
0.36,0.00122611133325982,0.000706146038612994,-0.0612538335994246,-0.0353743774945523,-0.000818203401107218,-0.00115435454857404,0.0409720892408341,0.0576599221036086,3.04751468117195,-0.000102642388177637,0
0.37,0.00122605568673605,0.000706145926535763,-0.0612524006573693,-0.0353743777015192,-0.000818198295061048,-0.00115429899354546,0.0409719664724092,0.0576584872108557,3.04751447937969,-9.9482585677011e-05,0
0.38,0.00122600597739368,0.000706145826610025,-0.0612511161724775,-0.0353743778949464,-0.000818193733569484,-0.00115424936620793,0.0409718563742736,0.0576572010166528,3.04751429946967,-9.66654302950054e-05,0
0.39,0.00122596173957143,0.000706145737518769,-0.0612499729407915,-0.0353743780759139,-0.000818189674322393,-0.00115420520114109,0.0409717584077363,0.0576560562515637,3.04751413906907,-9.41537655803733e-05,0
0.4,0.00122592215836205,0.000706145658087079,-0.0612489445874168,-0.03537437824626,-0.000818186042044544,-0.00115416568542033,0.0409716702190746,0.0576550265704676,3.0475139960624,-9.19144643053007e-05,0
0.41,0.00122588700093489,0.000706145587268207,-0.0612480322355706,-0.0353743784065083,-0.000818182816002795,-0.00115413058579921,0.0409715920231815,0.0576541130142708,3.04751386856334,-8.99179915392879e-05,0
0.42,0.00122585556879803,0.000706145524127832,-0.0612472123783194,-0.0353743785582535,-0.000818179931594749,-0.00115409920558612,0.0409715217104453,0.0576532921109289,3.04751375489013,-8.81380151019712e-05,0
0.43,0.00122582762911817,0.000706145467833889,-0.0612464835394016,-0.0353743757916539,-0.000818177367852093,-0.00115407131182888,0.0409714563316974,0.0576525626026385,3.04751365354379,-8.65510582593329e-05,0
0.44,0.00122580305360942,0.00070614541764404,-0.0612458483785197,-0.0353743467027505,-0.000818175113529423,-0.00115404677578466,0.0409713729134551,0.0576519292811404,3.04751356318745,-8.51361900803307e-05,0
0.45,0.00122578070186765,0.000706145372896486,-0.061245257956574,-0.035374346834324,-0.000818173062214923,-0.00115402446117928,0.0409713222242761,0.0576513381572091,3.04751348262928,-8.3874749372238e-05,0
0.46,0.00122576091126296,0.000706145333000936,-0.0612447363455006,-0.0353743469599868,-0.000818171246240832,-0.00115400470307704,0.0409712774896228,0.0576508158983352,3.0475134108069,-8.27500985500531e-05,0
0.47,0.00122574321613406,0.000706145297431454,-0.0612442666777312,-0.0353743470808133,-0.000818169622433278,-0.00115398703715016,0.0409712371806559,0.0576503456726267,3.04751334677299,-8.17474041988904e-05,0
0.48,0.00122572738365031,0.000706145265718668,-0.0612438430520141,-0.0353743471973501,-0.000818168169428077,-0.00115397123095068,0.04097120079226,0.0576499215702738,3.04751328968304,-8.08534414312774e-05,0
0.49,0.00122571341381171,0.000706145237445141,-0.0612434705706807,-0.0353743473095939,-0.000818166887679435,-0.00115395728390151,0.0409711688471862,0.0576495486401842,3.04751323878386,-8.00564194596273e-05,0
0.5,0.00122570084095696,0.000706145212237076,-0.0612431305031262,-0.0353743474186134,-0.000818165733845788,-0.00115394473188647,0.0409711396256443,0.0576492082069794,3.04751319340417,-7.93458260799719e-05,0
0.51,4.5308030093297,0.0329715499551956,13.4615032892759,-1.64347163521164,-0.361369078116484,4.51648928060709,-2.80849590212032,13.2674572013896,0.0871180410951273,26.7081562342046,2824.35796851823
0.52,4.49275579427,-0.00870761197666747,15.3658518553437,0.456167118380235,-1.72843460081074,4.14698013983347,-5.46257855671255,14.3693328721971,0.392961091365311,56.8293468329385,2824.35796851823
0.53,4.57715326954564,0.0435796627987561,11.1481804006025,-2.14880332424126,-3.62483738707831,2.79513598187303,-10.1886112365482,5.00913995024409,0.92344412188381,88.3665733682526,2824.35796851823
0.54,4.4461043812255,0.0363604926945031,17.7030560615348,-1.79581136246231,-4.41655854791734,-0.513007648090998,-17.3457525797966,-3.96837495807423,1.69461151390196,121.578174020625,2824.35796851823
0.55,4.46027517363439,0.0600080927257474,16.9970170049779,-2.95383810098829,-1.97440249679743,-3.99992379632062,-4.65148856053069,-16.6128685291135,2.69652316458472,151.558435601019,2824.35796851823
0.56,4.46572600491768,0.0170341264360313,16.7272804241163,-0.815550404933508,3.13579774960606,-3.17958666905418,12.3694995029443,-11.289929800343,-2.35931367414666,183.759332968314,2824.35796851823
0.57,4.44454316953712,-0.0175593535937968,17.7892821935135,0.959942887205077,3.47673082342165,2.76886530879483,14.5542297782371,10.2739693823483,-0.902205659789026,213.803993909913,2824.35796851823
0.58,4.3358763868716,-0.038139891819841,23.2256595823506,1.98397484225519,-3.0851845311276,3.04678766941015,-14.9749121143953,17.8639140833154,0.782863704660164,245.153095809341,2824.35796851823
0.59,4.30844132646408,0.112177630812121,24.6005715724607,-5.5544909435116,-1.9668661404742,-3.83492999543594,-5.64651174032484,-24.579613432674,2.69372354947984,276.379979308623,2824.35796851823
0.6,4.35303645070062,0.0755976081252236,22.3741162515725,-3.72079499275056,4.33155671843499,0.438472045247143,21.7789186247592,6.33435844842053,-1.4525477236558,307.23254252091,2824.35796851823
0.61,4.31453356567562,0.0892707618720268,24.3026931361669,-4.39838342608214,-3.35165781062779,2.71837434484739,-21.8870065416192,11.4422731605501,0.910039352036533,337.883457130209,2824.35796851823
0.62,4.28513745577756,0.021270117738492,25.7760291715472,-0.972360746881797,1.47263751180611,-4.02420106252631,9.88963482874908,-23.8231880366277,-2.78582021935653,368.351823061979,2824.35796851823
0.63,4.27360799855693,0.0670894961157127,26.3560974537116,-3.23150953974046,-0.0428323732188488,4.27391994703027,-3.90821165774236,26.2642800878544,0.0257187366806272,398.650162826497,2824.35796851823
0.64,4.15521158996118,0.089596473459981,32.27971674718,-4.33796414795411,-0.425435524629367,-4.13434583698407,1.71250412053027,-32.5248424418055,3.06060992505239,429.190381286375,2824.35796851823
0.65,4.24647979589297,0.113018121012346,27.7202173528199,-5.55785066370188,-0.039592891429071,4.24779897777103,-6.5500035064693,27.5026836536515,0.0359287937920278,459.792604835242,2824.35796851823
0.66,4.15152468662121,0.0969076617019413,32.4719292221358,-4.68084890102632,1.42950478369197,-3.89885424091792,16.2424784914586,-28.5047088442618,-2.76682641048663,489.79197666741,2824.35796851823
0.67,4.16028199308501,0.0617013594557105,32.0381400558226,-2.95921296433787,-3.31335712130504,2.51662828134058,-27.5525090666943,16.615011397364,0.936047295133623,520.264276664258,2824.35796851823
0.68,4.07945157386427,0.138712563551782,36.083892123349,-6.85471650345845,4.05554649110339,0.462286683011515,34.6848084497446,12.0829827408963,-1.42330781060957,550.543285841264,2824.35796851823
0.69,4.11605322840724,0.0995607975031971,34.2580483410766,-4.78611714770089,-1.76910321859182,-3.7178058493484,-9.59742161485972,-33.2326690447469,2.72163794254539,580.433031107154,2824.35796851823
0.7,4.05308440296873,0.166798144056732,37.4108339327171,-8.14558310810737,-2.8032595298476,2.93207278333396,-32.5940529241447,20.0885224367168,0.804072517924224,610.403825574569,2824.35796851823
0.71,4.04648128191564,0.121927562998489,37.7454537255003,-5.88926296889856,3.22996154599976,2.4405379544017,25.7260543808577,28.2413317896638,-0.893602341867216,640.370876576019,2824.35796851823
0.72,4.01207227700288,0.178588775760548,39.4703575042881,-8.71676120570836,2.66407148263837,-3.00521896741581,33.7296514030441,-22.2755844741003,-2.3718131654711,670.332010975571,2824.35796851823
0.73,3.94644338637873,0.134350648944023,42.7562862754039,-6.61683951420337,-1.9733692275179,-3.42027475367835,-14.254443502682,-40.8496440822911,2.65231531598767,700.363852781164,2824.35796851823
0.74,4.02613739508086,0.111511047900767,38.7760176823224,-5.44459816696601,-4.02730414597949,-0.0551212631278625,-38.5176210958283,-7.04386695059706,1.61217206344036,730.240557744722,2824.35796851823
0.75,4.00498086569749,0.154091608270716,39.8382895224095,-7.48416387120754,-2.73682996766336,2.9280330746838,-33.5695552849511,22.7197486538259,0.790114528234816,759.734726486525,2824.35796851823
0.76,3.85926354953036,0.0864701528760745,47.1285034630643,-4.21201461374668,-0.627179963235079,3.80894178556046,-12.8364862832132,45.5418656367453,0.185597632478443,789.617865958689,2824.35796851823
0.77,3.94820191100457,0.127272263997104,42.6858836637995,-6.12661495593047,0.913932374243542,3.84307483332717,2.5297646687095,43.0490460486479,-0.201251533267673,819.080770717834,2824.35796851823
0.78,3.9021109096341,0.102102151738024,44.9945933426617,-4.96012427635463,1.51050877571795,3.59934127847778,11.6979416858949,43.7295600620654,-0.371181208541587,848.824173993721,2824.35796851823
0.79,3.83232680407927,0.093146292129422,48,-4.53106216246446,1.31185969642553,3.60200348443699,11.0315752195887,46.9343677116745,-0.324970551288783,878.197267058493,2824.35796851823
0.8,3.80803567521223,0.1198166590546,48,-5.70625650967306,-0.00140818536830632,-3.80991991418324,7.19530019087019,-47.799466717919,-3.1105084767314,907.494708137367,2824.35796851823
0.81,3.86182377656003,0.170675329009273,47.0208905550732,-8.24834130657103,1.73174829157275,-3.45598912089891,30.1044520817241,-37.0502530053579,-2.63290971645685,936.864197720736,2824.35796851823
0.82,3.83459318937472,0.189334223967768,48,-9.17427412113203,3.50721775486533,-1.56185018369941,48.0725805412603,-8.78602900938291,-1.94042011008832,966.115181528033,2824.35796851823
0.83,3.73928857544423,0.153409093144507,48,-7.36665464576345,3.29180049980618,1.7804108710584,37.4814312819488,30.877336506352,-1.03399237980568,995.30926755437,2824.35796851823
0.84,3.65337177514033,0.10297808419407,48,-5.02037138955157,-0.211110398743995,3.64872062684421,-9.12349806094868,47.3916228042562,0.085973985459693,1024.48973018191,2824.35796851823
0.85,3.8291883654604,0.12393477353407,48,-6.00125304787642,-3.76618409411256,0.702780716526692,-48.3550832039237,1.34200092632613,1.41866970330902,1053.46444727669,2824.35796851823
0.86,3.72944061977131,0.130754289485546,48,-6.21725801294601,-0.789564565069947,-3.64724715617203,-2.38703053062116,-48.3420767287197,2.96344576101126,1082.23810575812,2824.35796851823
0.87,3.72511155675729,0.166063154194903,48,-8.15282065379776,3.72622231222251,-0.138925740462437,47.9393430847071,8.50222730934293,-1.56351245138988,1111.18315911545,2824.35796851823
0.88,3.59806015628642,0.222843372605753,48,-10.8180739092398,-1.20825108381643,3.39644304757589,-28.801375678624,39.8937524197027,0.403634639727396,1139.77706595299,2824.35796851823
0.89,3.76088708020735,0.128084332843253,48,-6.16863790122401,-2.10709802656636,-3.11782217787202,-20.2824584571888,-43.939435277309,2.58132113896409,1168.58739303489,2824.35796851823
0.9,3.72565511378052,0.116830310523829,48,-5.68283374537739,3.6332633153982,0.8327983124849,44.9848905758601,17.6820309708895,-1.31412560843546,1197.22607986178,2824.35796851823
0.91,3.60603781480403,0.155982861301022,48,-7.6108106530476,-3.41372730777329,1.17230765713578,-48.1875690447761,6.31526945992661,1.28323354295138,1225.73770493892,2824.35796851823
0.92,3.64080869944401,0.25210158378185,48,-12.245736237508,-3.01636526998713,2.05440593664153,-47.6219590650762,13.6421065383183,1.04200997050878,1254.18259353687,2824.35796851823
0.93,3.59744348645162,0.198726014873319,48,-9.58298859073286,2.73200201142457,-2.34888413438652,43.9049048055589,-21.6377680074663,-2.22574834923165,1282.69506507257,2824.35796851823
0.94,3.70681244292863,0.244680835709037,48,-12.0784031438344,-2.98294736836576,2.21412560528385,-46.8878058596351,15.8562758608115,0.998179383016143,1311.1655257611,2824.35796851823
0.95,3.78712634154574,0.243718844035317,48,-12.0005684826692,3.56986324162263,-1.2875563047413,49.443731606493,-1.82511608735468,-1.85268237716946,1339.57332162612,2824.35796851823
0.96,3.72414878991838,0.312443349487357,48,-15.3227166316811,-3.70424141136661,-0.495480193757666,-43.5836037655613,-25.2834951654502,1.78746784703619,1367.88464736896,2824.35796851823
0.97,3.52396045071273,0.152407760134077,48,-7.21684639648446,2.24849496854537,2.71768205645228,23.2176400243879,42.62656523353,-0.647979184503668,1396.13375332411,2824.35796851823
0.98,3.65255739980998,0.0794152301406916,48,-3.72382948866662,0.881639396000155,-3.54544698354177,16.1865074137671,-45.3416352131761,-2.87612904239348,1424.4653639049,2824.35796851823
0.99,3.58933353521088,0.264077418357992,48,-12.7911093944193,-3.47927672605154,0.920698416112537,-49.5347672630013,-3.73085938361286,1.38554292424139,1452.55601192329,2824.35796851823
1,3.71830499842142,0.419554377310801,48,-20.6495085446603,1.92988492507638,3.20583251477199,1.21519338498353,52.2391185623675,-0.429523168524257,1480.72112505582,2824.35796851823
