t,iq,id,vq,vd,ia,ib,va,vb,theta_e,omega,r
0,0,0,0,0,0,0,0,0,0,0,0
0.01,0.00114779855492255,0.000657936293886452,-0.0565208905191232,-0.0329618435706579,0.000972159671448906,0.000897344561862214,-0.048409127418915,-0.0440187525855798,-0.304903120180681,-0.00183094778312892,0
0.02,0.00128321793349166,0.000735894476385814,-0.0633353071586352,-0.0368674421787616,0.00108718875942649,0.00100309996839121,-0.0541809486588487,-0.0493456606816669,-0.30491672236879,-0.00200160233461128,0
0.03,0.00131619470529396,0.000754770264449629,-0.0649573916096195,-0.03781311970574,0.00111510840114347,0.00102887312533688,-0.0555706880580767,-0.0506082342643766,-0.304930792820151,-0.00200328519117948,0
0.04,0.00129858161496296,0.000744850133102669,-0.0641115738727906,-0.0373161142979227,0.00110037139347942,0.0010150363185202,-0.0548433332637984,-0.0499499257983218,-0.304944007667777,-0.00192555120481719,0
0.05,0.00131597876438691,0.000754821749938649,-0.0649731982296212,-0.0378156967286703,0.00111512002802277,0.00102862204215166,-0.0555792376304197,-0.0506210603571454,-0.304957379324189,-0.00190439046267227,0
0.06,0.00131593878696338,0.000754883257450153,-0.0649841560694256,-0.0378187564478626,0.00111518011906672,0.00102855088617508,-0.0555861071224172,-0.0506298684009091,-0.304970431407257,-0.00185594752724166,0
0.07,0.00135140257706544,0.000775249254753969,-0.0667260056308724,-0.0388390734568414,0.00114526820900347,0.00105624857952173,-0.0570830149441667,-0.0519842558792677,-0.304983052150994,-0.0018670633827233,0
0.08,0.00131587499200434,0.000755009682154064,-0.0650057485515967,-0.0378250987144091,0.00111530733133845,0.0010284241203859,-0.055599909631956,-0.0506471666179515,-0.304995495358383,-0.00176294436301537,0
0.09,0.00131549366989629,0.000754875106200023,-0.0649990386700994,-0.0378183535201872,0.00111507682325368,0.00102808739888211,-0.0555920698578367,-0.0506421233750752,-0.305007521250801,-0.00171774820324211,0
0.1,0.00131535064117108,0.000754871274373992,-0.0650036262192565,-0.0378181846688333,0.00111504224502436,0.00102793907500164,-0.0555938790698368,-0.0506458993726753,-0.305019222564335,-0.00167414450749184,0
0.11,0.00131521344465636,0.000754868371801142,-0.0650081850213412,-0.0378180281348446,0.00111500997732536,0.00102779638752793,-0.0555956755239041,-0.0506496617443552,-0.305030608588799,-0.00163171819026946,0
0.12,0.00131507997342447,0.000754865552677766,-0.0650126202129482,-0.0378178716281601,0.00111497858966971,0.0010276575712268,-0.0555974194326288,-0.0506533232263135,-0.305041687823151,-0.00159043504287788,0
0.13,0.00137541101664595,0.000789469448364944,-0.0679658131881235,-0.0395515076909964,0.00116611645145719,0.00107479760711196,-0.0581385571945527,-0.052948859197244,-0.305052922475056,-0.00164728459468195,0
0.14,0.00148843994703147,0.000854722623034268,-0.0737063525828856,-0.0428205943816223,0.00126231704354915,0.00116299609621484,-0.0629814688150812,-0.057441834059882,-0.305063726707191,-0.00179175767960739,0
0.15,0.00131584545943126,0.0007555062578416,-0.0650821732359705,-0.0378499822406307,0.00111585316475547,0.0010281588853134,-0.055650591261697,-0.0507082056570381,-0.305074316226699,-0.00147074814241227,0
0.16,0.00131457434323838,0.000754858947078161,-0.0650299596741007,-0.0378175523402189,0.0011148641191803,0.00102712985043221,-0.0556044775732144,-0.0506675931343719,-0.305084220469092,-0.00143196338538688,0
0.17,0.00131445052286711,0.000754852304529441,-0.06503342787861,-0.0378172177605026,0.00111483048593972,0.0010270030021078,-0.0556056883982975,-0.0506704659396288,-0.305093855176797,-0.00139605024111167,0
0.18,0.00131433741285782,0.000754849891225395,-0.0650371599536784,-0.0378170927216606,0.00111480383498494,0.00102688538923468,-0.0556071652560235,-0.0506735419025384,-0.305103230264514,-0.00136111695179193,0
0.19,0.00131422744605744,0.000754847569182967,-0.0650407939069083,-0.03781696769772,0.00111477795382214,0.00102677102917068,-0.0556085999134435,-0.0506765382949338,-0.305112352745676,-0.00132712500171039,0
0.2,0.00131412014538668,0.00075484530979617,-0.0650443129581774,-0.037816874019303,0.00111475267900349,0.00102665946783095,-0.0556100175532432,-0.0506794293231597,-0.305121229426537,-0.00129404894613878,0
0.21,0.00131401611575938,0.000754843111211008,-0.0650477539734607,-0.0378167490209427,0.00111472819743557,0.00102655127531952,-0.055611369810145,-0.0506822686088945,-0.30512986693026,-0.00126186410628424,0
0.22,0.00131391463584846,0.000754840971791809,-0.0650510874158945,-0.0378166553615307,0.00111470429762608,0.00102644575689432,-0.055612707897823,-0.0506850087993931,-0.305138271700955,-0.00123054646884354,0
0.23,0.00131381583348727,0.000754838889948684,-0.0650543259341092,-0.0378165617099494,0.00111468102303471,0.00102634302793321,-0.0556140060457556,-0.0506876710240901,-0.305146450009678,-0.00120007266754377,0
0.24,0.00131372006933591,0.00075483686413392,-0.0650574939096543,-0.0378164367443922,0.00111465848693648,0.00102624342606029,-0.0556152420096793,-0.0506902876106669,-0.305154407958587,-0.00117041996570054,0
0.25,0.00131362650565795,0.000754834892841481,-0.0650605552589286,-0.0378163431097134,0.00111463644242553,0.00102614614604114,-0.0556164649967505,-0.0506928049929859,-0.305162151484533,-0.00114156623925651,0
0.26,0.00132406140364648,0.000760830120599446,-0.0655768243046268,-0.0381167002495356,0.00112349759321108,0.0010342892395682,-0.0560584408974952,-0.0510945586920454,-0.305169664351284,-0.00113075474616095,0
0.27,0.0012748035061102,0.000732657301240862,-0.0631820144947435,-0.0367052745721927,0.00108183410422601,0.00099576386316531,-0.0539930627763744,-0.0492340665501086,-0.305177110842254,-0.00102274108597327,0
0.28,0.00124999236898841,0.000718265226818981,-0.0617821967818532,-0.0359842471442206,0.00106065924942124,0.000976415800365681,-0.0528851051861187,-0.0481151902332427,-0.305184302835607,-0.00095557988504934,0
0.29,0.00131285444584058,0.000754589894154601,-0.0650513802368288,-0.0378040639657493,0.00111420047891556,0.00102545111882915,-0.0556034635582649,-0.0506861338372503,-0.305191093912482,-0.00103303097858933,0
0.3,0.00131081655253546,0.00075348530859146,-0.0649581006158963,-0.0377487415249555,0.00111254091739988,0.0010238324334456,-0.0555229816665775,-0.0506134451425281,-0.305197264382396,-0.00100683392127532,0
0.31,0.00131310760318715,0.000754815564201414,-0.0650762971537333,-0.0378153762210319,0.00111450486865399,0.00102561055535479,-0.0556223866827661,-0.0507057908891285,-0.305203847631694,-0.000986173125073841,0
0.32,0.00131304580999465,0.000754822587967039,-0.0650795820270234,-0.0378157475105267,0.00111449957488126,0.00102554236189406,-0.055624052988627,-0.0507084557614446,-0.30521025899596,-0.000962309099002921,0
0.33,0.00131297087275214,0.00075482105568018,-0.065082054574677,-0.0378156568250238,0.00111448199277506,0.00102546439556612,-0.0556250258454254,-0.0507104942636626,-0.305216497646015,-0.000939062971894853,0
0.34,0.00131289779814851,0.000754819510265806,-0.0650844506258075,-0.0378155632341315,0.00111446478458765,0.00102538839732811,-0.0556259644464837,-0.0507124700184905,-0.305222568199291,-0.000916443031052204,0
0.35,0.00131282645836711,0.000754818006102294,-0.0650867682327202,-0.0378155009469683,0.00111444796848811,0.00102531422386393,-0.0556269010617937,-0.0507143706370434,-0.305228475184864,-0.000894432570730828,0
0.36,0.00131275698122967,0.000754816542431013,-0.0650890182300209,-0.0378154386604682,0.00111443158674938,0.00102524199238522,-0.0556278093122936,-0.0507162156153899,-0.305234223009935,-0.00087301516993253,0
0.37,0.00131268972738589,0.00075481511816505,-0.0650912228668419,-0.0378153450774442,0.00111441575117885,0.00102517204240042,-0.0556286662493537,-0.0507180353419283,-0.305239815962586,-0.000852174849011304,0
0.38,0.00131262397553577,0.000754813732244363,-0.0650933504770659,-0.037815282792888,0.00111440024834184,0.00102510368160086,-0.0556295222681627,-0.0507197805718067,-0.305245258216707,-0.00083189605887527,0
0.39,0.00131256008632962,0.000754812383637255,-0.0650954231282609,-0.0378152205080558,0.00111438518985671,0.00102503724973573,-0.0556303543526456,-0.050721481533166,-0.305250553831893,-0.000812163669393949,0
0.4,0.00131249782693678,0.000754811071340167,-0.0650974330781806,-0.0378151582237866,0.00111437050889957,0.00102497252062013,-0.0556311603756249,-0.0507231306222291,-0.305255706759708,-0.000792962958108596,0
0.41,0.00131243731377258,0.000754809794376282,-0.0650993901380919,-0.0378150959392503,0.00111435624351798,0.00102490960128269,-0.0556319434783721,-0.0507247369836987,-0.305260720844374,-0.000774279599249303,0
0.42,0.00131237854683702,0.000754808551794402,-0.065101298026133,-0.0378150336540285,0.00111434239669058,0.00102484848782535,-0.05563270496634,-0.0507263039563387,-0.305265599827667,-0.000756099653046652,0
0.43,0.00131232117688413,0.00075480734267017,-0.0651031429980563,-0.0378149713692505,0.00111432886634812,0.00102478884335782,-0.0556334408930547,-0.0507278182290702,-0.305270347348976,-0.000738409555330323,0
0.44,0.00131226555315987,0.000754806166102919,-0.065104946052934,-0.0378149090835252,0.00111431576027201,0.00102473099728972,-0.0556341577468407,-0.050729299633943,-0.305274966950988,-0.000721196107407425,0
0.45,0.00131221132641829,0.000754805021216548,-0.0651066932652695,-0.0378148467978172,0.00111430297623429,0.00102467461293309,-0.0556348515169065,-0.0507307346977356,-0.305279462080419,-0.00070444646621721,0
0.46,0.00131215872949003,0.000754803907158611,-0.0651083995864511,-0.0378147845111733,0.00111429058687734,0.0010246199088615,-0.0556355268650652,-0.0507321374947091,-0.305283836090741,-0.000688148134746466,0
0.47,0.00131210705248537,0.000754802823099736,-0.0651100329229641,-0.037814753507453,0.00111427838142446,0.00102456620461113,-0.0556362041469173,-0.0507334678312201,-0.305288092246027,-0.000672288952710107,0
0.48,0.00131205713310318,0.000754801768232114,-0.0651116383337317,-0.0378146883086408,0.00111426661417665,0.00102451429584197,-0.0556368346152457,-0.050734788186984,-0.305292233721076,-0.000656857087472519,0
0.49,0.00131200872712347,0.000754800741770768,-0.0651132065999222,-0.0378146260190255,0.00111425521418369,0.00102446394640823,-0.0556374510437658,-0.0507360784455743,-0.305296263606778,-0.000641841025221809,0
0.5,0.00131196124106888,0.000754799742950685,-0.0651147112676762,-0.0378145950084266,0.00111424400544226,0.00102441458714791,-0.0556380726905347,-0.0507373046821266,-0.305300184908973,-0.000627229562379724,0
0.51,4.58156367865628,0.0260649841715443,10.9234825756667,-1.30141406828302,-0.479164008996341,4.55651258941143,-2.49768324815352,10.71343682251,0.110464199658313,33.9245698884619,984.803969984846
0.52,4.54318136473365,0.0403022641041111,12.8444071553348,-2.00942188269109,-2.13865293762654,4.0085265120411,-7.91083064535042,10.3167499715384,0.498977981412669,72.1073041329274,984.803969984846
0.53,4.59776217843467,0.0796800064629493,10.1172247775599,-3.97613522636053,-4.20042829919663,1.87140804107025,-10.866443786155,0.297132933734817,1.16899604830243,110.853769620261,984.803969984846
0.54,4.4924165589197,0.000857498000892853,15.3864477536005,-0.0210889514601099,-3.81140438975829,-2.37802520001155,-13.0412712508408,-8.16507583431688,2.12881211381607,151.507810209421,984.803969984846
0.55,4.60170237381583,0.0840636979951896,9.92412501730671,-4.1898344213675,1.08624265373091,-4.47244992590398,6.57070470028989,-8.53632295424659,-2.88506587301042,194.734039852014,984.803969984846
0.56,4.58763365448462,0.0478183986873328,10.6295468859402,-2.36678352326378,4.44496582487069,1.13619890985011,9.66042244746837,5.0264469939355,-1.31011724899951,234.353991911389,984.803969984846
0.57,4.47676361841748,-0.0583935251617473,16.175116571737,2.96398728674914,-2.38045252165619,3.79186868062541,-5.89008270955412,15.3533886298727,0.547551680886524,272.764652962554,984.803969984846
0.58,4.48803525240178,0.033950346059917,15.6136892205885,-1.66684281969818,-1.9461992318989,-4.04424549236997,-5.15653058363256,-14.831582801669,2.70064058879209,314.958784010563,984.803969984846
0.59,4.45973746933227,-0.0371850230802204,17.0307706399768,1.90997680586504,4.01906727500215,1.93332337189475,16.2220123554521,5.52643421475341,-1.13077095579096,353.551510745405,984.803969984846
0.6,4.51211462533194,0.0103002678229573,14.4141352360487,-0.473321572229571,-4.50925577564178,-0.160924943662853,-14.3857931416066,-1.01994293994417,1.60875168117426,394.814552588262,984.803969984846
0.61,4.542033949911,-0.0440932184963355,12.9204366965396,2.26949571974436,4.53504307099973,-0.255736110549129,12.7425067731915,-3.11718083953958,-1.63683528490022,433.501516194715,984.803969984846
0.62,4.4204943391513,-0.0210317622502059,14.1714652446776,1.10648972565212,-4.38556899226267,-0.554974910780867,-14.2013354660928,-0.613854765864182,1.691915204321,474.511463464909,984.803969984846
0.63,4.13537949748528,-0.0329256161745809,14.0676295990982,1.71007663950277,3.41254301633319,2.33602179914864,12.6259370875599,6.43492636409909,-0.978483577193543,511.674611810135,984.803969984846
0.64,3.80565214358165,0.0150507110404252,16.6570857637119,-0.689388190836867,-0.907959720112018,-3.69578461338111,-3.23991802589483,-16.3534917801306,2.90464406556409,546.599025407559,984.803969984846
0.65,3.61840874867528,0.0443263834535418,12.7818858857223,-2.16375946697476,-2.44461521267731,2.66808979659729,-10.3269880493575,7.83656682833603,0.753965939915543,580.066140110413,984.803969984846
0.66,3.2974979489643,0.0346229004911691,16.5830766608912,-1.68741551522611,3.04169015094326,1.27389657912915,14.5595225619202,8.11579357986366,-1.1636791927944,611.19283113726,984.803969984846
0.67,3.0838381226596,0.0970785470942974,15.960856384094,-4.82118200849045,0.756181983455007,-2.9912657218931,9.03138430881701,-14.0152356362325,-2.86251418885367,640.027568410321,984.803969984846
0.68,2.90202482506024,0.0462058584531935,14.4962464208155,-2.27198067141812,-2.73634015798428,-0.9676391922736,-12.7967426368205,-7.17958455283333,1.92661777369213,666.763546959817,984.803969984846
0.69,2.7617112909142,0.0132925046280927,11.5477268048817,-0.604012825128207,-1.60273016834657,2.24910692331735,-7.2369129930337,9.01897534004627,0.623950370528204,691.804612738129,984.803969984846
0.7,2.49900473431552,0.0442682894589163,15.3608747324423,-2.15770324633761,1.23826646947804,2.17110121692873,5.47972670966194,14.5115385480816,-0.500612807661066,715.17704259536,984.803969984846
0.71,2.41884652095351,0.0525374896044266,10.5836397654323,-2.57183750195793,2.40952845615108,0.218520705520203,10.2292882518894,3.74024607220885,-1.45863685980661,737.19006398615,984.803969984846
0.72,2.24938534748782,-0.0236128219342638,10.8485590443852,1.24105158707551,1.74974545219096,-1.41374780614848,7.57629574745525,-7.86328081200119,-2.26087730172293,757.740971224075,984.803969984846
0.73,2.11703839267172,-0.032491268561237,9.74548280664475,1.67821315249452,0.501960831140601,-2.05692551216115,0.52859071212522,-9.87478740929996,-2.91758269751441,776.965304433617,984.803969984846
0.74,1.91453947263918,-0.0339641741558375,12.6708741988554,1.72781327604029,-0.528623050178841,-1.84042729501581,-5.36541120343499,-11.6081331099421,2.84415541531844,794.897896049902,984.803969984846
0.75,1.8020578919661,0.0428830321291895,11.5102566886611,-2.12509472764704,-1.18298254620192,-1.36007495963404,-5.70900757439911,-10.2180853957967,2.44951205697654,811.68473905988,984.803969984846
0.76,1.63231301267093,0.0220092792061348,13.6707868990146,-1.08048225496531,-1.35762954745185,-0.906516514792593,-10.6538087015217,-8.63447835673607,2.17301053921206,827.216988197067,984.803969984846
0.77,1.51560851605936,0.0358175956633243,13.6199085892005,-1.76854311008364,-1.38910471471678,-0.607239792555105,-11.6007651978499,-7.35199983234194,2.00653661489081,841.64587652905,984.803969984846
0.78,1.51375755209512,0.0628319979971574,8.25268160848642,-3.11257548248387,-1.43318037705998,-0.491328600131863,-6.55832752567196,-5.89773006598498,1.9425474998641,855.061079552207,984.803969984846
0.79,1.36636388044585,-0.0236867284696277,10.489507309998,1.22784797132567,-1.24732054152574,-0.558303485194712,-10.1291491910256,-2.989600460452,1.97432063982154,867.659332591695,984.803969984846
0.8,1.3138051009794,0.0174456279281341,8.29078210934821,-0.830721699622966,-1.14563876272633,-0.643350618739255,-6.75805418291977,-4.8739994037375,2.09575315039687,879.456167990496,984.803969984846
0.81,1.19597795956436,0.0292515286977525,9.6111432076753,-1.45591377595068,-0.910851343144863,-0.775608639963535,-6.19235061473683,-7.4932337842626,2.30062586400845,890.576196827713,984.803969984846
0.82,1.05795426494808,0.01955424195723,12.2233417330412,-0.966794074281048,-0.577052576781597,-0.886938508990377,-5.65552510792823,-10.8793294673139,2.58326849607738,900.836625371602,984.803969984846
0.83,1.00388236369632,0.0153143832810904,10.9908479011823,-0.74143146331438,-0.217577585690504,-0.980139951578795,-1.49171748233772,-10.91435921869,2.93840256703388,910.258485483744,984.803969984846
0.84,0.945343646463701,0.0870456813297776,10.2602705833403,-4.32589109111125,0.120421374246768,-0.941674175695592,6.45173236038339,-9.07533116340642,-2.92258345731257,919.073379631023,984.803969984846
0.85,0.921218450483823,-0.00267703260341767,7.95558390832425,0.136778698725767,0.598417232196196,-0.700390902443785,5.04602433683042,-6.15204536125409,-2.43745298544538,927.479538695253,984.803969984846
0.86,0.862130821872005,-0.0520855031953079,7.62687597296785,2.61799872048065,0.834112573477509,-0.224139841240984,6.40218694541994,-4.90256634053708,-1.89365302378221,935.133431657564,984.803969984846
0.87,0.746413967632983,0.0227561781337063,10.3723505693934,-1.1171703163804,0.724507282914198,0.180944333221993,9.67839293406457,3.89389728473237,-1.29557683764126,942.275199419277,984.803969984846
0.88,0.714998874033943,-0.0243745418809657,9.11796914974301,1.25133412879599,0.411409002132096,0.58528637531245,6.49313635520779,6.52245190018553,-0.646759565845187,948.910571157425,984.803969984846
0.89,0.706004117325576,-0.0539764463484629,6.87396810004815,2.70258661472412,-0.0884995346224299,0.702511994782073,2.36257828975255,6.99811658057762,0.049010695994276,955.151207370579,984.803969984846
0.9,0.614536049574738,-0.0201459930694272,8.91579857887298,1.02209982925687,-0.450197014683519,0.418787613515163,-5.60525715665432,7.00836960838795,0.788756672618013,960.939424535049,984.803969984846
0.91,0.583039441085058,0.00880369683952642,8.18278550828339,-0.414203143776439,-0.583024727703624,0.00972943086382759,-8.18343286180833,-0.401210063635682,1.56920853453682,966.225432792108,984.803969984846
0.92,0.544060460124329,0.021209695812771,7.94251503086584,-1.07046058277523,-0.388087942419469,-0.381889230557487,-4.65996673589657,-6.52028687215085,2.38710849822623,971.190791668436,984.803969984846
0.93,0.569777323681981,0.0334509830706014,4.61906125166969,-1.66712263016834,0.0226244219806607,-0.570309830163072,2.11235819907456,-4.43316676310493,-3.04330148085865,975.727035359142,984.803969984846
0.94,0.41141042599121,0.0456711340665399,10.6397928440842,-2.26628249580356,0.317097724104828,-0.266070337446194,10.1117199459164,-4.01177614669194,-2.15835801582392,979.940814772333,984.803969984846
0.95,0.37406567468138,0.0634902243618876,10.7015037142927,-3.19390094687874,0.374609800299441,0.0601966368161198,9.10558480893738,6.46618204914942,-1.24333895165157,983.946574751128,984.803969984846
0.96,0.389461651411187,-0.0575907755371581,8.24287133237599,2.89004428969814,-0.0593199358736167,0.38920203051224,2.85340646093181,8.25562567993701,0.00444134620430473,987.58377677581,984.803969984846
0.97,0.385420005822089,0.00622696150945441,6.85789538434134,-0.290204755317235,-0.315168090561826,0.221937898136284,-5.83343609044047,3.61745370133821,0.973419386810841,991.021115158756,984.803969984846
0.98,0.347278210252102,0.00826784936554953,7.27873378736481,-0.427338862178622,-0.323628835383727,-0.126233472412062,-6.55153874649745,-3.19998814116502,1.96650435471116,994.195229603476,984.803969984846
