t,iq,id,vq,vd,ia,ib,va,vb,theta_e,omega,r
0,0,0,0,0,0,0,0,0,0,0,0
0.01,0.000904949208493417,0.000514835478399175,-0.0442755853414882,-0.0257807114209094,-0.00103959103205701,-5.69133186346305e-05,0.0511834220342875,0.00228688599620126,2.1427337319401,-0.00244824060501997,0
0.02,0.0010004913432431,0.0005696662693637,-0.0491139695465909,-0.0285264015015893,-0.0011496069669828,-6.25012625451567e-05,0.0567379811727031,0.00259597374781189,2.1427157159721,-0.00257984376072755,0
0.03,0.00103352366187739,0.0005886229356527,-0.0507543948960635,-0.029475677123865,-0.00118764405110583,-6.44183817694241e-05,0.0586311965365739,0.00268457368413307,2.14269756913713,-0.00253351677241756,0
0.04,0.00101360371528469,0.000577825952755881,-0.0498280872703964,-0.0289350001578454,-0.00116505126738549,-6.26966321314266e-05,0.0575597012663253,0.0026369120751644,2.14268096978282,-0.00234924215837057,0
0.05,0.00103252088901461,0.000588779896487326,-0.0507809890741949,-0.029483532892355,-0.00118688789369598,-6.37046352871186e-05,0.0586578991712922,0.00269043267498044,2.14266468496862,-0.00227731196623456,0
0.06,0.00103232006655489,0.000588996789129509,-0.0508066067805936,-0.0294943964753697,-0.00118683738830477,-6.33951980726271e-05,0.05868536199746,0.0026942537429204,2.14264920841183,-0.00215749938128042,0
0.07,0.00106091102117409,0.000605592224249335,-0.0522235645012692,-0.030325413004442,-0.00121986175278915,-6.48956162008697e-05,0.0603266599506175,0.00276142396432814,2.14263473517131,-0.00212690616079323,0
0.08,0.00103181581262805,0.000589328669269854,-0.0508470315666401,-0.02951101202375,-0.00118659475813467,-6.28094863853225e-05,0.0587284241738668,0.00270048955916993,2.14262077739343,-0.0019370160930786,0
0.09,0.00103068884486461,0.000588998872278665,-0.050822237742799,-0.0294944961482444,-0.00118546941306562,-6.24614854108393e-05,0.05869867203095,0.00270019518319595,2.14260774096207,-0.00183338277898278,0
0.1,0.00103018528992058,0.000588989584058783,-0.0508259539736803,-0.0294940207701852,-0.00118504170159391,-6.21822095288853e-05,0.0587015730952077,0.00270188354204479,2.14259543364913,-0.00173713148604994,0
0.11,0.00102972150074431,0.000588986887245426,-0.050830027105152,-0.0294938930506321,-0.00118465094826763,-6.19197319985668e-05,0.0587049606173412,0.00270351284610097,2.14258381184862,-0.001646275099912,0
0.12,0.00102928402142885,0.000588984462283321,-0.0508338940577285,-0.0294937712121363,-0.00118428242123772,-6.16720384553133e-05,0.0587081762324211,0.00270506355732908,2.14257283731727,-0.00156047962378073,0
0.13,0.00107846994500611,0.000617164034610134,-0.053239686310141,-0.0309048789424944,-0.00124089430837238,-6.45769567785187e-05,0.0614949245968484,0.00281957260597823,2.142561919481,-0.00161557101517504,0
0.14,0.00114288061695203,0.000654689020522291,-0.056567221190119,-0.0327839575041456,-0.00131536638899208,-6.78607464372847e-05,0.065310038374766,0.00303928779355721,2.1425517001366,-0.00171913403928617,0
0.15,0.00103048663068537,0.00059029874421432,-0.0509626117227618,-0.0295595864756184,-0.00118600682897669,-6.1180920742833e-05,0.0588521186002755,0.00271755082264373,2.14254193669464,-0.00132579927368334,0
0.16,0.00102775845718026,0.000589002288964743,-0.0508502886972634,-0.0294946633528196,-0.00118301156351073,-6.07847292595834e-05,0.0587225531927205,0.0027108621173533,2.1425332820897,-0.00125139541457691,0
0.17,0.00102738239546207,0.000588974458992902,-0.0508506935439602,-0.0294932625479773,-0.00118268074565987,-6.05949972916337e-05,0.0587221578186865,0.0027117799953088,2.14252512151987,-0.00118745511151491,0
0.18,0.0010270740401927,0.00058897223317941,-0.0508533358050125,-0.0294931637238181,-0.0011824206903838,-6.04209106716626e-05,0.0587243473064739,0.00271284027652543,2.14251741570318,-0.00112721038000706,0
0.19,0.0010267838941855,0.000588970614742899,-0.0508558781380549,-0.0294930636990992,-0.00118217624880705,-6.02566771890212e-05,0.0587264509628031,0.00271387266932329,2.14251013906186,-0.00107032379701966,0
0.2,0.00102650988145652,0.000588969095980426,-0.0508582746527396,-0.029492991069775,-0.00118194540222182,-6.01015716481208e-05,0.0587284457296561,0.00271482689580005,2.14250326768827,-0.0010166055328785,0
0.21,0.00102625123554794,0.000588967661832399,-0.050860540022361,-0.0294929184380303,-0.0011817274996227,-5.99551647774407e-05,0.0587303291811057,0.00271573261523581,2.1424967790112,-0.000965879070776977,0
0.22,0.00102600662744166,0.00058896630741341,-0.0508626578836541,-0.0294928702648973,-0.00118152142228503,-5.98167159241469e-05,0.0587321008461952,0.0027165591552656,2.14249065171638,-0.000917977783184054,0
0.23,0.00102577603762216,0.000588965028294915,-0.0508646745757204,-0.0294927976200427,-0.00118132715289021,-5.96861940364918e-05,0.0587337732736316,0.00271737155949785,2.14248486567734,-0.000872744324006509,0
0.24,0.00102555808862226,0.000588963820297651,-0.0508665659495353,-0.029492749421439,-0.00118114353213509,-5.95628344993196e-05,0.0587353526715118,0.00271811450960874,2.14247940188756,-0.000830030110449541,0
0.25,0.00102535252809002,0.000588962679473039,-0.0508683615209896,-0.0294926738513618,-0.00118097034695408,-5.94464825521578e-05,0.0587368358734959,0.00271884650226922,2.14247424239966,-0.000789694834924916,0
0.26,0.0010352471076845,0.000594657537862349,-0.0513583074728536,-0.0297778533898763,-0.00119237309048654,-6.00047863857964e-05,0.0593031855432636,0.00274380819416839,2.14246941611326,-0.000780513996319099,0
0.27,0.000997735370689864,0.00057334603037988,-0.0495534062663046,-0.0287106694225616,-0.00114929573540789,-5.76268431483279e-05,0.0572078928465479,0.00266450883709327,2.14246462128821,-0.0006374008388535,0
0.28,0.000989476763005374,0.000568486243050923,-0.0489913143926455,-0.0284673142588016,-0.00113972118200754,-5.72407228211912e-05,0.0566035212202163,0.00256481042202514,2.14246023730528,-0.000580248331499618,0
0.29,0.00102388640578046,0.000588547092453103,-0.050838156885873,-0.0294718671482006,-0.00117951355264991,-5.89816165615961e-05,0.0587002253365583,0.00271895093576511,2.14245632335444,-0.000647482425284652,0
0.3,0.00102021598805457,0.000586608128749779,-0.0506675532027683,-0.0293747836584401,-0.00117537786273868,-5.86228520402923e-05,0.0585042303667448,0.00270811590046905,2.14245322741503,-0.000613240291197275,0
0.31,0.00102427621621276,0.000588909972008058,-0.0508724573401514,-0.0294900399837604,-0.0011800381120965,-5.88793361833148e-05,0.0587389226296063,0.00272182703022072,2.1424495473827,-0.000596377950767329,0
0.32,0.00102422649034464,0.00058895549433131,-0.0508779930032767,-0.0294923108443973,-0.0011800211265146,-5.8810023005775e-05,0.05874481627284,0.00272270675143334,2.14244605108297,-0.000569298299947902,0
0.33,0.00102409661935155,0.000588955694595126,-0.0508792044060267,-0.0294923334992443,-0.00117991220606456,-5.87356956471628e-05,0.0587458563231278,0.00272314911147353,2.14244274905584,-0.000543489459606515,0
0.34,0.00102397238467676,0.000588955023424169,-0.0508802683629986,-0.0294922851653913,-0.00117980754310719,-5.86653681873505e-05,0.05874673346636,0.00272358219996675,2.142439630923,-0.000519112974048511,0
0.35,0.00102385485364596,0.000588954372303815,-0.0508812593922396,-0.0294922612302218,-0.00117970851825738,-5.85988561420701e-05,0.0587475620065031,0.00272396551081124,2.14243668645251,-0.000496094012296492,0
0.36,0.00102374407470358,0.000588953757068934,-0.0508822025959872,-0.029492237277776,-0.00117961518145721,-5.8536160892038e-05,0.058748349871286,0.00272433259142318,2.14243390597228,-0.000474357073189201,0
0.37,0.00102363923294238,0.000588953176064723,-0.0508830786820904,-0.0294922133101375,-0.00117952684705527,-5.84768320913745e-05,0.0587490808612871,0.0027246724669961,2.14243128034901,-0.000453830757615249,0
0.38,0.00102354032836235,0.000588952627394548,-0.0508839079446293,-0.0294921893270553,-0.00117944351458194,-5.84208610827589e-05,0.058749772067133,0.00272499561106146,2.14242880095837,-0.000434447640796225,0
0.39,0.00102344729298693,0.000588952109260365,-0.050884706096953,-0.0294921380180605,-0.00117936512641846,-5.83682029230826e-05,0.0587504219508691,0.00272533301533107,2.14242645965538,-0.000416144053081388,0
0.4,0.00102335909861578,0.000588951619964084,-0.0508854398189464,-0.0294921140088875,-0.00117929081740012,-5.83182936459904e-05,0.0587510320630556,0.00272562026090309,2.14242424874993,-0.000398859870857541,0
0.41,0.00102327562883023,0.000588951157901453,-0.050886120402094,-0.0294921143830097,-0.00117922048920823,-5.82710629976601e-05,0.0587516103415452,0.00272586548314057,2.14242216097928,-0.000382538319051412,0
0.42,0.00102319698051522,0.000588950721557462,-0.0508867687349004,-0.0294920903462803,-0.0011791542229383,-5.82265565295568e-05,0.0587521479747996,0.00272612061722393,2.1424201894857,-0.000367125784636943,0
0.43,0.00102312275598219,0.000588950309501838,-0.0508873802047215,-0.0294920662975477,-0.00117909168375835,-5.81845526132221e-05,0.0587526543007586,0.00272636226763493,2.1424183277931,-0.000352571640529015,0
0.44,0.00102305272240051,0.000588949920383,-0.0508879574871946,-0.0294920422373004,-0.00117903267550331,-5.81449191738437e-05,0.058753131586448,0.00272659152253574,2.14241656978651,-0.000338828079282652,0
0.45,0.00102298664693954,0.000588949552925233,-0.0508885025990718,-0.0294920181659778,-0.00117897700202608,-5.8107524478591e-05,0.0587535815438261,0.00272680913359828,2.14241490969079,-0.000325849956053246,0
0.46,0.00102292389908124,0.000588949205922688,-0.050888996786208,-0.0294920184731043,-0.00117892413272963,-5.80720219745619e-05,0.0587540016094195,0.00272698412260643,2.14241334205317,-0.000313594640308426,0
0.47,0.00102286504136997,0.000588948878237743,-0.0508894802659438,-0.0294919943801269,-0.00117887454043124,-5.80387108516408e-05,0.058754399232129,0.00272717896862653,2.14241186172408,-0.000302021875790469,0
0.48,0.00102280932687216,0.00058894856879526,-0.0508899270998083,-0.029491970278603,-0.00117882759665667,-5.80071821702277e-05,0.0587547658058256,0.0027273588396824,2.14241046384068,-0.000291093648287642,0
0.49,0.00102275647431193,0.000588948276579909,-0.0508903340643704,-0.0294919676420482,-0.00117878306457636,-5.79772791822982e-05,0.0587551102488429,0.00272750366253642,2.14240914381179,-0.000280774060763484,0
0.5,0.0010227069298259,0.000588948000633294,-0.0508907336475249,-0.0294919435215429,-0.00117874131915055,-5.79492389173055e-05,0.0587554366612635,0.00272766687948675,2.14240789730124,-0.00027102921543991,0
0.51,4.62451732662152,-0.037202600593512,8.77560420027972,1.86993297521412,-0.721417946058888,4.56805217623636,0.550165456480005,8.95573539036613,0.148588706379144,45.7048007488505,4054.08255890522
0.52,4.61744913782724,-0.028415103432166,9.13051897016132,1.43841937613874,-2.90073779338518,3.59268203610498,-4.56726576801329,8.03588889734428,0.673084166832925,97.5172265454776,4054.08255890522
0.53,4.5806577466973,0.014911249839225,10.971846289622,-0.721768255148663,-4.5805515279711,-0.0345750972719974,-10.963408659055,-0.84025650356854,1.58159967476372,150.865466024604,4054.08255890522
0.54,4.58355318219916,-0.0709800271380634,10.8289094090216,3.58028541225144,-1.03818244129863,-4.46499441846009,-6.08978169295156,-9.64356166331553,2.89765146392123,208.671800137087,4054.08255890522
0.55,4.56892514520437,-0.0343931640752908,11.5621818930814,1.75908150865055,4.55534653362623,-0.353663442831388,11.3710719311862,-2.7344361427111,-1.65580538837761,262.227616931048,4054.08255890522
0.56,4.5788524641663,-0.00342992921796326,11.0677539864238,0.223617638847753,-2.02131582898998,4.10855010587565,-4.67764993701324,10.0331836532162,0.456460273239732,314.967427904274,4054.08255890522
0.57,4.51893993814422,0.00555879567217077,14.0653973495641,-0.228655075160923,-0.758637247473293,-4.45480847977894,-2.11877452558267,-13.9067782125934,2.97414467658172,370.494939490665,4054.08255890522
0.58,4.51309720927672,0.0597026630564756,14.3596502664539,-2.93296583093563,1.82276608599032,4.12905977483021,2.92626120025919,14.3610180602965,-0.402491562569817,424.014108873781,4054.08255890522
0.59,4.51916227712341,0.0686921592189205,14.0585348080517,-3.36569035316409,-1.1254661502381,-4.37731335917154,-0.0214031688828751,-14.4557882665369,2.90512929002731,477.166532178335,4054.08255890522
0.6,4.49495298603103,0.0691870915771471,15.2712664487764,-3.39224391154617,-1.35743807027601,4.28564476895082,-8.05251426980898,13.4117825675586,0.322134549669948,531.782169432543,4054.08255890522
0.61,4.4886742592602,0.109700318112399,15.5875347300417,-5.42082354321572,4.25999742795385,-1.4186799072961,16.4915357364763,0.621140804860566,-1.86783364921783,585.880972508845,4054.08255890522
0.62,4.50489676906903,0.0645701632805196,14.778792034488,-3.15648242626761,-2.30445441564338,-3.87140207834014,-4.64126238731385,-14.3817508933401,2.61900502311672,639.535650630161,4054.08255890522
0.63,4.44850646116236,0.0225470095338203,17.6007725118588,-1.04665347607906,-4.16331033636455,1.56734334010205,-16.8671780147251,5.13624204382619,1.21580972237342,693.020023217879,4054.08255890522
0.64,4.46480429978845,0.0127052084153261,16.7883865328188,-0.543412402053976,-0.897543224842361,4.37367751637794,-3.95368478379766,16.3252441342972,0.205250324755223,746.360734822969,4054.08255890522
0.65,4.45122043126377,0.039099325659924,17.4702172315006,-1.84845993479068,1.82651360558956,4.05940145016027,5.33595526289458,16.7377679419549,-0.414025731061099,799.280208031704,4054.08255890522
0.66,4.410783723426,0.0829403859175424,19.4946916548044,-4.02292188268253,2.71119826287195,3.48012875363197,8.47006946025361,18.0134623692544,-0.643034294057847,852.177005128884,4054.08255890522
0.67,4.41660900562745,0.0494341959241298,19.2061025332295,-2.37228800723487,2.08879765444838,3.89176093909777,6.79015337492206,18.1216981006535,-0.481400307544509,906.173317492458,4054.08255890522
0.68,4.42342993061232,0.0165267910520459,18.867779660161,-0.698144237855569,-0.300005829688921,4.41327565284699,-2.04631838858658,18.769472441541,0.0716097967115156,959.12925890728,4054.08255890522
0.69,4.40876769580142,0.057149600431166,19.6037259022813,-2.72364358440997,-3.71038821676804,2.38191476615779,-18.0743972416242,8.06476707528744,1.01305705215322,1012.20171428325,4054.08255890522
0.7,4.41366483679064,0.0488273293292518,19.3616966442452,-2.29626184028561,-3.19019401018867,-3.05048907176668,-12.2396695294666,-15.1769102650169,2.34487437926953,1065.20081670777,4054.08255890522
0.71,4.41194700938505,0.0380900069397123,19.450547385798,-1.77919155402958,3.49528510742238,-2.69252841769249,16.5842267568618,-10.3175936666498,-2.21854999430766,1118.60236590785,4054.08255890522
0.72,4.43412057186418,0.114783638807869,18.3448866825864,-5.56775570658962,0.604319970464694,4.39424599935696,-3.5053959911642,18.8479964439281,-0.1107873167998,1171.03093312784,4054.08255890522
0.73,4.41133643573274,0.0808052185475365,19.4871705858166,-3.86057322804826,-3.08807978567338,-3.15121910851708,-10.575828591851,-16.8168276641472,2.38462934239417,1223.64809522149,4054.08255890522
0.74,4.39309603402451,0.0899885472826139,20.4022695752295,-4.32085005464877,3.78183967510883,2.23720347187659,15.0677369188144,14.4182402934786,-1.0161210000993,1276.53244645698,4054.08255890522
0.75,4.34311534237474,0.0828766015420446,22.9044808237492,-3.96181749783662,-3.42395560833751,-2.6732091950291,-15.2843636287768,-17.5128372388653,2.25276072031197,1329.25690172456,4054.08255890522
0.76,4.40651570824574,0.0635261663673441,19.7376005881912,-2.97791505416996,1.67405975906555,4.07663343752013,4.46296176193254,19.4556631179805,-0.375236096161155,1381.95109413566,4054.08255890522
0.77,4.34244128999976,0.176039133033671,22.9444965351691,-8.59954989873253,2.02330759606867,-3.84629854602381,18.9380423810522,-15.5483996117494,-2.61681354736456,1434.62576019746,4054.08255890522
0.78,4.3627734163258,0.0817631674839086,21.9311957775749,-3.93012076097381,-4.25734138002304,-0.956828862283957,-20.3700875176208,-9.02677860339042,1.81060978210799,1487.50639062816,4054.08255890522
0.79,4.34466169987479,0.0722153171006497,22.8401061084124,-3.43661135021367,-1.3817405791997,4.11972005240353,-10.8613800096497,20.3840910737255,0.340226538267908,1540.12308254473,4054.08255890522
0.8,4.26815027047566,0.113985478847461,26.6690257794116,-5.48095230690966,2.97938113315897,3.05833083300775,14.0663938968604,23.3112491503975,-0.745623098772353,1592.21089821694,4054.08255890522
0.81,4.26777479931641,0.0814651188288169,26.6913019724547,-3.90536478866256,4.2453157122436,0.444783999986101,26.0070952668998,7.16299315200612,-1.44732052523033,1644.94322279145,4054.08255890522
0.82,4.33055985561909,0.128627805276596,23.5555717056443,-6.1983291818697,4.22373504179118,-0.964549673233646,24.3098949615189,1.52093720662179,-1.76561688169027,1696.82689948003,4054.08255890522
0.83,4.34462097003714,0.115428717873479,22.8560634638661,-5.58146264542334,-2.89382328059783,-3.24265970815107,-10.4985495681761,-21.0554700562842,2.43954162978687,1749.45414284251,4054.08255890522
0.84,4.20975847785918,0.158161678245968,29.6027463012367,-7.69043684534628,-1.21217131990219,-4.03456593075134,-0.00441610816270188,-30.5853786627799,2.88727883992602,1801.48875273049,4054.08255890522
0.85,4.33027766246366,0.0932341908656533,23.5804388762168,-4.3978470747364,2.2808775444446,-3.68206394235984,16.5341556227077,-17.3781430058521,-2.56546234800276,1853.43820810744,4054.08255890522
0.86,4.22776342766582,0.173006172914213,28.7098455152127,-8.4097402871388,4.1653277511546,0.744284530026253,26.215565128566,14.4126023394257,-1.35307810455156,1905.61019276085,4054.08255890522
0.87,4.25489175281107,0.184279004466155,27.3571229592921,-8.97754001262102,-0.836592739943106,4.17590411373408,-15.2476027004961,24.4237387223141,0.241003511932344,1957.76597126852,4054.08255890522
0.88,4.32692452689773,0.148175201445718,23.7592870775607,-7.15778955269138,-3.54546888408609,-2.48472979290907,-14.6726539440908,-20.0112693238465,2.21630288151576,2009.71271032763,4054.08255890522
0.89,4.18864337544206,0.0940454864020375,30.6771989581584,-4.43593651232927,4.13437066172512,-0.678643582165099,30.9960841969849,0.10408224283626,-1.71104349227174,2061.53009411278,4054.08255890522
0.9,4.26317248714004,0.194741966621399,26.9546204600496,-9.44758833927776,-3.54280319076946,2.37930864751614,-27.9429766143048,5.91595702369428,1.02504182258151,2113.33253329197,4054.08255890522
0.91,4.16490918775479,0.156458424131306,31.871696856527,-7.60390723342153,3.41947055100951,-2.38289087696115,30.9245865259504,-10.8302545643138,-2.14186331758995,2165.37748737044,4054.08255890522
0.92,4.24074454368876,0.124348313405063,28.0838447776984,-5.97939333767523,-4.11529763283413,1.03135938501694,-28.712732834253,0.185621586308738,1.35455187770424,2217.27721521747,4054.08255890522
0.93,4.18525384554951,0.182944025238878,30.8624227986022,-8.84515090490747,3.72760519329586,1.91174731357764,22.4439188399397,22.9564009077309,-1.05322832328618,2268.66374245345,4054.08255890522
0.94,4.15906413904077,0.0774683536075531,32.175959504063,-3.64367953887883,0.169409154729201,-4.15633449048071,5.54613599350744,-31.9031212600063,-3.08223169662925,2320.63968012697,4054.08255890522
0.95,4.20263940193758,0.18851245022156,30.0012738525702,-9.10598372326043,-4.19792764409101,0.274077327743999,-30.1805301448302,-8.49299549759638,1.55042581651477,2371.9547388099,4054.08255890522
0.96,4.14067975331367,0.09034377500396,33.1033408061651,-4.25142327837312,3.93736931253588,-1.28472320516306,32.9172471427754,-5.51004654812035,-1.86437918385755,2423.80154532265,4054.08255890522
0.97,4.12991489719815,0.118911728629143,33.6457581740585,-5.71245302647762,1.43401157773776,-3.87478358779156,17.8791975423297,-29.0689431856284,-2.75835035456205,2475.36755753381,4054.08255890522
0.98,4.14601235169083,0.147413776548695,32.8450327177096,-7.0275380632746,-0.696219143848234,-4.08979561171809,2.60739922651172,-33.4870711578629,3.00851640463159,2526.69782073033,4054.08255890522
