t,iq,id,vq,vd,ia,ib,va,vb,theta_e,omega,r
0,0,0,0,0,0,0,0,0,0,0,0
0.01,0.000549213784713339,0.00025806364893381,-0.0210650241063884,-0.0129113082931631,2.43572993446485e-05,0.000606332705854482,-0.0037107053299243,-0.0244267842418583,0.399111295820133,-0.0219434740248256,0
0.02,0.00063827613070993,0.000307852073780205,-0.0279590624025852,-0.0154022946480976,3.57181497874069e-05,0.000707738321797384,-0.00333116001508551,-0.031746546643885,0.398976985030756,-0.0143151570840066,0
0.03,0.000628638439805973,0.000326950721529981,-0.0295612157780299,-0.0163578425357646,5.71113697393404e-05,0.000706272860697025,-0.00359166651671744,-0.0335938152393086,0.398905354717224,-0.00672058701870426,0
0.04,0.000576047074007264,0.000320956388678935,-0.0285341229000776,-0.0160579343077455,7.20277905358277e-05,0.000655480916805883,-0.00371488887385047,-0.0325308011669486,0.3988853493877,-0.001519991231576,0
0.05,0.000576719579743786,0.000329018492089806,-0.0286846103856309,-0.0164612895018198,7.91990493319599e-05,0.000659231486188132,-0.00402829325937623,-0.0328261142759028,0.398880388431627,-0.00107670720760511,0
0.06,0.000574840852281256,0.000330291482916382,-0.028682234574179,-0.016524980019155,8.11031083167726e-05,0.00065799449462735,-0.00408797294490133,-0.0328486532753392,0.398878368007119,-0.000763325467520047,0
0.07,0.000584096150048205,0.000336346348937716,-0.0289180779515768,-0.0168279172001267,8.30870867314392e-05,0.000668874962129208,-0.00427548380523146,-0.0331836445849306,0.398879780501955,-0.00147254508515939,0
0.08,0.00057629287410269,0.000331448538802387,-0.0287629218297277,-0.0165828672065352,8.16063483273398e-05,0.000659781793116825,-0.00411002603008396,-0.0329454828922667,0.39887691334913,-0.000710781499716721,0
0.09,0.000573317809073071,0.000330675115570999,-0.0286699671676057,-0.0165441698460027,8.20489837656763e-05,0.000656739907818354,-0.0041104623975764,-0.0328447967289049,0.398877101315976,-0.000545545096588992,0
0.1,0.000572708671499189,0.00033055304919197,-0.0286370077604955,-0.0165380723392928,8.21727085772743e-05,0.000656131226741686,-0.00411762593261228,-0.0328120588633728,0.398877665976448,-0.000563136880925091,0
0.11,0.00057279970650806,0.000330533809237478,-0.028631238291828,-0.0165371073139068,8.21194137037001e-05,0.000656207668895844,-0.00411896700029855,-0.0328063688220071,0.398877984062619,-0.000599838685356901,0
0.12,0.000572951104355431,0.00033053078178317,-0.0286328044989667,-0.0165369553752811,8.20577528572652e-05,0.000656346014602296,-0.00411821517671726,-0.0328077535091683,0.398878091406931,-0.000619672161013892,0
0.13,0.000601056600335105,0.000344006215946702,-0.0295760070423349,-0.0172111420862963,8.35625285644276e-05,0.000687478448561322,-0.00437329633956678,-0.0339387372129438,0.398873806922656,-0.00193549378356426,0
0.14,0.000613480647781344,0.00035249739076714,-0.0307857652184131,-0.0176359816582329,8.6564332215307e-05,0.000702224701992159,-0.00429506190704413,-0.0352185126367858,0.398870309006414,-0.00236042201889428,0
0.15,0.000579186668081755,0.000333998121708166,-0.0290720121424429,-0.0167104347401978,8.28375251954738e-05,0.000663437929431019,-0.0041078167283313,-0.033279819124256,0.398868405797296,-5.79954139456006e-05,0
0.16,0.000570497419001431,0.000331077339457843,-0.0286849235442615,-0.0165642938906232,8.35174815249769e-05,0.00065429682871729,-0.00412332118460317,-0.0328663793753384,0.398873348504196,-4.75068493611842e-06,0
0.17,0.000570519761388677,0.000330616479760498,-0.0285975110269078,-0.0165412398681717,8.3081937518444e-05,0.000654138705843339,-0.0041359167535094,-0.0327768888993227,0.398876688535321,-0.000332525309139503,0
0.18,0.000571894112637665,0.000330543836663676,-0.0286042810252436,-0.0165376096536257,8.24803818147751e-05,0.000655377059898845,-0.00412990014900306,-0.0327817228160155,0.398877970171437,-0.000542592856774318,0
0.19,0.000572736551059895,0.000330532385745314,-0.028622096887695,-0.0165370340366775,8.21424653031895e-05,0.00065614893914445,-0.00412244159584024,-0.0327979176209057,0.398878235930792,-0.000620552251179996,0
0.2,0.000573039812808902,0.00033053056882875,-0.0286319579311675,-0.0165369439671186,8.20230331161306e-05,0.000656427685303377,-0.00411852993501936,-0.0328069694107535,0.398878198796643,-0.000635637437344813,0
0.21,0.000573094469775536,0.000330530273340264,-0.0286351903775526,-0.0165369292457803,8.20015752106476e-05,0.000656477931498588,-0.00411726305144904,-0.0328099421182634,0.3988781343251,-0.000632713749159475,0
0.22,0.000573080674557285,0.000330530222750535,-0.0286355949633728,-0.0165369279342532,8.2006908676621e-05,0.000656465196816903,-0.00411710581902873,-0.0328103142941963,0.398878100459912,-0.000628552119932759,0
0.23,0.000573063619712709,0.000330530213684566,-0.0286352941253166,-0.0165369280926761,8.20135312195858e-05,0.000656449476421066,-0.00411722315857351,-0.0328100370900162,0.398878089711908,-0.000626448663082086,0
0.24,0.000573055237806899,0.000330530212204511,-0.0286349999224966,-0.0165369267560414,8.20167861217505e-05,0.000656441751834951,-0.00411733623382274,-0.032809765458377,0.398878088399314,-0.000625805767335318,0
0.25,0.000573052793085151,0.000330530212109626,-0.028634824732343,-0.0165369268473233,8.20177349532866e-05,0.000656439499065268,-0.00411740433044988,-0.0328096040601729,0.398878089273223,-0.000625739482306874,0
0.26,0.000578455291052512,0.000333194879861856,-0.028777152465808,-0.0166702399581815,8.2374537389742e-05,0.000662452856664253,-0.00418495247209186,-0.0329925382035096,0.398878744267173,-0.00102315178358654,0
0.27,0.000567665589239937,0.000326645173612116,-0.0285339307000109,-0.0163425558853601,8.05314329180412e-05,0.000649966136782049,-0.00397755016606449,-0.0326411309353028,0.398875869676736,-7.63643123289966e-05,0
0.28,0.000566631108925368,0.000326496372947002,-0.0277580839026879,-0.0163351051471632,8.07955502585745e-05,0.000648955140366385,-0.00427198336665662,-0.0319232993318759,0.398876697747451,-9.34367581592163e-05,0
0.29,0.000571001147304713,0.000329893258172943,-0.0285599641718339,-0.0165050567984437,8.22272661005686e-05,0.000654301573222077,-0.00411709358693625,-0.0327282445880114,0.398878617236866,-0.000550709896982578,0
0.3,0.000561862041168606,0.000326124773980799,-0.0281078470637657,-0.0163165160268761,8.22996572838954e-05,0.000644416858812006,-0.0041187265280965,-0.0322384220085615,0.398885531160001,-0.00066234345735682,0
0.31,0.000573522732236885,0.000329835048643078,-0.0285241811954464,-0.0165021408308496,8.11915296272069e-05,0.000656602938786172,-0.00412816717047832,-0.0326941554514631,0.398882805769208,-0.00111563535230997,0
0.32,0.000575094491859467,0.000330420611115024,-0.0286490147878493,-0.0165314448085845,8.11226291367879e-05,0.000658278492629571,-0.00410678440121029,-0.0328205581557605,0.398879827335144,-0.00092158563715886,0
0.33,0.000574236036828601,0.00033051292757059,-0.0286606147659901,-0.0165360606729959,8.15420353376267e-05,0.000657523168988666,-0.00410657880495053,-0.032833034460193,0.398878421025645,-0.000731174747760832,0
0.34,0.000573461468824755,0.000330527468786937,-0.0286481573635946,-0.0165367918271258,8.18565278094073e-05,0.000656815021679874,-0.0041121039300439,-0.0328218373271743,0.398878021909909,-0.000644372684911268,0
0.35,0.000573119266196208,0.000330529766712892,-0.028638634458252,-0.0165369069714067,8.19915682907581e-05,0.000656500573265386,-0.00411590941989483,-0.0328131066109498,0.39887799649047,-0.000620767154723962,0
0.36,0.000573029859261502,0.000330530136488403,-0.0286346764210945,-0.0165369249224284,8.20266025648672e-05,0.000656418332470967,-0.00411746166541492,-0.032809466455044,0.398878043343691,-0.00061983167460212,0
0.37,0.000573028462282992,0.000330530198885265,-0.028633690337255,-0.0165369279189695,8.20271810879517e-05,0.000656417072084744,-0.00411784632997866,-0.0328085590803632,0.398878076159026,-0.000622952395476326,0
0.38,0.000573041617214303,0.000330530210124492,-0.0286336605060725,-0.0165369279385509,8.20220738298615e-05,0.000656429199738383,-0.00411785751214167,-0.0328085316515619,0.398878089017181,-0.000625019541744204,0
0.39,0.000573049882702118,0.000330530212125585,-0.0286337506275344,-0.016536927980638,8.20188636635047e-05,0.000656436817367858,-0.00411782245811274,-0.0328086147260151,0.398878091791169,-0.000625803089169245,0
0.4,0.000573052909500473,0.000330530212363618,-0.0286337673056922,-0.0165369280467897,8.20176885222994e-05,0.000656439606621626,-0.00411781605161383,-0.0328086301193192,0.398878091483792,-0.000625961624658103,0
0.41,0.000573053491577079,0.000330530212317785,-0.0286337206651904,-0.016536928124168,8.20174628204182e-05,0.000656440142934619,-0.00411783425787061,-0.0328085871677029,0.398878090859162,-0.000625936497594955,0
0.42,0.000573053433369419,0.000330530212271126,-0.0286336487584887,-0.0165369282044869,8.20174856057754e-05,0.000656440089250635,-0.00411786227041542,-0.0328085209356768,0.39887809052191,-0.000625896207498705,0
0.43,0.000573053258746437,0.000330530212252447,-0.0286335659636453,-0.0165369282853407,8.20175534823234e-05,0.000656439928319669,-0.00411789450481793,-0.032808444671397,0.398878090410922,-0.000625875345572125,0
0.44,0.000573053142331115,0.000330530212248632,-0.0286334818866333,-0.0165369283659272,8.20175987035598e-05,0.000656439821040431,-0.00411792723384807,-0.0328083672258876,0.398878090394445,-0.000625868815201807,0
0.45,0.000573053142331115,0.000330530212248892,-0.0286334018140793,-0.0165369284459791,8.20175986998814e-05,0.000656439821041021,-0.00411795840637875,-0.0328082934703603,0.398878090400413,-0.000625868062903592,0
0.46,0.000573053142331115,0.000330530212249699,-0.0286333213123674,-0.016536928526031,8.20175986970823e-05,0.000656439821041777,-0.00411798974560657,-0.0328082193193628,0.39887809040581,-0.000625868622501768,0
0.47,0.000573053142331115,0.000330530212249989,-0.0286332408022271,-0.0165369286060829,8.20175986966409e-05,0.000656439821041979,-0.0041180210882495,-0.0328081451605808,0.39887809040689,-0.000625869084704081,0
0.48,0.000573053142331115,0.000330530212249944,-0.0286331603518926,-0.0165369286861348,8.2017598697308e-05,0.000656439821041872,-0.0041180524077356,-0.0328080710569007,0.39887809040581,-0.000625869281534877,0
0.49,0.000573053142331115,0.000330530212249493,-0.0286330799500003,-0.0165369287661867,8.20175986981428e-05,0.000656439821041541,-0.00411808370843457,-0.0328079969978566,0.398878090403905,-0.000625869330320343,0
0.5,0.000573053142331115,0.000330530212249186,-0.0286329995510772,-0.0165369288462386,8.20175986992562e-05,0.000656439821041247,-0.00411811500798763,-0.0328079229415477,0.398878090401778,-0.000625869329523932,0
0.51,4.64886207261414,0.0590174148457063,7.55782239450563,-2.86246756396966,-4.64364537233488,0.227945786181985,-7.6568678319813,-2.58587990928411,1.53444235729285,481.642333535557,1821.05732916196
0.52,4.3715419936231,0.108020503601638,10.2481800253515,-5.24214172959385,-3.33930009973424,2.82331767166281,-11.2716058895713,2.33583912445716,0.893636032952104,1050.42957340315,1821.05732916196
0.53,2.20902944300766,0.0972983771001954,9.57225164568162,-4.74782309371149,1.31286981085071,-1.77922761725921,9.70949975102725,-4.46043050413707,-2.46187141509501,1422.77207727449,1821.05732916196
0.54,1.12764831654538,0.0235610142308664,9.04197710046257,-1.12558809664895,-0.732141394579247,-0.857971343077828,-4.8530961655623,-7.71179331001628,2.45605355206297,1612.4717411685,1821.05732916196
0.55,0.563997324818306,0.0039745167124311,9.38096274668822,-0.177961183325274,-0.489308481420239,-0.280510230108498,-8.01578722420811,-4.87660613682761,2.09838312778766,1708.23052759071,1821.05732916196
0.56,0.265209871670954,-0.0188307209255777,10.3499869487231,0.954911236111647,-0.19447450931432,-0.18130233674516,-8.65133355319937,-5.76094723625182,2.2502715263967,1756.25554362105,1821.05732916196
0.57,0.153364382633311,0.00855274540238388,8.86138380524812,-0.406053828094716,-0.0787884284054514,-0.131856614789754,-3.75509563843166,-8.03668211399801,2.6587002734549,1780.92442274386,1821.05732916196
0.58,0.04157931017036,0.0446520892209798,10.7753493329874,-2.2122491709738,-0.0421533088682392,-0.0441106184211939,2.83639004629024,-10.6281273584622,-3.08328772843758,1793.84342788798,1821.05732916196
0.59,0.00154984875354144,-0.00537095912497701,10.8857278110711,0.244507426688588,0.00517481385175669,0.00211436389505092,6.55795423111447,-8.69207053359788,-2.47277586680161,1800.49889492525,1821.05732916196
0.6,-0.0195288340937905,0.0287638258082201,11.0961380160307,-1.44923627798047,-0.0261962723004337,-0.0228580041506242,11.1002203493558,-1.41762930837533,-1.82769265463839,1803.557765555,1821.05732916196
0.61,-0.0092378812248811,0.044115936501859,10.1289399502114,-2.19488360337507,0.00890545301617879,-0.0441842416426682,8.44287085654878,6.01089596041993,-1.165490680135,1805.51907197099,1821.05732916196
0.62,-0.00251830700947938,0.00362183707808475,9.61314020175062,-0.167952010198187,0.00198992187117008,-0.0039369766269082,4.42071816924476,8.53802806767188,-0.495230111917699,1806.40941983284,1821.05732916196
0.63,-0.0202237963084177,-0.0012999544886056,10.4189497647609,0.0415834584645313,0.00236439772054686,-0.0201271319918136,-1.83595192612536,10.2559994105687,0.181127364853806,1806.66882833963,1821.05732916196
0.64,-0.0144126557902687,0.0136951618605588,9.99512933177765,-0.688014625220394,0.0198561735430539,0.0010072127599451,-8.03321688047655,5.98693586358712,0.861601092582971,1807.42556018612,1821.05732916196
0.65,-0.0409992936840906,0.00238924933277048,11.2070376274608,-0.10478784611119,0.0383622553292286,-0.0146624677671777,-10.2609887404599,4.50785791082301,1.14750936258364,1808.07204950847,1821.05732916196
0.66,-0.0443851178854086,-0.016734977225024,11.3644314012959,0.810099127527667,0.0472156257015225,-0.00455882024622798,-11.1814261254304,-2.18684052292901,1.83509969592277,1808.12879519543,1821.05732916196
0.67,-0.0103661402656136,-0.00170483046345605,9.67199179380092,0.0679234988888284,0.00739127683247084,0.00746540941283753,-5.65471304539067,-7.84705417563446,2.52418659240602,1808.23695260351,1821.05732916196
0.68,-0.0291100149096954,-0.00384129568523969,10.6117507946797,0.19647105550956,0.00172156324724851,0.0293118532435234,0.573089730366262,-10.5980858632579,-3.06905806849552,1808.58007743451,1821.05732916196
0.69,-0.00207807986196286,0.00491376789494642,9.2347095987843,-0.226570907253959,-0.00498730551450893,-0.00189481253506794,6.54698620113119,-6.51676050136036,-2.37841057325729,1808.79514988742,1821.05732916196
0.7,-0.0313330727391864,-0.0149537954906608,10.7731950954858,0.721201747105137,-0.0293873796690598,0.0184867347858453,10.6168581410955,-1.96575373261281,-1.68703263596052,1808.71427377623,1821.05732916196
0.71,-0.0303189416656711,-0.0276677297539782,10.7387446486591,1.37334016291979,-0.040498761448975,0.00667771027857252,9.75267498604811,4.70021600021791,-0.99450379703288,1808.82733532429,1821.05732916196
0.72,-0.0243982486257931,-0.00714387613545329,10.4254570428117,0.36921725944535,-0.0140398677837656,-0.0211941410502784,3.43593096662602,9.84991646303484,-0.30023055374555,1809.28644516785,1821.05732916196
0.73,-0.0333100852157103,-0.003233274667626,10.8476143670356,0.166533170073391,0.00987408151163523,-0.0319768409392763,-4.03326291511075,10.0713088032412,0.396262835751512,1809.33663804503,1821.05732916196
0.74,-0.0352931966523553,-0.0355750317155152,10.9228367228031,1.75629230308782,0.014962987005048,-0.0478257423506264,-8.88932262953477,6.58580806848655,1.09259212746812,1809.54852821315,1821.05732916196
0.75,-0.0382717270213092,0.0220110438460798,11.0216424987414,-1.10391356646753,0.0325148846610668,0.029866258819363,-10.5114713813411,-3.49345071978136,1.79183267302086,1809.99012972104,1821.05732916196
0.76,-0.0457165687133398,0.0243841794642557,11.4262196634512,-1.20493009895485,0.00816147635165359,0.0511662307271891,-5.93775795968811,-9.83632973994704,2.49342458617708,1810.0428635378,1821.05732916196
0.77,-0.0427939916544626,0.0350182100334926,11.0768905938121,-1.78020111024521,-0.037354814300099,0.0407703152339681,2.39639409310666,-10.9601056824615,-3.08568372132638,1810.61422148805,1821.05732916196
0.78,-0.0199227838701116,-0.0274405471458319,10.0258392903871,1.35741962982951,0.0185814578195549,0.0283660072991936,2.28988800678886,-9.8547681070881,-2.77870690504862,1810.62957345437,1821.05732916196
0.79,-0.0358664406761762,0.0242998835004868,10.9532566744169,-1.209224990319,-0.0431367004842952,-0.00401384805929468,10.1808126926229,-4.21747670658634,-2.07348621678274,1810.3648454666,1821.05732916196
0.8,-0.0210030786894958,0.0391220903326311,10.2089550159894,-1.9400247039337,-0.0127234715680072,-0.0425415154606628,9.61182623840348,3.94958918535923,-1.36871337214647,1810.58009916778,1821.05732916196
0.81,-0.0238557187778367,-0.0274283535035241,10.2735582501523,1.34692384314245,-0.0362977786141007,-0.00197006649716319,7.37478772790303,7.2782352893314,-0.661624972338322,1810.85179911753,1821.05732916196
0.82,-0.0230944710752288,0.0132457482102252,10.3124730790485,-0.669148596432086,0.0142987671849356,-0.0224577313387678,-1.14496093408161,10.2705367585942,0.0462252715254045,1810.77789562669,1821.05732916196
0.83,-0.00567088526619368,0.0292449774059285,9.55729085060802,-1.44751221369206,0.0252242663435369,0.0158481554322865,-7.58870701828758,5.98737219508662,0.752494410836859,1810.65409707256,1821.05732916196
0.84,-0.0653198940668708,-0.0196170574531535,12.5214778191846,0.956502577767945,0.0627127869706995,-0.0268071605060143,-12.3356532126791,2.35243783640022,1.45859749369822,1810.63027817336,1821.05732916196
0.85,-0.0324051628961759,0.0207741801452698,10.9346960221521,-1.05976468024304,0.0152441257722628,0.0353451237439516,-8.47183034358861,-6.99419537215046,2.16432703873698,1810.70736102829,1821.05732916196
0.86,-0.0304816475791078,-0.00577743942755471,10.7877485258336,0.292097106972391,0.0136470491622421,0.0278615809788199,-3.13986121059459,-10.3248298075431,2.87344164494497,1811.18684774759,1821.05732916196
0.87,-0.0249363787559555,-0.0112877938959362,10.4616800699312,0.582473110111632,-0.000494197136440746,0.0273677373139969,3.95936009805191,-9.70100471206736,-2.69847009586895,1811.39666843508,1821.05732916196
0.88,0.00421547332135317,0.00575856286772101,8.92173045400582,-0.312923399634095,0.00153622738007398,-0.00696930893713621,8.29076613179615,-3.31034625014293,-1.98574273401417,1811.69275945417,1821.05732916196
0.89,-0.0439753142936644,0.0203149133819952,11.4118047384229,-1.02839648109276,-0.0360223991527246,-0.032386891364043,10.6001690768175,4.3500922120223,-1.27124837722257,1811.46402970788,1821.05732916196
0.9,-0.0116845109746595,-0.0154162240849959,9.89555223849312,0.784392028181561,-0.0192665703811205,-0.00172830191375121,5.91375264875698,7.97275075290459,-0.559095582453738,1811.52568881343,1821.05732916196
0.91,-0.0712385836709251,0.0404734254558603,12.7412471160233,-2.02885727808216,0.0220492920246978,-0.0789104726432435,1.11179593082816,12.8537756995598,-0.244190561906037,1811.93237486541,1821.05732916196
0.92,-0.0241450865788539,0.00393019201170998,10.3823312936581,-0.218924153690765,0.0144884897244151,-0.0197107909697906,-4.92015098121287,9.14509951823443,0.472507818238053,1812.07677210935,1821.05732916196
0.93,0.010502495723204,-0.00172396009027756,8.62788601674612,0.0887983098425702,-0.0103931276116751,0.00229289189806794,-7.98001804548388,3.28140431089279,1.1909616290988,1812.43510493923,1821.05732916196
0.94,-0.00824981310869885,0.0440931002791229,9.56735387557928,-2.18792529322734,-0.0069061510011289,0.0443234248101707,-8.29248458975008,-5.24937868686031,1.9103275057081,1812.56769627023,1821.05732916196
0.95,-0.0723640151992603,0.00542938189633673,12.7744832327772,-0.301934422931415,0.0306932683977038,0.0657567651166141,-5.99076952313452,-11.2866853761828,2.62999241276596,1812.51354853112,1821.05732916196
