t,iq,id,vq,vd,ia,ib,va,vb,theta_e,omega,r
0,0,0,0,0,0,0,0,0,0,0,0
0.01,0.000940845614637983,0.000529212358409961,-0.0461233602324413,-0.0265062756845076,0.0010766715307784,-7.76827245187414e-05,-0.0530217818095977,0.00431713603330743,-1.13044360642478,-0.00464917329975494,0
0.02,0.00104118375422282,0.000587733392137001,-0.0512564086669602,-0.0294373919926498,0.00119237973616192,-8.78903582926702e-05,-0.058914399808081,0.00478256960398265,-1.13047666440083,-0.00465108782462164,0
0.03,0.00107042353450774,0.000605157466452282,-0.0527529850746309,-0.0303100880127619,0.00122625427129217,-9.12280908968787e-05,-0.0606400391624138,0.00493604295023034,-1.13050804278434,-0.0042926504466778,0
0.04,0.00105038576828613,0.000595518985012751,-0.0518513828797791,-0.0298273252754995,0.00120401718907506,-9.10809098574625e-05,-0.0596185405333374,0.00488516778736453,-1.13053459201124,-0.00374496542525184,0
0.05,0.00106625010639228,0.000605235894889795,-0.0526831990863872,-0.0303140253206856,0.00122250752058867,-9.31404313321251e-05,-0.0605783319789433,0.00497245329470431,-1.13055931075979,-0.0034234668740691,0
0.06,0.0010646223095646,0.000605345990774498,-0.0526610521457617,-0.0303195396354811,0.00122107978625783,-9.39605564157509e-05,-0.0605605370730193,0.00498821072465874,-1.13058128703649,-0.00305176635711616,0
0.07,0.00109334656907306,0.000622309988932476,-0.0541010766187113,-0.0311691855871418,0.00125429255046062,-9.70908867400322e-05,-0.0622252340402874,0.00514440182147747,-1.13060047146119,-0.00289182907471012,0
0.08,0.00106192051326177,0.000605540022257448,-0.0526244694234595,-0.0303292478049221,0.00121871477419173,-9.53320208979121e-05,-0.060531395627368,0.00501479789383825,-1.13061788673006,-0.00243277887934538,0
0.09,0.00106022728211091,0.000605334546424424,-0.0525814853965819,-0.0303189557943768,0.00121709394528461,-9.58860322398469e-05,-0.0604880475799004,0.00502471759843667,-1.13063301538268,-0.00217377022235012,0
0.1,0.00105908476692776,0.000605328181874135,-0.0525605882871618,-0.0303186351793472,0.00121605633328682,-9.6383326268045e-05,-0.0604689385022406,0.00503413911638584,-1.13064637068587,-0.0019470452786743,0
0.11,0.00105808061336848,0.000605324659250815,-0.0525423579167503,-0.0303184561557247,0.0012151452452123,-9.68223141701789e-05,-0.0604523099711213,0.00504245756293088,-1.13065816343912,-0.00174687281258599,0
0.12,0.00105719409937534,0.000605321572589307,-0.0525262631983194,-0.0303183080671501,0.00121434089507772,-9.72098788079848e-05,-0.060437633519178,0.00504981031676161,-1.13066857649797,-0.00157011987219744,0
0.13,0.00110745889058749,0.000633892822990298,-0.0549864255110127,-0.0317493385161927,0.00127198718696534,-0.000101655799519174,-0.0632729785321298,0.00529694953407943,-1.13067892023013,-0.00167371393578041,0
0.14,0.00118421731454299,0.000678873654620326,-0.0589328649099837,-0.0340022660396235,0.00136059357762272,-0.000109659489022934,-0.0678031287307058,0.00565441390906764,-1.1306877783779,-0.00194644808843944,0
0.15,0.00105661834916136,0.000606195411002468,-0.0525684994217982,-0.0303620762117688,0.00121418964396029,-9.82787902067493e-05,-0.0604943540839381,0.00507305897028403,-1.13069579702118,-0.00111758018925966,0
0.16,0.00105438728902412,0.000605322284322629,-0.0524759842308186,-0.0303183337462,0.00121179861253026,-9.84466648644739e-05,-0.0603919885887756,0.00507326289800629,-1.13070182161902,-0.00100593931810324,0
0.17,0.0010539123661906,0.000605310262506871,-0.052466637250881,-0.0303177365356696,0.00121136329949516,-9.86445444097235e-05,-0.0603832509077438,0.0050770250023281,-1.13070712707385,-0.000915756657720689,0
0.18,0.0010535130578375,0.000605308746316486,-0.0524593486791637,-0.0303176793055109,0.00121100093093456,-9.88189590968399e-05,-0.0603766086575671,0.0050803611411856,-1.13071181162264,-0.000836238593630771,0
0.19,0.00105316095401195,0.00060530751639905,-0.0524529316743939,-0.0303176026257007,0.00121068144373607,-9.89728561661829e-05,-0.0603707493996965,0.00508327523625957,-1.13071594809951,-0.000766025287585765,0
0.2,0.00105284988848462,0.000605306431520098,-0.0524472525059684,-0.030317553829622,0.00121039919317217,-9.91088133812651e-05,-0.0603655719934575,0.00508587097157791,-1.13071960062829,-0.000704026611345363,0
0.21,0.00105257537736222,0.000605305473454067,-0.0524422407468522,-0.030317501993664,0.00121015010957842,-9.92287937546784e-05,-0.0603609992672804,0.00508815380486932,-1.13072282582907,-0.000649281473599756,0
0.22,0.00105233311328795,0.000605304627378047,-0.0524378167952293,-0.0303174529523612,0.00120993028501891,-9.93346799544333e-05,-0.0603569614404423,0.00509016595462507,-1.13072567369649,-0.00060094124613709,0
0.23,0.00105211873257806,0.000605303880210827,-0.0524338822790681,-0.0303174288932855,0.00120973576184455,-9.9428372984424e-05,-0.060353378745074,0.00509197207457468,-1.13072818837733,-0.000558256586250762,0
0.24,0.0010519296139875,0.00060530322039804,-0.0524304120201615,-0.03031740182158,0.00120956415993462,-9.9511026573886e-05,-0.0603502162807308,0.00509355992249581,-1.13073040885221,-0.000520565820572586,0
0.25,0.00105176290345491,0.000605302637733098,-0.0524273567391009,-0.0303173524943054,0.00120941288951849,-9.95838892445742e-05,-0.0603474210930516,0.00509493516453598,-1.13073236954223,-0.000487284688220267,0
0.26,0.00106149437549963,0.000610731058685005,-0.0529027896939821,-0.0305892406727224,0.00122052951456235,-0.000100351578672469,-0.0608933719233797,0.00513848792354136,-1.13073404548521,-0.000512733513125933,0
0.27,0.00102137484941844,0.00058821820787675,-0.0509651636565746,-0.0294616608297961,0.00117464180963083,-9.707657889259e-05,-0.0586599994301339,0.00494386814630612,-1.13073591160821,-0.000262936659485763,0
0.28,0.00100865849124552,0.000580462577577499,-0.0501634430553142,-0.0290732052024342,0.0011598329992721,-9.54786349352185e-05,-0.0577691750445021,0.0049340343112182,-1.13073736180973,-0.000169583076776092,0
0.29,0.00105069260623783,0.000605003118051869,-0.0523902896498162,-0.0303023616217684,0.00120831639378152,-9.97758396313672e-05,-0.0603074700354541,0.00509751188040434,-1.13073815395307,-0.000385944718867491,0
0.3,0.00104804216845848,0.000603620769742384,-0.0522608594515568,-0.030233118559112,0.00120532964579899,-9.96537279263362e-05,-0.060160876294459,0.00508997562936231,-1.13073771459379,-0.000378730744013821,0
0.31,0.00105117156428881,0.000605280582826937,-0.0524151097201161,-0.0303162676848989,0.00120886785397866,-9.98236101016216e-05,-0.0603358460325487,0.00509955849567753,-1.13073879337215,-0.000378003313891791,0
0.32,0.00105113204121422,0.000605300195764676,-0.0524156801487645,-0.0303172411023215,0.00120884035352642,-9.98593748531058e-05,-0.060336771787405,0.0051002552669922,-1.13073977274012,-0.000361617347431044,0
0.33,0.00105105881599848,0.000605300177216103,-0.0524143235102248,-0.0303172531597842,0.00120877401033252,-9.98915970971497e-05,-0.0603355451224653,0.00510089629025181,-1.13074063788902,-0.000346935326272119,0
0.34,0.00105099391255934,0.000605299952971007,-0.0524131090599646,-0.0303172284816624,0.00120871511851945,-9.99199658027016e-05,-0.0603344319656014,0.0051014373983493,-1.13074140182427,-0.000333968143794615,0
0.35,0.0010509364033906,0.000605299752464062,-0.0524120216356164,-0.0303172288272939,0.00120866293551658,-9.99450979942333e-05,-0.0603334448477479,0.00510194164045304,-1.13074207638243,-0.000322518018585109,0
0.36,0.00105088581903034,0.000605299575381206,-0.0524110661441243,-0.030317201176734,0.00120861703542213,-9.99672060386319e-05,-0.0603325655693414,0.00510235958899978,-1.13074267202035,-0.000312407500966129,0
0.37,0.00105084088271631,0.000605299419012492,-0.0524102038497945,-0.0303172014653961,0.00120857626104512,-9.99868425497146e-05,-0.0603317828659958,0.00510275890874364,-1.13074319797096,-0.000303479863983034,0
0.38,0.00105080130150706,0.000605299280935841,-0.0524094422153548,-0.0303172017292114,0.00120854034551359,-0.000100004139995701,-0.0603310915356248,0.00510311161296469,-1.1307436623876,-0.000295596716455316,0
0.39,0.00105076666605097,0.000605299159011307,-0.052408780345781,-0.0303171769191718,0.00120850891684983,-0.000100019279532098,-0.0603304800613146,0.0051033958549192,-1.1307440724691,-0.000288635858268339,0
0.4,0.00105073581599082,0.000605299051349972,-0.0524081774627185,-0.0303171771430333,0.00120848092380881,-0.000100032761439769,-0.0603299328625867,0.00510367472333803,-1.13074443457281,-0.000282489386125379,0
0.41,0.00105070845839031,0.000605298956283369,-0.0524076341676076,-0.0303171773507478,0.00120845610009377,-0.000100044715786701,-0.0603294397840039,0.00510392563726503,-1.13074475431166,-0.000277062020878835,0
0.42,0.00105068436041879,0.000605298872338382,-0.0524071522916921,-0.0303171775432556,0.00120843423393534,-0.000100055246418515,-0.0603290024575052,0.00510414811660348,-1.13074503664215,-0.000272269630573939,0
0.43,0.00105066305641499,0.000605298798213615,-0.0524067204095294,-0.0303171777227095,0.00120841490304586,-0.000100064555816785,-0.060328610524774,0.00510434729451908,-1.1307452859411,-0.000268037926276323,0
0.44,0.00105064431354826,0.000605298732760768,-0.0524063373936815,-0.0303171778902115,0.00120839789590239,-0.000100072746798329,-0.0603282629465639,0.00510452388547178,-1.13074550607268,-0.000264301310491769,0
0.45,0.00105062778257263,0.000605298674965082,-0.052405995033202,-0.0303171780473932,0.00120838289575923,-0.000100079971345438,-0.0603279522774886,0.005104681594614,-1.13074570044948,-0.000261001860304541,0
0.46,0.00105061340338222,0.000605298623931386,-0.0524056985047045,-0.0303171531467611,0.00120836984755495,-0.000100086257896056,-0.0603276725157667,0.00510479573739885,-1.13074587208488,-0.000258088429501767,0
0.47,0.00105060048128155,0.000605298578867864,-0.0524054202990062,-0.0303171532874072,0.00120835812217487,-0.00010009190488002,-0.0603274201009187,0.0051049235190066,-1.1307460236391,-0.000255515855719328,0
0.48,0.00105058907258006,0.000605298539076693,-0.0524051696039053,-0.0303171534209555,0.00120834777003201,-0.000100096890519562,-0.0603271926632009,0.00510503850532731,-1.13074615746182,-0.00025324426036818,0
0.49,0.00105057894444711,0.000605298503940766,-0.0524049404221939,-0.0303171535484958,0.00120833858000739,-0.000100101315946698,-0.0603269847666408,0.00510514337724791,-1.13074627562772,-0.000251238430461137,0
0.5,0.00105057009688269,0.000605298472915738,-0.0524047377379687,-0.0303171536700343,0.00120833055168619,-0.000100105182882661,-0.0603268009111634,0.00510523612212122,-1.13074637996817,-0.000249467272752313,0
0.51,4.62189310451397,0.0869836315970175,8.90698469704531,-4.33713789224691,-1.38810611390871,4.40937903091227,-6.94572302118559,7.06413994784474,0.323803492547511,99.5454290693712,5114.38373828282
0.52,4.56222642885799,-0.0178968459411946,11.892237237981,0.941926757819478,-4.54230611122193,0.426245794373253,-11.7440896633954,2.09496790420442,1.47330843803445,215.945473260215,5114.38373828282
0.53,4.47441242753002,0.0572078206296425,16.2850436796703,-2.8053693073497,1.56599715546801,-4.19181252150456,8.5088964269133,-14.1658542345829,-2.77127849092454,336.895314901741,5114.38373828282
0.54,4.50113843285209,0.0583026682331174,14.9510461225296,-2.84607874098683,-0.485822346250469,4.47522323920326,-4.63119504197682,14.4977921367729,0.121086925808299,454.958835870421,5114.38373828282
0.55,4.4317092412496,0.0247758272858636,18.4249785226955,-1.14929049961664,2.94883984371781,-3.30832347522081,13.1900665700073,-12.9159918741487,-2.40799241718545,571.590268844129,5114.38373828282
0.56,4.38875233260863,0.0510772493783975,20.5754809473164,-2.43702708922793,-3.57322526477138,-2.54868929639948,-15.1726319911038,-14.1095979995726,2.20201337902491,687.057225875079,5114.38373828282
0.57,4.46233555364542,0.0560885048573172,16.8990764433457,-2.64612663128983,-4.3700036696749,0.904794142738014,-17.0937427014059,0.620267075536582,1.37920317333866,802.75987445876,5114.38373828282
0.58,4.3918357924803,0.0821362488582955,20.4269437031369,-3.93866093814931,-4.32126941181172,0.788415285257713,-20.7946231694701,-0.5972656666544,1.40903121745666,918.499825745258,5114.38373828282
0.59,4.3849201072839,0.123009696516672,20.7757084483592,-5.97071170535768,-3.3907626404041,-2.78305308054653,-11.7671764783176,-18.1332020759668,2.28612272227611,1034.35439134471,5114.38373828282
0.6,4.34725492894162,0.130704834862605,22.6621534426191,-6.3236684909826,3.2288379539898,-2.91381444809696,21.3665688064376,-9.85046797266142,-2.27489776814164,1149.13353309343,5114.38373828282
0.61,4.35484091466647,0.148248986954427,22.2861860789747,-7.23314514484991,-1.10092375265564,4.21599146643168,-13.2934041951591,19.2945039723046,0.289455839462697,1264.73939044112,5114.38373828282
0.62,4.27609393622842,0.15901488254493,26.2269288755546,-7.70278899831251,2.11087176546565,-3.72216139817716,20.3311858661655,-18.270950655928,-2.58853896071939,1378.45424499381,5114.38373828282
0.63,4.28510606115892,0.140717979141868,25.7798457759961,-6.78348777166607,-4.2817777790072,-0.21980572384461,-25.1187590333916,-8.92547473274643,1.65491351684636,1492.96751277155,5114.38373828282
0.64,4.23516017415283,0.154736279651353,28.2807213725175,-7.46079090388566,-1.7092937424444,3.87799431652639,-19.0562575980711,22.1883223479701,0.45166954619805,1606.91454750323,5114.38373828282
0.65,4.18623169334005,0.223764840705163,30.7309264412733,-10.8805733088467,-0.122046688763409,4.19043089670053,-13.376546065478,29.7295262462469,0.0825186104853169,1720.42838305776,5114.38373828282
0.66,4.17823068479058,0.143849184229812,31.1348322283762,-6.91375463077209,-2.04439478689365,3.64674569972341,-22.0614249616061,23.031962783208,0.545365706911819,1834.17947363144,5114.38373828282
0.67,4.16748140005093,0.199072020224172,31.6762239318925,-9.69314219515352,-4.0722858225297,-0.907754960675058,-27.9954067432658,-17.7086806249921,1.83785265536971,1947.47669451652,5114.38373828282
0.68,4.16313261306241,0.149198624601935,31.8976844175273,-7.18013861845863,2.93624865157087,-2.95505960002082,28.1876846546842,-16.5671692086647,-2.32356474402944,2060.33665246198,5114.38373828282
0.69,4.1130617264709,0.179949870325051,34.4053998712117,-8.69790033162283,-2.25810438922942,3.44247342603144,-27.1675768230372,22.8321654698189,0.624272412656964,2172.91928100976,5114.38373828282
0.7,4.17809867444261,0.228189913267778,31.1577981785432,-11.0165010879829,3.03305024982064,2.88256575847962,13.3674668978619,30.2238732178873,-0.756269670139565,2284.78611099885,5114.38373828282
0.71,4.16742102757159,0.217496343464639,31.6959881224473,-10.5386265743893,2.50925308553926,-3.33441923476609,28.4315946947584,-17.5311932350804,-2.44433144953973,2397.41083991544,5114.38373828282
0.72,4.06081772740426,0.188729223194908,37.0305465816218,-9.10949010857656,-0.87030021073147,-3.97094911552505,2.73938435413509,-38.0360350658719,2.97227947288152,2509.36110550431,5114.38373828282
0.73,4.05252618517925,0.25163004232962,37.4496108476732,-12.242132421233,-1.11392817154122,-3.90454225081675,3.93540623053987,-39.2027516465591,2.92569752316159,2621.05886585119,5114.38373828282
0.74,4.04633799732752,0.254778813302182,37.7635546522278,-12.3285974190113,1.91645096278975,-3.57281109765775,30.383041022843,-25.5920142328831,-2.586369623976,2732.32436048008,5114.38373828282
0.75,3.90890679527507,0.251818044317022,44.6397057010667,-12.1754458630656,3.42320288759947,1.90385048045321,30.9468763951994,34.3981925167957,-0.998902910980808,2843.58559717658,5114.38373828282
0.76,3.99519453152773,0.275787408893721,40.3298599078576,-13.298731350627,-3.89359964120469,0.936760307476842,-41.9805321246099,-6.40224790664724,1.40361420539844,2954.44658375323,5114.38373828282
0.77,3.9834237635687,0.307948870747704,40.9228567391725,-14.9044374506412,3.93734915357997,-0.678070077471123,42.134407945812,11.0233446136281,-1.66418422634735,3065.32893006606,5114.38373828282
0.78,3.89313036031102,0.286306180551215,45.4419282237274,-13.7877262278822,1.07244294061223,-3.75343860620208,28.598875560346,-37.9100850949885,-2.78987590451575,3175.86819377698,5114.38373828282
0.79,3.92697414462903,0.250685026390359,43.7539904837381,-12.1256464865834,-3.60562955806082,-1.57588210380071,-33.3401642965941,-30.8200653900142,2.04658889881733,3286.46051235292,5114.38373828282
0.8,3.88113968919403,0.310257749004162,46.0499244133814,-14.9548516896606,-3.7784823849457,0.939455174294822,-47.873079043092,-7.23957391506935,1.4068749482965,3396.08536879973,5114.38373828282
0.81,3.90061832739893,0.315534454198342,45.08002183219,-15.2389348237922,-3.90103718292526,0.310313108426283,-45.0595838003571,-15.2992617695464,1.57213484910868,3505.82395566355,5114.38373828282
0.82,3.88924507909139,0.3119595467427,45.652640532881,-15.0361450916273,-2.45705272934235,-3.03091371194757,-13.4215711780445,-46.1531220390734,2.54042245781353,3615.21899439349,5114.38373828282
0.83,3.75913010118611,0.32921613518062,48,-15.8642389015144,3.32978082332003,-1.77538785902037,50.3784516155142,-4.20543561924498,-1.9732829845457,3724.32798846817,5114.38373828282
0.84,3.83338771720991,0.219902082646097,48,-10.498620207399,-3.82161209862358,-0.372154919437833,-45.814832692247,-17.7544960964998,1.72517404074922,3833.41557896988,5114.38373828282
0.85,3.44347100368865,0.328815417965399,48,-15.9973703785049,3.33069770665873,0.933844162156919,39.0133378454822,32.2160725288067,-1.20223910561033,3938.05395809624,5114.38373828282
0.86,3.17647274028513,0.300165456311314,48,-14.456870928401,-1.07415165415002,-3.00437624055708,2.17463925424189,-50.0826522975207,2.89244298187408,4034.98151264855,5114.38373828282
0.87,2.9239803692811,0.278331425097287,48,-13.3988215962123,-2.82490830107018,0.804377195526286,-49.6345979733162,-4.46487448809054,1.38829673602326,4124.73509346025,5114.38373828282
0.88,2.63491495358059,0.239033300969231,48,-11.6580133363827,-1.09638568152896,2.40787295530996,-33.8865380563931,35.9390012869571,0.517750579405945,4208.11903052989,5114.38373828282
0.89,2.51410231486497,0.189515706470926,48,-9.07371268929459,-2.42252741748071,0.698561066881629,-48.8415821961018,0.912200936909972,1.36529070794211,4285.15900228812,5114.38373828282
0.9,2.25899805732122,0.207803548750888,48,-10.1544086289507,-2.2669671710204,0.0843468041497042,-47.3750628093996,-12.7559961747075,1.62533768199633,4356.3425158212,5114.38373828282
0.91,2.0341790945743,0.270499111050266,48,-13.1419362307973,-1.59036234830515,-1.29684307415177,-23.3014445000713,-43.9744604526814,2.38708194228453,4421.96721975915,5114.38373828282
0.92,1.87215602740436,0.200379192070011,48,-9.72445960656364,0.669913427966328,-1.75964087546053,30.423642137996,-38.3792536886642,-2.67119977760282,4482.85657792481,5114.38373828282
0.93,1.68263018232655,0.200527109699783,48,-9.80305913150722,1.53729787098964,0.712860931775293,35.7030462013878,33.5468696047395,-1.01798419135371,4538.9122993795,5114.38373828282
0.94,1.56383946014988,0.203157930279849,48,-9.94999103604223,-1.41246684651268,-0.701287679386989,-34.3483614602492,-34.9741674184445,2.16082503255115,4590.65931588688,5114.38373828282
0.95,1.38988078735826,0.229025779092265,48,-11.2306167153111,1.34487287164607,-0.418972993958921,49.0916910168773,4.48693936995771,-1.70948716986813,4638.44249070972,5114.38373828282
0.96,1.26626830541155,0.231808117118571,48,-11.3271058668764,-0.975304301102956,0.840209464777665,-47.1400338072065,14.4955351737994,1.04073179998073,4682.69108154278,5114.38373828282
0.97,1.00860272539811,0.0839215141097674,48,-4.1740589655969,0.778852700894814,-0.646305460691633,41.7428279303792,-24.0615686234924,-2.180441491734,4723.59584705886,5114.38373828282
0.98,0.993262119293603,0.141960564637548,48,-7.00763201251944,-0.858958307044446,0.518568285084203,-46.925276040896,12.2933061016392,1.16960989714508,4761.3504224301,5114.38373828282
0.99,0.807691107149009,0.183581631672114,48,-8.98685413709777,0.461641232852446,0.687716883743202,8.86772547600289,48.0221510572332,-0.367685458798519,4796.05382221022,5114.38373828282
