t,iq,id,vq,vd,ia,ib,va,vb,theta_e,omega,r
0,0,0,0,0,0,0,0,0,0,0,0
0.01,0.000571585653425839,0.000327291951397759,-0.0281507398344804,-0.0163831899026204,0.000607161596382502,-0.000255313486777038,-0.0299349831635942,0.0128362707827957,-1.44882072784357,-0.00111267837757859,0
0.02,0.000636634929935658,0.000364400686989746,-0.0314032435960912,-0.0182407440070324,0.000676240318304293,-0.000284237447554835,-0.0333892159083911,0.0142845619921779,-1.44882915700842,-0.00121273893391586,0
0.03,0.000662475608323768,0.000379170444609404,-0.0326761461373019,-0.0189800682051792,0.000703683398622081,-0.000295759754180512,-0.0347424817536892,0.0148638311701303,-1.44883793415965,-0.00123382449637863,0
0.04,0.000647828544003425,0.000370882669852165,-0.0319650523818744,-0.0185652018282729,0.000688134444299658,-0.000289321212133968,-0.0339860768713752,0.0145388401048178,-1.44884631342579,-0.00117596208646164,0
0.05,0.000662815951193239,0.000379488608797614,-0.0327059021887408,-0.018995997559207,0.000704054953245806,-0.000296045962940543,-0.034773705097496,0.0148766056290155,-1.44885471212731,-0.00117681930265814,0
0.06,0.000663464597320499,0.000379913312613466,-0.0327441132091584,-0.0190172499017866,0.000704747996357765,-0.000296394430832135,-0.0348140945348073,0.0148933396322882,-1.44886296877022,-0.00114972054260919,0
0.07,0.00068065116360152,0.000389848029109092,-0.0335923546010473,-0.0195145560612019,0.000723012907344845,-0.000304170722005096,-0.0357164042472327,0.0152840653478239,-1.44887094009702,-0.00115640948797686,0
0.08,0.000664153961927918,0.000380423577915409,-0.0327902501115286,-0.0190427880791595,0.000705489586613538,-0.000296828278569228,-0.034862757965204,0.0149136309215424,-1.44887887170492,-0.00109641567197133,0
0.09,0.000663212821411384,0.000379955755947328,-0.0327501004780255,-0.0190193728967731,0.000704496266957235,-0.00029648378169012,-0.0348199446275808,0.0148955390248047,-1.44888652986569,-0.00106822103306277,0
0.1,0.000663063836405328,0.000379931378089606,-0.0327486090750916,-0.0190181545387382,0.000704343210734516,-0.0002964829585285,-0.0348182049838838,0.0148947708982969,-1.44889399211421,-0.00104227119122919,0
0.11,0.000662957576230909,0.000379928984137251,-0.0327490640829785,-0.0190180347570409,0.000704235291038331,-0.000296498626852945,-0.0348185336929663,0.0148948499758412,-1.44890126695279,-0.00101705042273741,0
0.12,0.000662855972689142,0.000379927708238505,-0.0327496042329079,-0.0190179688283193,0.000704132183297576,-0.000296514708676687,-0.0348189561796047,0.014894965804922,-1.4489083592652,-0.000992466370882963,0
0.13,0.000694089717705454,0.000397872906368021,-0.0342854413706323,-0.0199162469717619,0.000737313876443043,-0.000310534431988959,-0.0364525057896617,0.0156001027263913,-1.44891549505373,-0.0010298931207603,0
0.14,0.000723818785082116,0.000415117736699583,-0.0358099113733485,-0.0207794651574804,0.000768916763809895,-0.000324042249239899,-0.0380705030312273,0.0162718383640979,-1.44892245690134,-0.00106493304294581,0
0.15,0.00066566031139577,0.000381666367732869,-0.0329032880890558,-0.0191050094159102,0.000707120876466028,-0.000297914303939624,-0.0349817695127508,0.0149634071524569,-1.44892929553445,-0.000926053237433692,0
0.16,0.000662622140206215,0.000380009258040421,-0.0327594112038725,-0.0190220511899024,0.000703901891184893,-0.000296643328720244,-0.0348287794389142,0.0148987776911778,-1.44893569874962,-0.000898012815676936,0
0.17,0.000662383390047981,0.000379926203260795,-0.0327525555018955,-0.0190179009061526,0.000703652967954507,-0.000296594295333595,-0.0348213772849219,0.0148957084679484,-1.44894192792588,-0.000876124191642327,0
0.18,0.000662289004109444,0.000379921100206446,-0.032752650131703,-0.0190176342704168,0.000703556860565877,-0.000296604975172437,-0.0348213483537489,0.014895643749766,-1.4489480001405,-0.000855061227946751,0
0.19,0.000662203808351925,0.000379919881100686,-0.0327530754177673,-0.0190175769508865,0.000703470392379578,-0.000296618284831996,-0.0348216753398471,0.0148957413018327,-1.4489539199766,-0.000834540739746286,0
0.2,0.000662121231944951,0.000379918878471558,-0.0327535127975765,-0.0190175298244744,0.000703386594360119,-0.000296631385537436,-0.0348220177813066,0.0148958423341598,-1.44895969128961,-0.000814535796601873,0
0.21,0.000662040634597102,0.000379917910150724,-0.0327539335753452,-0.0190174827059928,0.000703304807724894,-0.000296644176990004,-0.034822345901599,0.0148959403543465,-1.44896531780759,-0.000795032788137487,0
0.22,0.000661962132723698,0.00037991696652943,-0.0327543464800192,-0.0190174355946621,0.000703225145790074,-0.000296656638128258,-0.0348226683107751,0.0148960344269207,-1.44897080316332,-0.000776019087150306,0
0.23,0.000661885609909417,0.000379916046557819,-0.032754748530858,-0.0190173884903873,0.000703147491833936,-0.000296668784614979,-0.0348229819974429,0.0148961250370635,-1.44897615089823,-0.000757482415804029,0
0.24,0.0006618110079466,0.000379915149623237,-0.0327551395666189,-0.0190173413929953,0.000703071786989755,-0.000296680625406468,-0.0348232867501119,0.0148962123241412,-1.4489813644654,-0.000739410805949709,0
0.25,0.000661738268627586,0.00037991427514892,-0.0327555193806099,-0.0190172943019748,0.000702997972420503,-0.000296692169429573,-0.0348235823134335,0.0148962964296819,-1.44898644723077,-0.000721792589787312,0
0.26,0.000668391246084879,0.000383761994546118,-0.0330853012231948,-0.019209910762299,0.000710067709895398,-0.000299706479183913,-0.0351742511006458,0.0150475874489483,-1.44899137130686,-0.000718062060354699,0
0.27,0.000647344030077425,0.000371695257715471,-0.032057918560332,-0.0186058843305498,0.000687708845532119,-0.000290289858007359,-0.0340810168788577,0.0145730354643668,-1.4489963034263,-0.000659354160965696,0
0.28,0.000645645433085934,0.000370720542874385,-0.0319195273306748,-0.0185570864106049,0.000685903039903684,-0.000289531977551162,-0.0339376534226663,0.0145415735471557,-1.44900102021226,-0.000639768763212768,0
0.29,0.00066065885234019,0.000379455962562161,-0.0327174358322618,-0.018994361497921,0.000701865207261711,-0.000296381810398189,-0.0347827103750646,0.0148788250583251,-1.44900553765612,-0.000654020946261529,0
0.3,0.000656555691453611,0.000377178025858253,-0.0325196083897527,-0.0188803382078091,0.000697514477765241,-0.000294622118107825,-0.0345724345965409,0.0147898230798084,-1.44900966410879,-0.000631695373202447,0
0.31,0.000661097554675052,0.000379774266423878,-0.0327455071277743,-0.0190102892536353,0.000702336815961456,-0.00029665041240533,-0.0348123825621652,0.014891519563411,-1.4490140148311,-0.000625747690095186,0
0.32,0.000661270102404296,0.000379902101383603,-0.0327572619418544,-0.0190166932355659,0.000702522350406084,-0.000296759333719053,-0.0348247647856164,0.0148965965632882,-1.4490182773217,-0.000611436269805982,0
0.33,0.000661222444167913,0.000379907751015606,-0.0327581448602917,-0.019016980579938,0.000702474497851737,-0.000296773650820072,-0.0348256141507565,0.0148969192817919,-1.44902243393309,-0.000597051870133253,0
0.34,0.000661165188094178,0.00037990736865856,-0.032758476045634,-0.0190169495325725,0.000702416416656852,-0.000296783072832042,-0.0348258787441591,0.0148969893620795,-1.44902648631452,-0.000583006430899808,0
0.35,0.000661108623745225,0.000379906704262706,-0.032758761299028,-0.0190169182469024,0.000702359017916111,-0.000296792059000865,-0.0348260992312972,0.0148970612466992,-1.4490304370295,-0.000569312261149631,0
0.36,0.000661053514587196,0.000379906042074673,-0.0327590402228356,-0.019016886962492,0.000702303093218823,-0.000296800800551818,-0.0348263149124188,0.014897130451419,-1.44903428862619,-0.000555961604252448,0
0.37,0.000660999802412432,0.000379905395762108,-0.0327593118832536,-0.0190168556792773,0.000702248585714892,-0.000296809319900627,-0.0348265248235954,0.0148971971760541,-1.44903804359114,-0.000542945895515065,0
0.38,0.000660947370805611,0.0003799047656072,-0.032759572390689,-0.0190168243974227,0.000702195379169707,-0.000296817633200291,-0.034826725067942,0.0148972619774636,-1.44904170434867,-0.000530256734235918,0
0.39,0.000660896277974393,0.000379904151239355,-0.0327598265868941,-0.0190167931164763,0.000702143530617395,-0.000296825734702098,-0.0348269204161096,0.0148973243492986,-1.44904527326222,-0.000517885927893622,0
0.4,0.000660846523918778,0.000379903552264861,-0.0327600762438383,-0.0190167618362922,0.000702093039329796,-0.000296833625661988,-0.0348271125926065,0.0148973841563635,-1.44904875263661,-0.000505825489376654,0
0.41,0.000660797992223445,0.000379902968299046,-0.0327603173812644,-0.0190167305570972,0.000702043789043591,-0.000296841321440057,-0.0348272976132191,0.0148974419603727,-1.44905214471752,-0.000494067631951312,0
0.42,0.000660750501518897,0.00037990239896602,-0.0327605426800059,-0.0190167150322387,0.000701995599039099,-0.000296848845251834,-0.0348274700934147,0.0148975143630796,-1.44905545169555,-0.000482604764244327,0
0.43,0.000660704414544426,0.000379901843899824,-0.0327607719356187,-0.0190166837534158,0.00070194882869587,-0.000296856154205157,-0.0348276458240056,0.014897567759627,-1.44905867570556,-0.000471429485338877,0
0.44,0.000660659433514915,0.000379901302742996,-0.0327609919629683,-0.0190166524753239,0.000701903181774467,-0.000296863285592801,-0.0348278135997462,0.0148976194617212,-1.44906181882931,-0.000460534579999566,0
0.45,0.000660615674845685,0.000379900775147646,-0.0327612101731578,-0.0190166211974999,0.000701858773186931,-0.000296870226378695,-0.0348279807466114,0.0148976686395115,-1.44906488309603,-0.00044991301400993,0
0.46,0.000660572782545303,0.000379900260774371,-0.0327614103569862,-0.019016605669672,0.000701815248950459,-0.000296877020863328,-0.0348281330583419,0.0148977329632759,-1.44906787048396,-0.000439557929634103,0
0.47,0.000660531235766291,0.000379899759291795,-0.0327616179943495,-0.0190165743917803,0.000701773084061525,-0.00029688361190824,-0.0348282919725112,0.0148977781391491,-1.44907078292232,-0.000429462641186741,0
0.48,0.000660490438941254,0.000379899270377642,-0.0327618048746348,-0.0190165588619462,0.00070173168676488,-0.000296890072849181,-0.0348284332839606,0.0148978389230859,-1.44907362229116,-0.0004196206307195,0
0.49,0.000660450929429477,0.000379898793716889,-0.0327619992061149,-0.0190165275840241,0.000701691589863619,-0.000296896339429226,-0.0348285811405572,0.0148978806905898,-1.44907639042361,-0.000410025543809456,0
0.5,0.000660412228079784,0.000379898329003203,-0.0327621785763937,-0.0190165120518518,0.000701652317186084,-0.000296902470794922,-0.0348287170931183,0.0148979374860169,-1.44907908910739,-0.000400671185458577,0
0.51,4.6662043414507,-0.00329148684623116,6.69092281143144,0.169191458526998,-0.37340990904969,4.65124056891089,-0.362073478485023,6.68326092669962,0.0794045870317455,24.639831569239,3543.57062380575
0.52,4.67428123410219,-0.0197235444486388,6.28828935946146,0.997021009633781,-1.67660567414341,4.36328860919326,-1.29854277941197,6.23301055766829,0.362638333792175,52.651609864061,3543.57062380575
0.53,4.63821068878369,-0.00562036036495095,8.09308428219585,0.296537908712117,-3.4953339230615,3.04888024499052,-5.8972585261481,5.55052157961775,0.852301999079633,81.0550789790885,3543.57062380575
0.54,4.6812143876632,-0.011120763108559,5.94420819405839,0.577964950723711,-4.68076764169732,0.065620873785759,-5.93393472251714,0.675331953546821,1.55440237989785,110.831749818844,3543.57062380575
0.55,4.65494117145384,0.00228036106375207,7.25919061155452,-0.0908133354857866,-2.84925717867306,-3.68106180870719,-4.368645862621,-5.79819184951548,2.48337792926192,142.599102469168,3543.57062380575
0.56,4.66070352529962,0.00500838491840083,6.97233882151702,-0.221105347352773,2.21420389939811,-4.10115636455744,3.51345029486534,-6.02644698327066,-2.64546418628679,171.874100680917,3543.57062380575
0.57,4.62714985312124,-0.00552781464812502,8.65138589818611,0.314025070832016,4.43513125636134,1.31915012747655,8.38446865490368,2.15540601265335,-1.28289177016022,200.05145121168,3543.57062380575
0.58,4.68991810364184,0.0366974511525573,5.51439901907711,-1.79917333075292,-1.33209519100155,4.4969101529716,-3.32857676079367,4.75038924333527,0.295814084161162,231.043566399605,3543.57062380575
0.59,4.60834440390157,0.019825618334409,9.59451656010758,-0.946119880638486,-3.99775856619498,-2.29241306193451,-7.82842968340433,-5.62721774438417,2.09574792372185,259.607675276773,3543.57062380575
0.6,4.66522884952851,0.0340458647635382,6.75176869914098,-1.65732256591885,3.81521314194495,-2.68508249797118,6.49357832540782,-2.48325173633232,-2.17675910713623,289.777887647026,3543.57062380575
0.61,4.63176167834456,0.0539347614467263,8.42660224467979,-2.64220060038181,-0.198293457115501,4.62782939490413,-3.09701785511389,8.27026781959364,0.0544658743362195,318.471940709505,3543.57062380575
0.62,4.63992931656336,0.0419681937771865,8.01978265839604,-2.04410597701476,-2.81419340005469,-3.68931171075063,-3.16966502102027,-7.64516231271109,2.49899683521657,348.760908340559,3543.57062380575
0.63,4.60483190240817,0.0675146098617593,9.77619528285772,-3.3100025453075,4.18196010968474,1.92879359004183,7.38628902978917,7.2092194741822,-1.12399246378739,377.442872146696,3543.57062380575
0.64,4.60176182150387,0.0437031800676384,9.93126823186904,-2.1149956656712,-4.53297443198063,-0.793892076297859,-9.38103409765147,-3.88580681684509,1.75367180172202,406.837293305167,3543.57062380575
0.65,4.58467131965061,0.00441142743039702,10.7874389064279,-0.148203791918775,4.54454002660786,0.60529870021165,10.6719240421739,1.58140436382485,-1.43742094694734,436.676746618602,3543.57062380575
0.66,4.58983059933886,0.0454036558502411,10.5311276308174,-2.19882824790137,-4.39995378564562,-1.3072922805458,-9.41774193190929,-5.20054148568129,1.86949614402006,466.233542303571,3543.57062380575
0.67,4.58355574505436,0.0253902986254331,10.8465473522013,-1.19354436798567,3.58183445901217,2.86008563569662,7.68841756807321,7.74340835296955,-0.891432877168589,495.500229890112,3543.57062380575
0.68,4.57909645339338,0.0726207201727731,11.071186167779,-3.5533459469634,-1.40244589836057,-4.35964948139754,0.176650354928618,-11.6261010331291,2.84621732010908,524.712793460264,3543.57062380575
0.69,4.59976187586207,0.0252204123240642,10.03961437111,-1.17553168686583,-2.24746931127819,4.01339346173468,-5.97578967518169,8.15264798856273,0.515965363811749,554.01042876364,3543.57062380575
0.7,4.59731700701804,0.10954871622323,10.1636296744768,-5.39303433343315,4.59230013342951,-0.241047855719081,10.3137802803853,5.10001213816496,-1.59941344178739,583.378611635436,3543.57062380575
0.71,4.56088814722794,0.0255152326228225,11.98684939165,-1.18268535049905,-1.62362096810901,-4.26218332202369,-3.09682605208019,-11.640144817808,2.78322191015985,612.753631657535,3543.57062380575
0.72,4.55295164429051,0.0801811351318569,12.3855219418584,-3.91241163873734,-4.01514832213186,2.14811117984159,-12.8065969144611,2.16776245785811,1.09714998161069,641.943157948262,3543.57062380575
0.73,4.58532956762111,0.0418711937501133,10.76844980864,-1.98272774836508,1.71668966930316,4.25205562285752,2.0948155026929,10.7472074798532,-0.374587917231583,670.945265385768,3543.57062380575
0.74,4.6222245313792,0.0612940772501858,8.92556336104074,-2.94199174996278,4.60969606289393,-0.345570239068467,9.08966544038299,2.38725343244261,-1.63236235965635,699.964693475441,3543.57062380575
0.75,4.56036241392676,0.0408554815837859,12.0204850884822,-1.93394512864596,2.0123393129397,-4.09256215668482,7.12823529930067,-9.87018069950294,-2.67564326596187,729.629765904888,3543.57062380575
0.76,4.5468874053115,0.0407123049758832,12.696142557563,-1.91496358971055,-1.65022413048051,-4.2370512019017,-2.71102629587939,-12.5502772007207,2.77914627972342,758.735725011261,3543.57062380575
0.77,4.58136496920102,0.073486589212384,10.9741551131296,-3.5377625197531,-3.8392967297696,-2.5008210412976,-7.11998482535371,-9.06938036361532,2.16417634073215,787.702201278138,3543.57062380575
0.78,4.61755482735529,0.0344480373857936,9.16663354300621,-1.59477289616338,-4.53856341895522,-0.851141200408812,-8.69107920591688,-3.32198936461019,1.76363854693234,817.217551092224,3543.57062380575
0.79,4.560649187846,0.0238960370429361,12.013848476979,-1.04608381854125,-4.56071103881013,-0.00261833193966541,-12.0075638978521,-1.11591031101199,1.57660999792383,846.058274092919,3543.57062380575
0.8,4.53575467822653,0.0621284151373611,13.2606082443052,-2.97047575211593,-4.53534948104206,-0.0868074065551749,-13.1559442728619,-3.40420144706435,1.60363079505064,875.431605910451,3543.57062380575
0.81,4.50039759553152,0.0564357738120153,15.0304420939389,-2.69096191998805,-4.34893639181616,-1.15910127873656,-13.7482033905892,-6.64397239045038,1.84380618645131,904.614569770368,3543.57062380575
0.82,4.55720747922885,0.110877545923432,12.1920467485506,-5.38786498565726,-3.47875622581056,-2.94596146619633,-5.52880379401735,-12.1287848373105,2.29778026949423,933.422891029293,3543.57062380575
0.83,4.53666150159502,0.0565436545431761,13.2214350706095,-2.67555373021891,-0.853018678807702,-4.45610299460511,0.310129468544244,-13.4858723411714,2.96491680312108,962.706534752505,3543.57062380575
0.84,4.52097163509971,0.0655988702842105,14.0080573168626,-3.13471737693223,2.87409350360761,-3.4904260871245,11.4510314535987,-8.65598067664441,-2.43822340723357,991.914956199357,3543.57062380575
0.85,4.55480163673943,0.0298364914281453,12.3186885546881,-1.34192652081011,4.44585714930775,0.990687828841193,11.7055345558767,4.06587201665701,-1.34499406911832,1020.94064076426,3543.57062380575
0.86,4.49157467856638,0.065736148286032,15.4821757619604,-3.1259481085549,0.240069838252322,4.48563605379345,-2.52250316538367,15.5918663309509,-0.038834284991482,1049.87365033652,3543.57062380575
0.87,4.49198577208276,0.0952235888329571,15.4637853803106,-4.58199552914459,-4.46505228794757,0.500311677215654,-15.8142581472378,-3.16742491149083,1.48040657066483,1078.84590859918,3543.57062380575
0.88,4.54143517582316,0.120772604132844,12.9935470192986,-5.8542615585705,0.199991159782764,-4.53863669113553,6.75654744768191,-12.5480559899174,-3.07096976918172,1107.84480845091,3543.57062380575
0.89,4.52534970941858,0.0970490171185818,13.800059221085,-4.68077415650864,4.12785031847962,1.85716457334459,10.4491086642343,10.1571358823596,-1.12657420249947,1136.90567422067,3543.57062380575
0.9,4.52974018104724,0.122545251410771,13.5827914482335,-5.96427862103694,-2.88260053606194,-3.49630913906831,-3.65116188690639,-14.3782425863235,2.47915518471861,1165.99288566327,3543.57062380575
0.91,4.53164977541172,0.0875519513729639,13.4895774954036,-4.20488759771477,4.50156783801523,0.528584932555951,12.7936861924259,5.99761405257515,-1.43459147041783,1194.98567649044,3543.57062380575
0.92,4.50680216473396,0.0804350460172278,14.7342350334954,-3.83366202977025,-4.07529190396899,1.92606631405133,-15.0076059345582,2.56250086708243,1.14713685710275,1223.8273033643,3543.57062380575
0.93,4.50276642494932,0.119219429675974,14.9383661011052,-5.7564791554645,3.14485022361206,-3.22475360626363,14.7224649407151,-6.28815236038071,-2.34226756937307,1252.61199158856,3543.57062380575
0.94,4.4673394207652,0.0743395078283089,16.7120502754272,-3.53866272655471,-2.69303886284714,3.56513527736914,-13.0813232979089,10.98607022899,0.663575803795037,1281.7591098348,3543.57062380575
0.95,4.53938552826198,0.112864697137679,13.112100888134,-5.44606106182408,2.97777560299249,-3.42806240787372,12.8635490705591,-6.00964858365604,-2.40151393971717,1310.63357748311,3543.57062380575
0.96,4.47711202648375,0.14069336648858,16.2281421765408,-6.81713901727358,-3.76184365852257,2.4316371048931,-17.4178573922204,2.53854815733894,1.02837420920559,1339.40698389135,3543.57062380575
0.97,4.51203936961973,0.122828613906198,14.4842087231371,-5.94455335535172,4.50283986768557,-0.313080289021675,14.7221105219007,5.32817780399306,-1.6129984312205,1368.46656824821,3543.57062380575
