t,iq,id,vq,vd,ia,ib,va,vb,theta_e,omega,r
0,0,0,0,0,0,0,0,0,0,0,0
0.01,0.000557299570995062,0.000306635583124347,-0.0266048775043711,-0.0153384918577492,0.000302457793819176,-0.000559577944193055,-0.0140599125141682,0.0273021555849857,-2.143054533719,-0.00229195596033886,0
0.02,0.000715277159753833,0.000387135299390851,-0.0343284751366678,-0.0193652317872018,0.000391660074402723,-0.000712809610919219,-0.0183717349414233,0.0348702704695985,-2.14307304361753,-0.00267438747601168,0
0.03,0.000777154015081874,0.00041971175519781,-0.0374224029652035,-0.0209947735431353,0.000426021485269793,-0.000773713134629123,-0.0200895024824477,0.0379160737659549,-2.14309233023439,-0.00261585193186963,0
0.04,0.000767690992580753,0.000416038669793263,-0.0371358450566277,-0.0208110458324422,0.000420042174672583,-0.000765507809463298,-0.0199474497833339,0.0376067794932143,-2.14310975384276,-0.00227219126478594,0
0.05,0.000781828271116718,0.000426544545700773,-0.0379453482360471,-0.0213365631258749,0.000426224720286042,-0.000782002674420951,-0.0203427493105233,0.0384872826953077,-2.14312536507084,-0.00206488816277978,0
0.06,0.000781654864557139,0.000429027668931424,-0.0380645828090099,-0.0214607726335237,0.000424723202566374,-0.000784002084943869,-0.020375174309279,0.0386565582834047,-2.14313927670754,-0.00182333742304738,0
0.07,0.000787803209333246,0.000435324849188647,-0.0384640240603807,-0.0217757698829754,0.00042647165506836,-0.000792630776831264,-0.0205398865161201,0.0391379401964226,-2.14315124308024,-0.00164357839035144,0
0.08,0.000776738872807136,0.000431100078999752,-0.0380413019008962,-0.0215644349386284,0.000419450398012179,-0.000783091257932763,-0.0202985779145896,0.0387315535343317,-2.14316204480271,-0.0014074024331005,0
0.09,0.000771092482729059,0.000430097701556968,-0.0378600455964859,-0.0215142993731656,0.000415239600078027,-0.000779194278940041,-0.0201730064249567,0.0385914231645432,-2.14317132121417,-0.00122172937697577,0
0.1,0.000767265558368765,0.000429858365171906,-0.0377531641225376,-0.0215023284211902,0.000412146014720741,-0.00077692362154655,-0.0200893344838882,0.0385236313032721,-2.143179352314,-0.00106570412133578,0
0.11,0.000764233788977545,0.000429799906583543,-0.0376740588490148,-0.0214994040913473,0.00040962373044177,-0.000775235218093944,-0.0200241532932019,0.038478466332904,-2.14318632306614,-0.00093156845814706,0
0.12,0.000761679120017842,0.000429784494717441,-0.0376090613575808,-0.0214986346102691,0.000407479915020015,-0.000773841012499313,-0.0199696998298454,0.0384427350094919,-2.14319237832594,-0.00081540053899963,0
0.13,0.000787351537475279,0.000445274125362449,-0.0388707850202112,-0.0222734472616741,0.000420665876449176,-0.000800769449138281,-0.0206104130980636,0.0397775722352838,-2.14319798844096,-0.000832510858475343,0
0.14,0.000801246112448656,0.000454237464886603,-0.0396819285786684,-0.022721814219981,0.000427486487155737,-0.00081583228087637,-0.0210491949118881,0.0405939366252057,-2.14320312357978,-0.000805446299239653,0
0.15,0.000767271372894055,0.000435564784371672,-0.0380131424142772,-0.0217877634231524,0.000409037923943078,-0.000781735260701349,-0.0201521699791906,0.0389049569633638,-2.14320771504898,-0.000574833326749058,0
0.16,0.000757111204586136,0.000431144113282661,-0.0375657311466772,-0.0215666417506813,0.00040288915053585,-0.000772517284537157,-0.0198957173503083,0.0384768063137172,-2.14321116763573,-0.000469877284500793,0
0.17,0.00075355053362249,0.000430097005672095,-0.0374239814777995,-0.0215142618283593,0.000400461050131457,-0.000769709548036435,-0.019804826054768,0.0383560518902853,-2.14321402168836,-0.000404639507384906,0
0.18,0.000751889676987088,0.000429848518086719,-0.0373680120102157,-0.0215018392134656,0.000399197665857084,-0.000768602015633157,-0.0197644138688413,0.0383153409952007,-2.14321646204182,-0.000355013884687099,0
0.19,0.000750836348986174,0.000429789147568814,-0.0373376576084817,-0.0214988716595119,0.000398342785023239,-0.000767982395596894,-0.0197404248163745,0.0382964461326301,-2.14321857185032,-0.000313812165997696,0
0.2,0.000750027263987118,0.000429774613449843,-0.0373162599476075,-0.0214981409512731,0.000397669142908269,-0.000767532649382791,-0.0197227638522136,0.0382842775414143,-2.14322040229741,-0.000278531473837029,0
0.21,0.000749353047015559,0.00042977075494656,-0.0372990167533045,-0.0214979408169884,0.000397103272978035,-0.000767164833310919,-0.0197083169453286,0.0382748005000222,-2.14322199212706,-0.000248015375641696,0
0.22,0.000748774900677754,0.000429769477986035,-0.0372843927196648,-0.0214978847688917,0.000396616921646188,-0.000766851141720002,-0.0196960016366865,0.0382668591543438,-2.14322337344698,-0.000221536062609981,0
0.23,0.000748274636239197,0.000429768859578746,-0.0372717823114602,-0.0214978575122658,0.000396195819829211,-0.000766580117308281,-0.0196853703101922,0.0382600291432346,-2.14322457373361,-0.000198536474780921,0
0.24,0.000747840700763164,0.000429768438361845,-0.037260859079328,-0.0214978194381895,0.0003958304876705,-0.000766345124183911,-0.019676169095061,0.0382541008215996,-2.14322561674829,-0.000178553048333922,0
0.25,0.000747463515116806,0.000429768099744901,-0.0372513588956862,-0.0214978182506006,0.000395512919126376,-0.00076614088573398,-0.0196681493347585,0.0382489716313617,-2.14322652310786,-0.00016118853431627,0
0.26,0.000751888616429945,0.000432517455371706,-0.0374662503901015,-0.0216353416665789,0.000397742812290159,-0.000770849204442521,-0.0197742647633748,0.0384809872585325,-2.14322720892177,-0.000169004627075675,0
0.27,0.000741465272559519,0.00042641909818564,-0.0369833307062156,-0.0213302889561889,0.000392283720561229,-0.000760077285736034,-0.0195335336088736,0.0379629956909466,-2.14322813953946,-0.000106526859088176,0
0.28,0.000740497628649643,0.000426096244348535,-0.0368372392483848,-0.0213141310776818,0.000391644760217969,-0.000759281982716224,-0.0194194608163707,0.037870290738794,-2.14322873876137,-9.1850577681471e-05,0
0.29,0.000744732717004928,0.000428898209153066,-0.0371464580509535,-0.0214542977445506,0.000393686649604901,-0.000763931486139377,-0.0196034454222236,0.0381556177386892,-2.14322913479877,-0.000103837148809698,0
0.3,0.000733427175730904,0.000423167842549361,-0.0366109493521827,-0.0211676494489387,0.000387287595130208,-0.000752990546903977,-0.0193085859520144,0.037624586432211,-2.1432288634902,-5.82372220709912e-05,0
0.31,0.00074282693679084,0.000428205066309249,-0.0370564973282059,-0.0214196266636497,0.000392460145780115,-0.00076231651615928,-0.0195466066634039,0.0380777437434473,-2.14322912557242,-9.55187868503643e-05,0
0.32,0.000745253021293685,0.000429397264840646,-0.0371744056230288,-0.0214792691221101,0.00039385339320049,-0.000764632971735103,-0.0196133968576766,0.0381917543345261,-2.14322951266329,-9.96121743902134e-05,0
0.33,0.00074579906453244,0.000429679355192268,-0.0372036093074133,-0.0214933682236365,0.000394159296245185,-0.00076516602258556,-0.0196302933505529,0.0382194323095819,-2.14322989239292,-9.54686172859259e-05,0
0.34,0.0007458483723704,0.00042974603499406,-0.0372090455126027,-0.0214967101953265,0.000394164363077832,-0.000765248916392658,-0.0196330396032935,0.0382251929114334,-2.14323023416731,-8.97727989743729e-05,0
0.35,0.000745775497788217,0.000429761738639854,-0.0372083402601214,-0.0214975021141554,0.000394094369723864,-0.000765222760280929,-0.0196320063368307,0.0382254824593716,-2.14323053437328,-8.4253193416437e-05,0
0.36,0.000745680941094449,0.000429765386526235,-0.0372062612183659,-0.0214976710760741,0.000394012710525337,-0.000765174710319169,-0.0196301571972824,0.0382245034494149,-2.14323079612085,-7.93016520586826e-05,0
0.37,0.000745590137221906,0.000429766189841537,-0.0372040468925909,-0.0214977152119607,0.00039393577282041,-0.000765126288625531,-0.0196282632580868,0.0382233455625212,-2.14323102381308,-7.4956642821392e-05,0
0.38,0.000745508762930502,0.000429766327714178,-0.0372020040812575,-0.0214977258408921,0.000393867144728589,-0.00076508240363143,-0.0196265327796098,0.0382222518311384,-2.14323122173875,-7.11694157772718e-05,0
0.39,0.000745437458548772,0.000429766314919308,-0.037200198819672,-0.0214977276947151,0.000393807082702129,-0.000765043836430706,-0.0196250077259429,0.0382212788903763,-2.14323139375079,-6.78752496644048e-05,0
0.4,0.000745375292767165,0.000429766272410823,-0.0371986179451465,-0.0214977280527088,0.00039375473578523,-0.000765010185563783,-0.0196236729602843,0.0382204257957051,-2.14323154323139,-6.50118196222333e-05,0
0.41,0.000745321539312384,0.000429766228039625,-0.0371972552233621,-0.021497710604179,0.000393709476137736,-0.000764981082201212,-0.0196225319645552,0.0382196755176307,-2.14323167312895,-6.25233112627244e-05,0
0.42,0.000745274507522557,0.000429766187721222,-0.0371960525460943,-0.0214977108956522,0.000393669877445981,-0.000764955616531501,-0.0196215165409071,0.0382190265103621,-2.14323178600851,-6.0360772444519e-05,0
0.43,0.000745233762160082,0.000429766152267522,-0.0371950111951844,-0.0214977111588519,0.000393635571708821,-0.000764933554358527,-0.0196206373063189,0.0382184645763433,-2.14323188409899,-5.84815419890031e-05,0
0.44,0.000745198255487068,0.000429766121359039,-0.0371940988046635,-0.0214977113984846,0.000393605676903158,-0.00076491432863986,-0.0196198669778079,0.0382179722255999,-2.1432319693383,-5.68485146488926e-05,0
0.45,0.000745167405426909,0.000429766094476056,-0.037193303695745,-0.0214977116171646,0.000393579702736971,-0.000764897624303639,-0.0196191956725779,0.0382175431672392,-2.14323204340999,-5.54294374610535e-05,0
0.46,0.000745140629902997,0.000429766071108852,-0.0371926119069159,-0.0214977118175229,0.000393557159081822,-0.000764883126199042,-0.0196186115974342,0.0382171698695331,-2.14323210777716,-5.41962806238504e-05,0
0.47,0.000745117346838726,0.000429766050801576,-0.0371920074899977,-0.0214977120021691,0.000393537555927023,-0.000764870519144614,-0.0196181012965679,0.0382168437208235,-2.14323216371124,-5.31246859949795e-05,0
0.48,0.000745097148780471,0.000429766033154165,-0.037191481497252,-0.0214977121729386,0.000393520550144636,-0.000764859582529837,-0.0196176572054217,0.0382165598975302,-2.14323221231701,-5.21934865357762e-05,0
0.49,0.000745079570066946,0.000429766017818295,-0.0371910205850439,-0.0214977123319306,0.000393505749760962,-0.000764850064200562,-0.0196172680697013,0.0382163111922786,-2.14323225455477,-5.13842883626594e-05,0
0.5,0.000745064319657231,0.000429766004491371,-0.0371906188369259,-0.0214977110252421,0.00039349290965711,-0.000764841806579864,-0.0196169296717949,0.038216093194493,-2.14323229125882,-5.06811074561165e-05,0
0.51,4.71353704285666,-0.00956314145673273,4.32371575339901,0.487431262998279,-0.419781647263553,4.69481695880437,0.109255775076654,4.3497322133611,0.0871478363675687,26.911880350761,691.246125930865
0.52,4.74482990240339,0.0417120351595627,2.7597455976431,-2.06661762127296,-1.79350098956793,4.39300636205291,-2.97190341290105,1.7478255807298,0.396399929300006,57.5539313642327,691.246125930865
0.53,4.72601266669113,-0.0002596572842124,3.70134916380504,0.0451970155610387,-3.80297332288268,2.8058135537825,-2.95148122473518,2.23400693433382,0.935097540603366,89.9559844804839,691.246125930865
0.54,4.69207942175477,0.017506931110828,5.39889268315852,-0.838520676506864,-4.64240138049484,-0.681193962885084,-5.21390246425131,-1.63290545423373,1.72022089419401,123.574152531108,691.246125930865
0.55,4.71884811120277,0.057531532100179,4.06140481970144,-2.8240110137253,-1.90513110239646,-4.31755866856137,1.00321157461691,-4.8439254589321,2.73822864814992,154.177204141589,691.246125930865
0.56,4.66112122081461,0.0207066379490946,6.9488014543824,-0.979493017912914,3.48371294101833,-3.09680867096513,5.86142896572948,-3.85861357281012,-2.29302433322799,187.236688616241,691.246125930865
0.57,4.66923485496206,0.00562251073346021,6.54424113750993,-0.210487631835796,3.37948712600242,3.22193303912472,4.58570296931442,4.67362015853386,-0.808056168629978,218.643355634369,691.246125930865
0.58,4.66616334705629,0.0132803244487041,6.69892813469153,-0.577282801382126,-3.68314973273029,2.86490223126686,-5.65247477753107,3.6412116768884,0.912560296510854,250.170774893017,691.246125930865
0.59,4.45243944748506,0.0366439731181514,6.9732461131928,-1.74193924396191,-1.24906336312363,-4.2738039881573,-0.225060677250674,-7.18400037419045,2.86548141500858,281.611546944147,691.246125930865
0.6,4.14474035158996,0.0287264828560145,7.26620387143724,-1.34354054873815,3.93325486181223,1.30736528367011,6.44662434961174,3.61162766663261,-1.24296642459146,310.919942692068,691.246125930865
0.61,3.85653079620692,0.0223274195037533,7.67284222055315,-1.01974657611635,-3.49267245078716,1.6354104828044,-7.39459959317097,2.28741943632553,1.13866705930157,338.155125269203,691.246125930865
0.62,3.57007218270515,0.0149292602912502,8.92858279886836,-0.648268415309959,1.91875819777659,-3.01064864290124,5.37534577162297,-7.15859627092012,-2.56999852717924,363.670605580825,691.246125930865
0.63,3.30857932465121,0.0100809331783762,9.66350479063102,-0.429367676651684,-0.597174022284707,3.25425597638408,-2.19521269531688,9.4206540464355,0.184533280162096,387.615362769999,691.246125930865
0.64,3.13070843912571,0.0643664826560608,7.17344174223644,-3.13371476995865,-0.174314646363924,-3.12651447765167,2.87976326261489,-7.27910696720489,3.10645347072296,409.472057172888,691.246125930865
0.65,2.95426946195912,0.0569863123961021,5.53697383205379,-2.75341397657093,0.349426502402946,2.93408531114608,-2.19123954472373,5.78254589267249,-0.0992467740451173,429.916522335962,691.246125930865
0.66,2.70841429689054,0.0174753875387736,7.80460739553024,-0.799692386475151,-0.0650933499917413,-2.7076883588326,0.66234434528655,-7.81746151123359,3.1240092588082,449.216259340098,691.246125930865
0.67,2.48421005328508,0.0496429631589561,9.9369021036374,-2.39333488796025,-0.442899449523089,2.4449139228705,-4.31226815883102,9.26684512817244,0.199188668250974,466.915349825416,691.246125930865
0.68,2.3368177968364,0.0450517326895025,8.63775643007955,-2.1797014098221,1.16770404743932,-2.02465165690879,6.3257291128881,-6.27272552976145,-2.59917260284096,483.558922251743,691.246125930865
0.69,2.12816272488274,0.013909095823182,11.1451640538096,-0.642092128866699,-1.78625028181235,1.15697017128889,-9.73930609698155,5.45645313711941,1.00256905760355,499.060698082474,691.246125930865
0.7,2.02256075045359,0.0342770197413753,9.0223232440739,-1.63273649396251,2.0225983751314,-0.031979935483987,9.02046309425676,1.64298227148831,-1.5696606068199,513.281508917066,691.246125930865
0.71,1.89351655165894,0.070075596458398,8.51098472085026,-3.43728548636552,-1.5252377944602,-1.12426206507893,-4.51910948541747,-7.98933300671186,2.24298542798712,526.693077170555,691.246125930865
0.72,1.74334878156695,0.0496518326356866,9.53051615954752,-2.4333336315208,0.28010657673373,1.72141528526546,-1.14965979430378,9.76883479167541,-0.132832012846455,539.264245987216,691.246125930865
0.73,1.67171841573371,0.0178168382903837,7.12168544088823,-0.84973463302356,1.09059339029205,-1.26710929216117,5.34112333709716,-4.7867372983521,-2.42026543409537,550.927699924554,691.246125930865
0.74,1.50245542308416,0.0458870441900667,9.96928649970275,-2.25968938551433,-1.5007317901753,-0.0853347123785851,-9.7341985195594,-3.12061670410981,1.65812910636128,561.761445931606,691.246125930865
0.75,1.39697865125053,-0.00492087838911119,10.0072370775466,0.311589769946046,0.628190668642104,1.24777804553729,4.8092789003677,8.7813847751614,-0.469924260442758,571.813790501141,691.246125930865
0.76,1.3003045724785,0.0552800091056528,9.93948452749608,-2.70270515582029,0.705153854481948,-1.0938948313821,7.94266750064434,-6.55835351333243,-2.52651651157017,581.226904271417,691.246125930865
0.77,1.23616406709074,0.053978745121081,8.57834784487492,-2.63992755804215,-1.22299929449336,-0.187851088258507,-7.89978575986704,-4.26035845998695,1.76684250881437,590.004742518804,691.246125930865
0.78,1.11416743217995,-0.00271273577866921,10.4277220505148,0.191631842836205,0.17575110945846,1.10022178372817,1.85911066384379,10.2624469531181,-0.160837992377019,598.174775305363,691.246125930865
0.79,1.06750689989306,0.0893432436988107,8.81873232422246,-4.41490271705236,0.916805550806238,-0.554094557386,9.86204012801189,0.0396272735062877,-2.03092792346217,605.764527636301,691.246125930865
0.8,0.960089525575343,0.0608429162806396,10.4974387036772,-2.99257366076703,-0.668914970981794,-0.691394618996595,-4.52934517212524,-9.93160353439073,2.43600587434814,612.84301325692,691.246125930865
0.81,0.910285681757357,0.0645399353979069,9.57858588396033,-3.1793826638053,-0.514332521117549,0.753821917560433,-8.43763424625076,5.53751839597902,0.669529877525718,619.401844863789,691.246125930865
0.82,0.810735859495369,0.0359506615287898,11.3651369608213,-1.77106089276292,-0.703190266917542,0.40510311335324,-10.9047425782922,3.65917806689997,1.09245510336129,625.544102745034,691.246125930865
0.83,0.806099394832398,0.0191459952262481,8.61206671600836,-0.950279187856374,0.460579533071473,0.661837817896519,3.95737526187682,7.70778208647191,-0.584228754407946,631.263672216834,691.246125930865
0.84,0.703606946624316,-0.0128166113978655,10.9379605607893,0.645952846843489,0.568021567955828,-0.415425684332011,8.31892924744628,-7.13103446112206,-2.22047133913246,636.574985130579,691.246125930865
0.85,0.697788493835553,-0.00245200748207242,8.64171192814177,0.134123550105789,-0.435593722960442,-0.545135673926632,-5.52272233239794,-6.64806078604233,2.46391386419724,641.501376792657,691.246125930865
0.86,0.665488068255281,0.00931510866723864,7.83576519703674,-0.444841870391719,-0.515520910179461,0.42095050945137,-6.4146618033765,4.52208076675422,0.900039344965216,646.096677727317,691.246125930865
0.87,0.582586153460536,0.0233613942434538,9.73178306323352,-1.13914994286601,0.362633521988843,0.456562492628237,4.82285097971785,8.52908978787332,-0.631158770399842,650.377380275908,691.246125930865
0.88,0.539347749763921,0.0186013690506177,9.80259141675377,-0.895765239139222,0.446687516747547,-0.302840334975169,8.77527204709694,-4.459573336868,-2.13210795756016,654.358629367811,691.246125930865
0.89,0.527725943007314,0.0260205751840321,8.44540430872356,-1.30603821030641,-0.259177814844765,-0.460433058704693,-2.60694213735154,-8.13845454844394,2.67816639682368,658.04780062041,691.246125930865
0.9,0.490161939250345,-0.0016310882361435,8.48940242975367,0.0777090158939125,-0.462742470850426,0.161650217475065,-7.97923199029027,2.89962914018104,1.23139012315256,661.512067310808,691.246125930865
0.91,0.41736885929695,0.00819657355299647,10.4401689771684,-0.402966028081006,0.0873240246873683,0.408213747001797,1.58741643627796,10.3266460648873,-0.191105009231728,664.689439526639,691.246125930865
0.92,0.417562372312399,0.0406644357968178,8.8566063573091,-2.01056099779519,0.416655805597428,-0.0490904346262083,8.89541054143592,1.83125721663938,-1.59099658742483,667.646911517724,691.246125930865
0.93,0.352911916323992,0.0429922491428064,10.6168215421972,-2.12457683590397,0.0179446053015846,-0.355067803821185,3.9075002624605,-10.0976318059926,-2.96987293162734,670.424095140903,691.246125930865
0.94,0.37321963376646,0.0130947286127547,8.22027008739368,-0.667430535718031,-0.351032357164105,-0.127438813436193,-7.37410490356559,-3.69335629217085,1.95411204581461,673.027245705872,691.246125930865
0.95,0.347210968197297,0.0111021045835323,8.22168181943741,-0.554744301925477,-0.19074812593884,0.290334058652285,-5.1854149665126,6.4043161075679,0.613241363056852,675.443167529395,691.246125930865
0.96,0.359570241743366,0.00587120121254364,6.41648529013183,-0.272677196050295,0.239003784706527,0.26870508117082,3.97890680492604,5.04122375712855,-0.710637183378579,677.658653136049,691.246125930865
0.97,0.267758995978953,-0.012530492148137,9.88170524853012,0.647151594032136,0.246773687643418,-0.104664417296424,8.62670459553674,-4.86280491340454,-2.01869438612443,679.753355850762,691.246125930865
