t,iq,id,vq,vd,ia,ib,va,vb,theta_e,omega,r
0,0,0,0,0,0,0,0,0,0,0,0
0.01,0.000393370230575655,0.000218802394553291,-0.0186656266739097,-0.0109434963018773,-0.000429386798353869,0.000135061480684952,0.0204877007677992,-0.00695843715844959,1.77365945200386,-0.00323164011666068,0
0.02,0.000529895879101427,0.000289811116671058,-0.0252400355142295,-0.0144950201391535,-0.000577414438412322,0.000177123381708297,0.027642586305271,-0.00911331026299873,1.773632179589,-0.0040745248283802,0
0.03,0.000590425216323866,0.00032106787295472,-0.0281845086569389,-0.0160583482856456,-0.000642993550283644,0.000195565358405797,0.0308413195717564,-0.010052367132619,1.77360183313872,-0.00421893069860137,0
0.04,0.000592939298390688,0.000322187676501227,-0.02840336218848,-0.016114342683589,-0.000645675942970848,0.000196174634277746,0.0310666729840725,-0.0100640376308326,1.77357271028745,-0.00387496284533018,0
0.05,0.000606782644848142,0.000330907646187375,-0.0291471438696346,-0.0165504805274657,-0.000660986264428857,0.000201946048811459,0.0318827672882392,-0.0103423184775554,1.77354545955609,-0.00365288196636386,0
0.06,0.000609294625797126,0.000333557036913781,-0.0293525678772782,-0.0166829985660672,-0.000663975122013507,0.00020405213855069,0.0321104040270497,-0.0104315691708034,1.77352017699986,-0.00335713336263668,0
0.07,0.000614018696160618,0.000337817661006207,-0.0296529969050344,-0.0168960879452896,-0.000669455559303,0.000207289617301005,0.0324473429719061,-0.0105805457027713,1.77349741209504,-0.00311221374774699,0
0.08,0.000608036022852066,0.000335654704145009,-0.0294457485853387,-0.0167879047819064,-0.000663155563264567,0.000206389399949917,0.0322223359950506,-0.0105169824445702,1.77347622706898,-0.00279417249775801,0
0.09,0.000604442661376063,0.000334995614457835,-0.0293431550866696,-0.0167549381332665,-0.00065949915213656,0.000206479686479127,0.0321150064328989,-0.0105059537456052,1.77345718383175,-0.00252377907953456,0
0.1,0.000601803529480579,0.000334793913573543,-0.0292788750605076,-0.0167448523616997,-0.000656869880010909,0.000206824595722137,0.0320498313199258,-0.010509563158773,1.77344000066229,-0.0022850355286661,0
0.11,0.000599621988539556,0.000334731404866728,-0.0292303186045899,-0.0167417323623149,-0.000654717180145662,0.000207212587856765,0.0320014772111127,-0.010516776337065,1.77342447383509,-0.00207106992593853,0
0.12,0.000597718158206885,0.000334711328644317,-0.029189627262834,-0.0167407262994193,-0.000652845346005598,0.000207585221949699,0.0319612681722401,-0.010524428421411,1.77341043626516,-0.00187822042561983,0
0.13,0.000615234919996875,0.000345489430450741,-0.0300568381841024,-0.0172797901371818,-0.000672169844431761,0.000214626777391175,0.0329190724142937,-0.0108783886763089,1.77339728325116,-0.00186510853402108,0
0.14,0.000624701072278939,0.000351657301890431,-0.0306211076462302,-0.0175882810092928,-0.000682680769066158,0.000218772153681754,0.0335337379988737,-0.0110674422594726,1.77338495361212,-0.00179243629723686,0
0.15,0.000603018222271237,0.00033985484461907,-0.0295658370694019,-0.0169979862904689,-0.000659064228387569,0.000211581272002304,0.0323811564545856,-0.0107019141376221,1.77337358762563,-0.00146140444199721,0
0.16,0.000594971557889007,0.000336265562572869,-0.029221413348065,-0.0168184669116406,-0.000650457962970914,0.000209690537881539,0.0320075563257606,-0.0105956672923269,1.77336404557293,-0.00127168301100474,0
0.17,0.000591580370129772,0.000335173593430423,-0.029091348839821,-0.0167638444586573,-0.000646914671671188,0.000209308575152809,0.0318690734050375,-0.0105685958697709,1.77335566372887,-0.00113695704587224,0
0.18,0.000589819406332671,0.000334841002289646,-0.0290346882653405,-0.0167472113412381,-0.000645121231831355,0.000209341885778634,0.0318101458633643,-0.010563940104198,1.77334816669831,-0.00102750034384192,0
0.19,0.000588665737380031,0.00033473935755401,-0.0290039326398715,-0.0167421243832153,-0.000643969285764918,0.000209478750359717,0.0317789243139192,-0.010565358815083,1.77334141459855,-0.000932673576854349,0
0.2,0.000587769831350044,0.000334707982297025,-0.0289829973347543,-0.0167405629749924,-0.000643084104395668,0.000209632160538945,0.0317580384416968,-0.0105682343634957,1.77333531761763,-0.000848314161482371,0
0.21,0.000587009360990062,0.000334698017372501,-0.0289663836321155,-0.0167400551279991,-0.000642336018264994,0.000209778913054951,0.0317416039276353,-0.0105712537814805,1.77332980686243,-0.00077249233537079,0
0.22,0.000586338138352215,0.000334694602736378,-0.0289521255627162,-0.016739885509761,-0.000641676782558338,0.000209913783046237,0.031727550485515,-0.0105741137533264,1.77332482417371,-0.000704079500266381,0
0.23,0.000585736765040672,0.000334693216312622,-0.0289394912712832,-0.01673981464596,-0.000641086475394023,0.000210036277897099,0.0317151125143501,-0.0105767285879843,1.77332031834631,-0.000642262219296521,0
0.24,0.000585194662120335,0.000334692479686769,-0.028928142890315,-0.0167397866782683,-0.000640554447493439,0.000210147206332575,0.0317039473383363,-0.0105791130197388,1.77331624353972,-0.000586374491975687,0
0.25,0.000584705105778443,0.000334691970612816,-0.0289179087481513,-0.0167397547937805,-0.000640074019124669,0.000210247534962156,0.0316938769472047,-0.0105812570603757,1.7733125584553,-0.000535837415153755,0
0.26,0.000587200694277936,0.000336414136007141,-0.0290459454740883,-0.0168258953308842,-0.000642864322105775,0.000211434598941148,0.0318365891028101,-0.010639985736288,1.77330938031775,-0.0005175877431385,0
0.27,0.000580945003380336,0.000332867426362388,-0.0287640721492895,-0.0166484959082673,-0.000636022414573855,0.000209220717533761,0.0315247601832283,-0.0105230108812579,1.77330602988758,-0.000421185935983641,0
0.28,0.000579944316114774,0.000332548015428246,-0.0286509211658588,-0.016632522148358,-0.000634977358897789,0.000209110846314308,0.0314106797227325,-0.0105302077863542,1.77330328032607,-0.000377961411381264,0
0.29,0.000581979816357149,0.000334039043024079,-0.0288300869465055,-0.0167070974392137,-0.000637270661712659,0.000210163490244745,0.0316011588581695,-0.0105672975261975,1.77330096388117,-0.000366540138485882,0
0.3,0.000572702850373099,0.000329286786266985,-0.0283991184769094,-0.0164694183290067,-0.000627227219363998,0.000207374920673688,0.0311311813081286,-0.0104211909454623,1.77329974573932,-0.00027068835857189,0
0.31,0.000579312302728324,0.000333047230807821,-0.0287151135549138,-0.0166574945411645,-0.000634457561109889,0.000209730315385361,0.0314785274491654,-0.0105419248950398,1.77329801471331,-0.00030633562198637,0
0.32,0.000581369897381359,0.000334190461962205,-0.028817881153427,-0.0167146699554348,-0.000636702657148038,0.000210437517634931,0.0315906750944126,-0.0105773206896366,1.77329619938099,-0.000301399776979464,0
0.33,0.000581913233835194,0.000334537929944523,-0.0288493064462768,-0.0167320589758022,-0.000637304410311088,0.000210669710405024,0.0316249372563376,-0.0105880887573546,1.77329447368365,-0.00028444257695596,0
0.34,0.000581961946620512,0.00033464345496383,-0.0288570558229474,-0.016737332276161,-0.000637373015760612,0.000210764294994877,0.031633572013292,-0.0105917460397797,1.77329288479867,-0.000264908282151303,0
0.35,0.00058185727671564,0.000334675427772028,-0.0288571166527499,-0.0167389251416936,-0.000637276609817082,0.000210817587030535,0.0316339366277506,-0.0105933398813168,1.77329143837801,-0.000245830986121782,0
0.36,0.000581712456800067,0.000334685047367011,-0.0288548252192726,-0.016739414635355,-0.000637136407030451,0.000210856970868301,0.0316317765651711,-0.0105943216913683,1.77329012709368,-0.00022810384884837,0
0.37,0.00058156482744306,0.00033468788006751,-0.0288519715297301,-0.0167395498170551,-0.000636992113398967,0.000210890191925745,0.0316289957928882,-0.0105950655667385,1.77328894013893,-0.00021191261088511,0
0.38,0.00058142553657778,0.000334688657975316,-0.028849116368617,-0.0167395940788886,-0.000636855598439337,0.000210919650811753,0.0316261964913578,-0.0105957170906926,1.77328786633516,-0.000197216208180917,0
0.39,0.000581297654367191,0.000334688819074852,-0.0288464408243705,-0.0167396077432267,-0.00063673015656937,0.000210946145500844,0.0316235680689375,-0.0105962992700414,1.77328689510016,-0.000183907249430895,0
0.4,0.000581181515135837,0.000334688799834313,-0.0288439947835108,-0.0167395987771719,-0.000636616201024794,0.000210970042572112,0.0316211608924484,-0.0105968101854182,1.77328601670561,-0.000171865002482596,0
0.41,0.000581076101062236,0.000334688732277364,-0.0288417601644438,-0.0167395992632848,-0.00063651275947597,0.000210991681739837,0.0316189636083022,-0.0105972851813812,1.77328522230017,-0.000160972345946951,0
0.42,0.000580980756913942,0.00033468865592464,-0.0288397348078359,-0.0167395997107265,-0.000636419196342979,0.000211011238646418,0.031616972107777,-0.0105977156499741,1.77328450386068,-0.000151120692175992,0
0.43,0.000580894652828725,0.000334688582230113,-0.0288379052045012,-0.0167395862735925,-0.000636334699498072,0.00021102889606617,0.0316151702964121,-0.0105980909754401,1.77328385412533,-0.000142210941719238,0
0.44,0.000580816596355675,0.000334688514167394,-0.0288362371431361,-0.0167395866563123,-0.000636258100071625,0.000211044900935831,0.0316135301639461,-0.0105984453847081,1.77328326652495,-0.000134153170987823,0
0.45,0.000580745990463199,0.00033468845218005,-0.0288347237699084,-0.0167395870101444,-0.000636188812070647,0.000211059377564465,0.0316120421486399,-0.010598766878733,1.7732827351179,-0.000126865954732531,0
0.46,0.00058068219486703,0.00033468839598606,-0.0288333539277435,-0.0167395873375614,-0.000636126207105947,0.000211072457881921,0.0316106952650065,-0.0105990578740408,1.77328225453045,-0.000120275620538379,0
0.47,0.000580624612533185,0.000334688345123147,-0.0288321165502905,-0.01673957234314,-0.000636069699226167,0.0002110842646123,0.0316094755453729,-0.0105993057672297,1.77328181990238,-0.000114315529996208,0
0.48,0.000580572458469165,0.000334688299109468,-0.0288309894652202,-0.0167395726266238,-0.000636018518454911,0.000211094957960011,0.0316083673776368,-0.0105995451310893,1.77328142683864,-0.000108925413614722,0
0.49,0.000580525193848647,0.000334688257490079,-0.0288299611238639,-0.0167395728910397,-0.000635972136046112,0.000211104648380135,0.0316073563306927,-0.010599763429556,1.77328107136425,-0.000104050764300116,0
0.5,0.000580482527633328,0.000334688219847898,-0.0288290309436218,-0.0167395731375045,-0.000635930266066812,0.000211113396289117,0.0316064417960131,-0.0105999608947111,1.77328074988476,-9.96422871482482e-05,0
0.51,4.73835475022336,0.0205047583478021,3.08275992556752,-1.01966347165837,-0.637215119910718,4.69535760885541,-1.43758005031526,2.91144052885424,0.139215029500409,43.2630719615003,2629.47676730267
0.52,4.78414918534658,-0.0103244371641936,0.793568597003054,0.529792200896238,-2.85324830083945,3.84020366066852,-0.0459639766759102,0.953057294777188,0.63684412588565,92.5681073696086,2629.47676730267
0.53,4.72041495681715,-0.0173720851584991,3.9808176814254,0.8900516101861,-4.70968234983552,0.318608407819986,-3.90738200461091,1.1710965594633,1.49956939740498,143.189200009987,2629.47676730267
0.54,4.71944175617106,-0.00910370113273151,4.03008299844815,0.481328761891052,-1.80894644087318,-4.35900517794113,-1.99610280103515,-3.53395245569377,2.74630148286436,197.820396737975,2629.47676730267
0.55,4.71065145257455,0.022989115866638,4.47032109839328,-1.1177186252753,4.46916073562965,-1.48908291448033,4.59608440845914,-0.330263165288289,-1.8875383274027,250.952044614224,2629.47676730267
0.56,4.72929462520266,0.0213048051708158,3.53888320255489,-1.0223866975524,-0.604716863119705,4.69052225899769,-1.48170080584283,3.37246669407156,0.132720724692535,300.328017081357,2629.47676730267
0.57,4.72665121126022,0.011377485997959,3.67188315673876,-0.52510029106276,-2.72449997015369,-3.86244236626618,-1.679465541728,-3.30724231446144,2.52967036395558,354.343825718717,2629.47676730267
0.58,4.74699265726206,0.00933263479403035,2.65563183369068,-0.408829057279171,3.92525590830142,2.66953037827197,1.96240547182374,1.83534367308778,-0.971591583355883,404.202230599027,2629.47676730267
0.59,4.69605378717575,0.00434698100551922,5.20345457364169,-0.159997153124886,-3.8357688332457,-2.70920976046383,-4.15500966260755,-3.13646828337202,2.18666472750694,457.55179664541,2629.47676730267
0.6,4.70678522131031,0.0599613373328911,4.66779851552735,-2.92691706261886,2.55349450843807,3.95437583910489,0.00312476146793195,5.50955322225628,-0.560635270343006,508.177766212145,2629.47676730267
0.61,4.67328352317862,0.0652324836944829,6.34385581587117,-3.18435811221232,0.935678914432674,-4.57911990823868,4.46735124999575,-5.51610514843003,-2.92607369712986,559.387086843389,2629.47676730267
0.62,4.66145096039721,0.0620157336907732,6.93653190058437,-3.02097499635361,-4.55385894246763,0.997667148662759,-7.40216998975662,-1.56513391732617,1.36842526879983,611.486419306505,2629.47676730267
0.63,4.66430085672686,0.0283447453052086,6.79515754371515,-1.33321248221536,1.15246163570377,4.51977190628911,0.34502634514593,6.91611006186274,-0.243585440042029,663.285295836785,2629.47676730267
0.64,4.67011165813702,0.0372383350940306,6.50571123584942,-1.77287374858978,4.65359919904658,0.394137143264715,6.31421970077466,2.3660070969981,-1.47832926502894,714.836378855245,2629.47676730267
0.65,4.63742014829777,0.0482580101609604,8.14147818208892,-2.31775574287238,3.31132629786094,-3.24701595568567,7.47750949373438,-3.96768325905181,-2.33598307714747,766.110737815986,2629.47676730267
0.66,4.65271087910786,0.0396695331637242,7.3781497904275,-1.87805942759191,1.44544332928542,-4.42266726967498,4.13187140619759,-6.39467280055821,-2.81718404410295,817.193348149376,2629.47676730267
0.67,4.65076042457965,0.0772941292733758,7.47691872810359,-3.74748718072835,0.935918623511137,-4.55627076010869,5.2837500413506,-6.48305169938642,-2.92237930950263,868.11667024312,2629.47676730267
0.68,4.61965272360859,0.0432087126730418,9.03362997368227,-2.03238817847573,2.13328399560661,-4.09782352886064,6.0400455950746,-7.018185051624,-2.6522564629762,919.360216070749,2629.47676730267
0.69,4.6750297389245,0.078443377475526,6.26615114102625,-3.80743330331225,4.20596428814689,-2.04252804879914,7.28732433455818,0.81000155821578,-2.00610157093045,971.246333567491,2629.47676730267
0.7,4.61691140317608,0.0669739563407692,9.17342898392353,-3.21463096845696,3.88343877433604,2.49785101669188,5.86443921966887,7.75203226420404,-0.984706852467862,1021.82001086244,2629.47676730267
0.71,4.61836780031456,0.049462045170785,9.10208572566445,-2.34835288709624,-1.79733132755255,4.25457021705989,-5.78498140188329,7.40923181035269,0.410415872435077,1073.21042651374,2629.47676730267
0.72,4.61627396756884,0.0625271167837309,9.2082634871969,-2.98029200346585,-3.81980307685263,-2.59287474399637,-5.84100690157966,-7.71731140043376,2.18069470244903,1123.95466127576,2629.47676730267
0.73,4.60583623759294,0.0926297970390286,9.7316661895988,-4.49708542351194,4.22800102711712,-1.82929359084877,10.7098175133042,0.478448496567299,-1.95902977439489,1175.42521890392,2629.47676730267
0.74,4.58266578610192,0.0808156908012116,10.8916869694292,-3.8741801171292,-2.36072642069433,3.92865468699204,-9.05870333586663,7.18178323905364,0.558713849442549,1225.82081370804,2629.47676730267
0.75,4.58073774760572,0.0835034848590166,10.989692707756,-4.01179700826304,1.31237257019957,-4.38951129185372,7.16148619899406,-9.25099867409088,-2.83284538994557,1276.90636147667,2629.47676730267
0.76,4.65039868894508,0.0534640992991779,7.50830082556549,-2.51123517687339,-1.89575446560703,4.2467848288072,-5.42041502855224,5.77061385980718,0.431350278242583,1328.0514643491,2629.47676730267
0.77,4.59815769220764,0.0723707079181326,10.122083745106,-3.45912631915092,3.63270315773979,-2.81988642493279,10.1703231954513,-3.31461315010457,-2.21514920370332,1378.9245486964,2629.47676730267
0.78,4.58396399039654,0.0738983239180593,10.8335057323807,-3.5323118178147,-4.48685479041331,-0.94144618395064,-9.78439317109817,-5.84018180411932,1.79373882882202,1429.68624501853,2629.47676730267
0.79,4.5702334063887,0.0806786774978578,11.5218529248702,-3.86603742560543,0.576407414074712,4.53445663016791,-2.59221662545783,11.8734895108903,-0.108787830064294,1480.34588157212,2629.47676730267
0.8,4.58900772716698,0.105037827799892,10.5849722572956,-5.07416121287327,4.57084393405294,-0.421201372028397,10.9096460396466,4.33224802978412,-1.63980139143098,1530.94123984298,2629.47676730267
0.81,4.58451573452646,0.142700352918707,10.8114081209646,-6.94225156785382,1.40306043563607,-4.36687180081996,10.1660008385858,-7.8570878408798,-2.79959757523795,1581.40203084991,2629.47676730267
0.82,4.56521471106755,0.101477203171831,11.778427592498,-4.86022608363609,-2.06569609803846,-4.07239273787043,-0.71122994789905,-12.7219222642251,2.69439147899537,1631.67105130033,2629.47676730267
0.83,4.55424796740521,0.132012835423354,12.3287387573253,-6.40716296645056,-3.55556223718242,-2.84896105885169,-5.24417873244089,-12.8665506662526,2.27528907698161,1682.43688824898,2629.47676730267
0.84,4.60468654979257,0.139108964778879,9.80883144404425,-6.75144057518049,-3.73442238011172,-2.69751348705491,-3.65753766739254,-11.3321464140501,2.22655826689533,1732.96552653733,2629.47676730267
0.85,4.51615890118919,0.135366204095249,14.2372819313673,-6.5353252155347,-3.05812569080569,3.32594084271439,-14.6222602439054,5.62140354587213,0.77343696395777,1783.03167643802,2629.47676730267
0.86,4.55044994038689,0.144441451686145,12.524836052872,-7.01337137087653,-4.50879976792043,0.631017151694737,-13.2039950221043,-5.63146620281063,1.46347869410884,1833.75212758651,2629.47676730267
0.87,4.47696269573204,0.141706294764331,13.5614684944344,-6.84247955729235,-2.71419420803291,-3.56320438005354,-2.30058497347679,-15.0146682613141,2.52226925034553,1883.73845538849,2629.47676730267
0.88,4.23566601009447,0.108268978848541,12.8643356052624,-5.19202331540263,2.96939994818466,-3.02245805075463,12.8565938474303,-5.21116410360709,-2.33949359259796,1931.99687102491,2629.47676730267
0.89,3.99051484032837,0.131771711934674,13.1940413505684,-6.4004568276877,2.28077705853758,3.27713723914575,1.80422878078018,14.5531210834723,-0.575004409114431,1977.6957424292,2629.47676730267
0.9,3.73652047135158,0.0715785364398862,14.6290125152856,-3.40629523199768,-3.72626512622142,0.285756765124445,-14.8002906863845,-2.56168889181227,1.5134130745276,2020.55159729892,2629.47676730267
0.91,3.52611283652341,0.122050293907007,14.4245934981736,-5.89458809381314,2.35673691092163,-2.62567308377062,14.2485922652966,-6.30814432623456,-2.3755198301759,2060.8785425984,2629.47676730267
0.92,3.33584491236689,0.148097360032425,13.8033974072542,-7.20713914731733,-0.866977831431368,3.22461525568853,-11.0417519554221,10.9798155005591,0.307017861070984,2099.02598682649,2629.47676730267
0.93,3.19209142290175,0.104536887782399,11.4280792396738,-5.03683111996564,0.277570985503233,-3.18171808321808,6.36606900408489,-10.7444789671043,-3.02183661232279,2135.03511469399,2629.47676730267
0.94,2.97387081359922,0.10121607063037,13.2912208715016,-4.88249852720604,-0.459244610967901,2.9399399137105,-7.29240570166996,12.1373870007288,0.188978559135514,2169.05242699735,2629.47676730267
0.95,2.78614041562298,0.103087721003917,14.1304896232644,-4.98384199490649,1.24583436452403,-2.49421374985397,11.1504796186106,-10.0088072365455,-2.64136995794185,2201.13052002121,2629.47676730267
0.96,2.67547933993261,0.0949310354284389,11.5866454604588,-4.5780035274961,-2.25918815673841,1.43640888062789,-12.3097159336218,1.91816656150468,1.03993001416105,2231.39555093509,2629.47676730267
0.97,2.49951610797047,0.104953441780175,12.7803673431285,-5.09016103512307,2.46048200310975,0.452354187908528,11.3320851474094,7.79944709583016,-1.34701401404885,2259.87862069836,2629.47676730267
0.98,2.30638672570621,0.0771355090878324,15.2123461201712,-3.76020971895582,-0.947348996331532,-2.1042574686634,-2.29940091216365,-15.5005615077506,2.75199941330208,2286.84825641046,2629.47676730267
