t,iq,id,vq,vd,ia,ib,va,vb,theta_e,omega,r
0,0,0,0,0,0,0,0,0,0,0,0
0.01,0.000442415853011378,0.000248569418670254,-0.02168564589646,-0.0124364741662667,-2.25395024917795e-06,0.000507457843177271,-0.000109092269255538,-0.024998424480588,0.516333862771725,-0.00115541294110268,0
0.02,0.000529399434482251,0.000295525427496447,-0.026001493087103,-0.0147857899175481,-4.35724302710839e-06,0.00060628380644735,-2.16975352048086e-05,-0.0299114820004208,0.516324788311277,-0.00130064408967861,0
0.03,0.000561867875836705,0.000313526964853344,-0.0276182159743099,-0.0156864547454984,-4.72560501849051e-06,0.000643406820172595,-7.09421079904751e-06,-0.031762094794871,0.516315384761867,-0.00129281767741391,0
0.04,0.000550474432555289,0.000307647716833949,-0.0270939893920122,-0.0153923015857444,-4.20825346231218e-06,0.000630596153788624,-1.03571420157558e-05,-0.0311609868587403,0.516306664423265,-0.00117161879550713,0
0.05,0.000563077471662217,0.000315379557279387,-0.0277380023523715,-0.0157791362855924,-3.70071400540236e-06,0.000645373387241144,-2.90994347852402e-05,-0.0319120207702734,0.516298422121147,-0.0011212282810429,0
0.06,0.000564122912215445,0.000316561787385673,-0.0278167220368626,-0.0158382874526443,-3.18367411707003e-06,0.000646866206829792,-4.19270707879317e-05,-0.0320096800425965,0.516290681136005,-0.00104427739056848,0
0.07,0.000573213902059864,0.000322450083296835,-0.0282852949063748,-0.016132897476027,-2.54606717574524e-06,0.00065767906403866,-6.70521784077848e-05,-0.032562613422727,0.516283609951113,-0.000996321273548646,0
0.08,0.00056394830375402,0.000317641566132645,-0.0278576670516444,-0.0158923058399491,-2.14950877257622e-06,0.000647247428310281,-6.9134278706787e-05,-0.032071953774634,0.516276880926282,-0.000901496968469024,0
0.09,0.000561592327866226,0.000316904148397076,-0.0277648305108099,-0.0158554196061608,-1.6238331063559e-06,0.000644834509898102,-8.30805543878335e-05,-0.0319730080193108,0.516270734729395,-0.000831652792483146,0
0.1,0.000560442780559083,0.00031679012085442,-0.0277290993867619,-0.0158497163286647,-1.15188707877243e-06,0.000643778505472117,-9.59399647289024e-05,-0.0319391179593806,0.516265066675616,-0.000770051015317503,0
0.11,0.000559550746711117,0.00031677162101315,-0.0277043750380141,-0.0158487883089276,-7.24269465955045e-07,0.000642993602968185,-0.00010750483362611,-0.0319171572953934,0.516259830487634,-0.000713608910852985,0
0.12,0.000558754523128464,0.000316767825066608,-0.0276828967747426,-0.0158485907528075,-3.31422229979015e-07,0.000642299277808446,-0.000118089706459625,-0.0318983801706648,0.516254991753478,-0.000661528249211057,0
0.13,0.000581069133902058,0.000329775544623436,-0.028787562830018,-0.0164993988263569,-3.09192688256505e-08,0.000668126670062923,-0.000138942610357311,-0.0331803349934031,0.516250328465265,-0.000674704849026197,0
0.14,0.000594702277358771,0.00033804577514374,-0.0295120211386378,-0.0169131774801498,4.34883531960108e-07,0.000684065461534607,-0.0001413366269704,-0.0340146290310556,0.51624593125204,-0.000666791290550313,0
0.15,0.000562798649188687,0.000320022335279542,-0.0279272936309519,-0.0160114214913762,5.11183129374101e-07,0.000647422855094096,-0.000139482736285251,-0.0321913015004083,0.516241814551071,-0.000536754048459079,0
0.16,0.000557051560911528,0.000317262187444047,-0.0276597311861203,-0.0158733285179092,9.49848025979605e-07,0.000641062270676164,-0.000151571361634994,-0.0318904423557943,0.516238287254542,-0.000484604587565368,0
0.17,0.000555670611608974,0.00031683895834335,-0.0276039179222628,-0.0158521516808226,1.26548234334676e-06,0.000639652368622543,-0.000160806651709654,-0.0318314488955749,0.516235073370369,-0.00044767331252532,0
0.18,0.000555044945798575,0.000316773568600162,-0.0275840273562885,-0.015848890721207,1.51934172596779e-06,0.000639075955752479,-0.00016788306328637,-0.0318125402563564,0.516232110833428,-0.00041540782732259,0
0.19,0.000554574673455827,0.000316763010073319,-0.0275709031266337,-0.0158483546085317,1.74403650168164e-06,0.000638661750323305,-0.00017398204867165,-0.0318008612031613,0.516229374240517,-0.000385898195450988,0
0.2,0.000554157801391822,0.000316760887709692,-0.0275596373406989,-0.0158482536038244,1.94957474289277e-06,0.000638298149757911,-0.000179535441875669,-0.0317910131903198,0.516226845405657,-0.000358677766052745,0
0.21,0.000553775504737444,0.000316760095145802,-0.0275493694420626,-0.0158482151190061,2.13907885630865e-06,0.000637965274811752,-0.00018464450430501,-0.03178206389649,0.516224508398074,-0.000333530262820974,0
0.22,0.000553422719376504,0.000316759541498509,-0.0275399048259743,-0.0158481867809164,2.31410945324026e-06,0.000637658183002358,-0.000189360218748099,-0.0317738182278128,0.516222348640381,-0.000310291407246782,0
0.23,0.000553096767749643,0.000316759057091888,-0.0275311611536019,-0.0158481613171833,2.47584950378073e-06,0.000637374462081812,-0.000193717338781469,-0.0317662009877435,0.516220352684781,-0.000288815273570251,0
0.24,0.000552795670791952,0.000316758613489073,-0.0275230865977192,-0.0158481343637172,2.62525932785153e-06,0.000637112376962891,-0.000197738052727587,-0.0317591649502705,0.516218508107375,-0.000268967979175503,0
0.25,0.000552517181875176,0.00031675820406121,-0.0275156123723494,-0.0158481220061141,2.76344963204414e-06,0.000636869970601143,-0.000201470673383899,-0.0317526582338209,0.51621680342721,-0.000250625956979781,0
0.26,0.000556786748967463,0.000319345223166117,-0.0277292530329592,-0.0159775474921507,2.90691282512479e-06,0.000641860113453548,-0.000208628400071237,-0.032002343223903,0.516215273813178,-0.000246574693658151,0
0.27,0.00054554496357658,0.000312938922000467,-0.0271867996276859,-0.0156570321446265,2.88524261526549e-06,0.000628921101221479,-0.000197678475099333,-0.031372370850707,0.516213697169536,-0.000199454346223986,0
0.28,0.000545055320609637,0.000312799363664736,-0.0271253542412152,-0.0156500394043284,3.0063980093605e-06,0.000628426372779618,-0.000221967923244245,-0.0313154802982406,0.516212352160511,-0.000184240608666406,0
0.29,0.000550482940339902,0.000316150900681869,-0.0274365822557494,-0.0158177260378269,3.24294407520677e-06,0.000634801026244402,-0.000214222542007534,-0.0316689218570312,0.516211174137616,-0.000186994400886751,0
0.3,0.000543686472093203,0.000312588621374182,-0.027108036395298,-0.0156395061304777,3.49999834959794e-06,0.00062713186505018,-0.000221416599523086,-0.0312952195055971,0.516210386908396,-0.000160218315070073,0
0.31,0.000550014284881071,0.00031611827300872,-0.0274201990355344,-0.0158161022191679,3.44703716677114e-06,0.000634377327808949,-0.000220954079787816,-0.0316538715459913,0.516209367234129,-0.000167076211401212,0
0.32,0.000550926231385908,0.000316658474364027,-0.0274682381717365,-0.0158431284367451,3.46735884801781e-06,0.000635437077324145,-0.00022077890029485,-0.0317089905799543,0.51620836725619,-0.000159268676264614,0
0.33,0.000550951882212099,0.000316740993725604,-0.0274728280050928,-0.0158472548869795,3.52705814503178e-06,0.000635500112887621,-0.000222131795009253,-0.0317150188950906,0.516207433575934,-0.000149711230457823,0
0.34,0.000550840217178868,0.000316753454262344,-0.0274704746170029,-0.015847876551679,3.59356053936777e-06,0.000635409145331919,-0.000223861467437289,-0.031713278810682,0.516206569128148,-0.000140490868158395,0
0.35,0.00055071463989699,0.000316755201636509,-0.0274672087957863,-0.0158479598986863,3.65757093326736e-06,0.000635300790598851,-0.000225571254427617,-0.031710479491658,0.516205769980448,-0.000131905595592254,0
0.36,0.000550594732132733,0.000316755320926765,-0.0274640020365027,-0.0158479748798248,3.7173283619234e-06,0.000635196563165752,-0.000227190506860118,-0.03170769780552,0.516205031398715,-0.000123960820071772,0
0.37,0.000550483473825746,0.000316755202178673,-0.0274610163690293,-0.0158479636162774,3.77257382236753e-06,0.000635099740788223,-0.000228676027380382,-0.0317050954592073,0.516204348825711,-0.000116616835083153,0
0.38,0.000550380388058447,0.000316755057364714,-0.0274582433225539,-0.0158479640003304,3.82372979006998e-06,0.000635010013319461,-0.000230065087211094,-0.0317026837881589,0.516203718019356,-0.000109829543912636,0
0.39,0.000550285253271688,0.000316754918153399,-0.0274556865678228,-0.0158479512416273,3.87093568404511e-06,0.000634927203701009,-0.000231334439536511,-0.0317004537482448,0.516203135054709,-0.000103556968748599,0
0.4,0.000550197243288542,0.000316754788667191,-0.0274533185358547,-0.0158479515833587,3.91460520231826e-06,0.000634850595441178,-0.000232520631230079,-0.0316983943154166,0.51620259630349,-9.77601125709264e-05,0
0.41,0.000550116020132598,0.000316754668866318,-0.0274511350242991,-0.0158479387895598,3.95490727767407e-06,0.000634779894580448,-0.000233603025906415,-0.0316964888848311,0.516202098412465,-9.24029023896408e-05,0
0.42,0.000550040815834833,0.000316754558124035,-0.0274491093733776,-0.0158479390950189,3.99222240381371e-06,0.000634714432904184,-0.00023461769739112,-0.0316947272190051,0.516201638282711,-8.74519955134867e-05,0
0.43,0.000549971408832158,0.000316754455771104,-0.0274472413599115,-0.0158479248160757,4.02666119003997e-06,0.000634654017385329,-0.000235540770513546,-0.0316930954592739,0.5162012130503,-8.28765771194302e-05,0
0.44,0.000549907263989948,0.000316754361174094,-0.0274455142555957,-0.0158479250899156,4.05848890938285e-06,0.000634598182300809,-0.000236405926869835,-0.0316915934381253,0.516200820068439,-7.86481693007752e-05,0
0.45,0.000549847892175925,0.000316754273746769,-0.027443912873858,-0.015847925349341,4.08794804027866e-06,0.000634546501958659,-0.000237208070937673,-0.0316902007572889,0.516200456891375,-7.47404539576518e-05,0
0.46,0.000549793211713059,0.000316754192945486,-0.0274424416939313,-0.0158479124870235,4.11507986745066e-06,0.000634498905051846,-0.000237933664283629,-0.0316889148424583,0.516200121258553,-7.11291090133431e-05,0
0.47,0.000549742454632836,0.000316754118268939,-0.0274410702307195,-0.0158479127216344,4.14026434134604e-06,0.000634454723425756,-0.000238620622525446,-0.0316877221213253,0.516199811080776,-6.77916570335317e-05,0
0.48,0.000549695655673549,0.000316754049252798,-0.0274398075385425,-0.0158479129441883,4.16348514314669e-06,0.000634413987058829,-0.000239253137083159,-0.0316866239977569,0.516199524427867,-6.47073253268464e-05,0
0.49,0.000549652349173909,0.000316753985468239,-0.0274386370958932,-0.0158479131561226,4.18497287816053e-06,0.000634376290748968,-0.000239839420570086,-0.0316856061033472,0.51619925951515,-6.185691665194e-05,0
0.5,0.00054961245345677,0.000316753926519158,-0.0274375610560215,-0.0158479002543455,4.20476856645148e-06,0.000634341563261763,-0.000240367066769076,-0.0316846638430614,0.516199014694238,-5.92226897306706e-05,0
0.51,0.897208152791801,-0.0267902784183235,-1.13762282624549,1.34073452182909,-0.0386634991633633,0.896774956321959,1.35567480004393,-1.11977702661954,0.0132365208231537,4.06342032372271,119.870388191517
0.52,0.850297184144994,0.0112711677753053,-0.211177012191353,-0.563546685709826,-0.0390819700767372,0.849473331072168,-0.550057839689624,-0.244165866673826,0.0592296618850906,8.45902802179561,119.870388191517
0.53,0.793087205179515,-0.0423830746757282,1.27277026569231,2.12141047410232,-0.150284596358613,0.779870617561497,1.927737936613,1.55053313302378,0.136981102635112,12.7249661647618,119.870388191517
0.54,0.782101705859118,0.0069930241869048,0.485797139731922,-0.348910449715995,-0.183267830585687,0.760358391133705,-0.456501284521263,0.386450436826214,0.24545806000103,16.8609532759992,119.870388191517
0.55,0.772915846515383,0.021067949417534,-0.360287813248896,-1.05283465979215,-0.269941881834455,0.724550995250799,-0.841269075958193,-0.728377972670627,0.383884617026404,20.8968308372502,119.870388191517
0.56,0.680807536826918,-0.0331212888506916,2.95573921736734,1.65896859151272,-0.385015229348849,0.56245817190696,-0.13620725313516,3.38674160409417,0.551650948116876,24.8642461342481,119.870388191517
0.57,0.714940762974085,-0.0231031261846776,-0.0275487059325313,1.15815734489678,-0.503390673892965,0.508204563575593,0.867468008386717,0.76784544093359,0.748335987285598,28.7852279629351,119.870388191517
0.58,0.681592157900179,-0.0175126206198124,0.357219160784533,0.878701112952112,-0.573509287257718,0.368729791339323,0.198620050715839,0.927508086319749,0.973714978622062,32.7016292134836,119.870388191517
0.59,0.65535874562495,-0.0151307721430545,0.377833357853708,0.758416231362441,-0.622269872537813,0.206165543834383,-0.100746872112224,0.841310462350623,1.22778230673006,36.6147820492788,119.870388191517
0.6,0.632750298774415,-0.0318642482218641,0.259045828711001,1.59488167621231,-0.633518399805854,0.00653513743440094,-0.161929663521203,1.60764768732526,1.51016524342966,40.3771603423702,119.870388191517
0.61,0.585532777398775,0.0293135679882448,1.48884034070697,-1.46617041248097,-0.574808620064187,-0.11533849737373,-1.08331116957155,-1.78682347993096,1.81884338018898,43.7890053403587,119.870388191517
0.62,0.597963193215521,0.00438214462500452,-0.165348438451244,-0.218010117651319,-0.502340823876043,-0.324396177997762,0.257848865297806,-0.0915558854538632,2.15151984001317,46.9334885802167,119.870388191517
0.63,0.560085626427313,0.0070212081517507,0.754078979451654,-0.349251595390336,-0.337888032660462,-0.446740286608705,-0.16613970191898,-0.81425388152579,2.5065808861969,49.9167821350495,119.870388191517
0.64,0.552985924899919,0.0283359319747759,0.163723141689546,-1.41487817233913,-0.168727522062221,-0.527377835595165,1.32604221586618,-0.519901482424433,2.88314404369714,52.8165407363684,119.870388191517
0.65,0.531605640516599,-0.0141921119472444,0.2912744466684,0.713663930681735,0.0878163138265512,-0.524494297487116,-0.666345762103408,-0.387479463410534,-3.00239128445276,55.7032872818265,119.870388191517
0.66,0.524085018468973,-0.0116887635534782,-0.334271872811778,0.585376411770328,0.287661487990444,-0.438238065558158,-0.673562863275021,-0.0267637371634359,-2.58302772163314,58.724510489021,119.870388191517
0.67,0.43640264413867,0.0280044909607134,3.12412897624525,-1.40116204810227,0.351937113445653,-0.259560758792105,3.38561592476635,-0.510922455198255,-2.14217910116538,61.4844404069957,119.870388191517
0.68,0.459662180122689,-0.042759958176922,1.13045252679776,2.14091844416655,0.461567264869526,-0.00856702161197825,0.88562841168041,-2.25324588457194,-1.68211271661765,63.9988970982811,119.870388191517
0.69,0.450509708880053,0.00256457464552132,0.798221476570648,-0.125461536550339,0.421470781018522,0.15914759057535,0.70015301300375,0.403340899480785,-1.20405514541692,66.4048822130207,119.870388191517
0.7,0.453710871599942,-0.00263084415676362,-0.140724111639038,0.135672345241725,0.293247920153943,0.346216888199208,0.0114425804869695,-0.195139253385334,-0.708551994585131,68.7816670635387,119.870388191517
0.71,0.397135861139354,-0.0147745561368637,1.8695067534482,0.739744312010807,0.0626179399731024,0.392446395454797,1.08866511366121,1.69029151883271,-0.195409836515345,71.2424980460367,119.870388191517
0.72,0.392389240226993,0.0181378444037745,1.33951491613116,-0.907481703873515,-0.112040770651333,0.376490588139183,-1.29784941872973,0.966131533335882,0.335437839337976,73.5242549813936,119.870388191517
0.73,0.415619061324449,-0.0291635305571319,-0.499677973354984,1.46116069348073,-0.339399650347375,0.24165593929149,1.31448216237134,0.810435249749661,0.88200129471604,75.5715976103019,119.870388191517
0.74,0.366810862064848,0.0290333049696535,1.29072016599952,-1.44920802714042,-0.360138384766008,0.0754551863316796,-1.46457281133586,-1.27325917752115,1.44325252881833,77.548255812677,119.870388191517
0.75,0.325469713689294,-0.0350092325629677,2.68728346905131,1.75564062413711,-0.278137827767022,-0.172613816534718,-3.18268628250536,0.417461939952841,2.01907592427434,79.5703493328838,119.870388191517
0.76,0.383330236887116,0.0147452216007481,-0.885649515580593,-0.738066015219307,-0.207071991683421,-0.322925196186747,1.08521423614604,0.389135669061347,2.60984865783817,81.5856597184221,119.870388191517
0.77,0.343039471493191,0.0245532080256669,0.535039744387873,-1.22723047597486,0.00052024711132323,-0.343916659046378,1.26297023376885,-0.444149026622798,-3.06862633564105,83.3736386828811,119.870388191517
0.78,0.298770550024822,-0.0178397486600398,2.18188622737498,0.896199853728141,0.204020016401663,-0.218992993271139,0.698511001957612,-2.25297227394727,-2.45121545986049,85.0711489120981,119.870388191517
0.79,0.293896637755931,-0.0253887412287003,1.83990751358886,1.27408224583887,0.29102037757084,-0.0482385914382292,1.46675954912557,-1.69031406926983,-1.82123224752205,86.8262961805923,119.870388191517
0.8,0.319230555744072,-0.0199908965277868,-0.0126037291280819,0.999956193613071,0.287305050761636,0.140583041194546,0.370859471897033,-0.928727352476134,-1.17827261929862,88.5643299385339,119.870388191517
0.81,0.296049931368611,-0.00398220859959877,0.630188217941713,0.201144632105435,0.144514876111977,0.258412210297869,0.48918467814468,0.445302934782457,-0.523361171338947,90.0926538721332,119.870388191517
0.82,0.265888717769947,0.00491217467261099,1.64512320863767,-0.241695747717339,-0.0328824582173522,0.263893318670528,-0.472785543329487,1.59415213705643,0.142438618739563,91.5765580887767,119.870388191517
0.83,0.29067315982044,0.00170118894323081,-0.118632091789497,-0.0859436618243692,-0.211253065213677,0.199664524444493,0.0280249482144728,-0.143786259731969,0.819444824812721,93.136894849759,119.870388191517
0.84,0.249110474450744,-0.00517791482316632,1.4670377632366,0.259156830470362,-0.248939777293563,0.0105748079898405,-1.44772826028186,0.351347329466091,1.50755984410508,94.5765251757654,119.870388191517
0.85,0.247055985012048,0.02609607201312,1.13418633695259,-1.30262507752902,-0.214400808859897,-0.125498836110177,-0.140734678836844,-1.72145417880062,2.20560970340947,95.8738447688194,119.870388191517
0.86,0.219289852204516,-0.0118668676652142,2.06771125975993,0.598070986919385,-0.0380716017940278,-0.216285494115762,-1.05052490336533,-1.87870066443326,2.91329059661053,97.2173854865576,119.870388191517
0.87,0.264740939682162,0.00972874301286214,-0.660994359807701,-0.487537120280803,0.1158513110038,-0.238245435051976,0.119630149309541,0.812585143062232,-2.65225862622014,98.5492295604074,119.870388191517
0.88,0.203322114180039,0.0450072810045375,2.01368770637753,-2.25021740402274,0.175026662078411,-0.112832641641291,2.66995002556077,1.4105968258829,-1.92556157169381,99.7076124054015,119.870388191517
0.89,0.222746597300923,-0.0378337111805362,0.6557818435515,1.8975807537002,0.192785985113387,0.117817656803609,1.31333783043715,-1.51855401164656,-1.19047706726337,100.853731414755,119.870388191517
0.9,0.178994860366343,-0.0354994296324865,2.43747204330634,1.77466622351297,0.0453233711130566,0.176763009627995,2.65362260713935,1.43143187950273,-0.446786089815316,102.035751436739,119.870388191517
0.91,0.188530674607419,-0.0137398824586195,1.59315788192376,0.68851381812019,-0.0697443809768189,0.175693827324882,0.178084964061201,1.72640929679308,0.305137514241821,103.101467947126,119.870388191517
0.92,0.194986196700791,-0.0157062584573536,0.928308874706661,0.790139235249248,-0.178148000172982,0.080805900112157,-0.428775065879494,1.14115262818759,1.06458506058256,104.104633934213,119.870388191517
0.93,0.192800889580468,-0.0114425024498512,0.662059786757796,0.570974668973867,-0.183326905176377,-0.0607812448357731,-0.786922881719999,0.380903678214175,1.83165786704024,105.188617290162,119.870388191517
0.94,0.205012015798575,0.00593192429334033,-0.284157385151456,-0.296280647725441,-0.10966609829397,-0.17331607320902,0.3997773226932,0.0933045230038524,2.60636470107843,106.162687257296,119.870388191517
0.95,0.192530594335269,0.0204069355592388,0.0180375576610159,-1.01705957730871,0.0271714694625068,-0.191692942022545,0.990739426715047,0.230588216598523,-2.89518697215566,107.092216991818,119.870388191517
