t,iq,id,vq,vd,ia,ib,va,vb,theta_e,omega,r
0,0,0,0,0,0,0,0,0,0,0,0
0.01,0.000788429530209403,0.000431924583725576,-0.0375521790374357,-0.0216232046302008,-1.56177808768608e-05,-0.000898852632556202,0.00167426796262637,0.043300415191179,-2.65779123561672,-0.00380083777890899,0
0.02,0.000868492581464621,0.000478798527495645,-0.0418862238441793,-0.0239698196333006,-1.98971044133709e-05,-0.000991529878131286,0.00173686784930913,0.0482285319209666,-2.65781755711483,-0.00351447577358641,0
0.03,0.000895785060331592,0.000497060006808694,-0.0434363547483093,-0.0248840406111888,-2.33922658295683e-05,-0.00102418373672954,0.00182633015528153,0.0500259623508051,-2.65784066707295,-0.00302109036487356,0
0.04,0.000869433964749939,0.000486608389983154,-0.042434925708104,-0.0243608061041702,-2.64136701626658e-05,-0.000995994709971561,0.00182977427528272,0.0488960501472133,-2.65785850273071,-0.00237351554689628,0
0.05,0.000884777281783509,0.000497342910283589,-0.0433335830849014,-0.0248982086850825,-2.87959842585248e-05,-0.00101456966249743,0.00188832181257386,0.0499415103839895,-2.65787370131562,-0.00203437086320835,0
0.06,0.000881339678784011,0.000497744682662639,-0.0433274891104573,-0.0249183127919192,-3.0762976178461e-05,-0.00101171292262908,0.00190957421369217,0.0499454417473219,-2.65788612799247,-0.00166714676574817,0
0.07,0.000902207129024223,0.000511232736785089,-0.0444147299485254,-0.0255935526578004,-3.30090435653313e-05,-0.00103645888382791,0.00200221128467794,0.0512219613449109,-2.65789586594622,-0.00151195288874936,0
0.08,0.000876112460931926,0.000498263746376424,-0.043307868759463,-0.0249443007629294,-3.36716808594797e-05,-0.00100732617510981,0.00194260779980343,0.049940123267514,-2.65790419591467,-0.00113192865989469,0
0.09,0.000872736529981889,0.000497769857327814,-0.0432306834574251,-0.0249195870361349,-3.4810874934276e-05,-0.00100410760609374,0.00195694462442138,0.0498602865814522,-2.65791062762934,-0.00093287986068713,0
0.1,0.000870855344270981,0.000497749097428223,-0.0432069792854263,-0.0249185289460189,-3.5672489569205e-05,-0.00100243237583583,0.00196728802852915,0.0498387993597122,-2.65791577791874,-0.0007781127645384,0
0.11,0.000869384223094026,0.000497746664929012,-0.04318973593356,-0.0249184105896964,-3.63586003542846e-05,-0.0010011287239876,0.00197540798280309,0.0498234707705998,-2.65791991111613,-0.000654127922784009,0
0.12,0.00086820529959669,0.000497745250477815,-0.0431759737804859,-0.0249183470438293,-3.69089050438773e-05,-0.00100008425112561,0.00198191683518978,0.049811251108041,-2.65792322850572,-0.000554625418259733,0
0.13,0.000910667754962304,0.000521490635169701,-0.0451874510233432,-0.0261070903069261,-3.81878937958249e-05,-0.00104871823063453,0.0020990888106199,0.0521447957177528,-2.6579267384768,-0.000695293019240111,0
0.14,0.000952484489425862,0.000546734164307303,-0.047478063265939,-0.0273708606613747,-4.10929824887733e-05,-0.00109747725070173,0.00215285285014501,0.054760348149318,-2.65792949992178,-0.000853283625289043,0
0.15,0.000869210618796527,0.000499597719380252,-0.0433291263101109,-0.0250110828109861,-3.80900435674187e-05,-0.00100183538049902,0.00199322689308689,0.049989943956042,-2.65793187505682,-0.000318223608541921,0
0.16,0.000864969531296318,0.000497811527434487,-0.0431448468230037,-0.0249216599534096,-3.8481932500518e-05,-0.000997250092899797,0.00199980502691586,0.0497852158985793,-2.65793287587667,-0.000266342700508592,0
0.17,0.000864516209506302,0.000497743552458278,-0.0431331807941255,-0.0249182537341907,-3.8633317237724e-05,-0.000996817128320004,0.00200225232557844,0.0497733024844137,-2.65793363647931,-0.000242498658326398,0
0.18,0.000864291236689456,0.000497740733938059,-0.0431302221139329,-0.0249181237488101,-3.87360456341913e-05,-0.000996616625793496,0.00200354338367834,0.0497706215017245,-2.65793424494776,-0.000224199647570606,0
0.19,0.000864117433426742,0.000497740431930577,-0.0431281536224314,-0.0249180980974951,-3.8817086996847e-05,-0.000996462598438866,0.00200450686771289,0.049768777359844,-2.65793473322591,-0.000209551904886224,0
0.2,0.00086397808428696,0.000497740263780191,-0.0431264927080719,-0.0249180987344496,-3.88821288248865e-05,-0.000996339139236327,0.00200529929490098,0.0497673064629484,-2.65793512512658,-0.000197797092727526,0
0.21,0.000863866325578364,0.000497740131620812,-0.0431251568832303,-0.0249180992610723,-3.89342952580253e-05,-0.000996240125545507,0.0020059366006861,0.0497661234711114,-2.65793543967615,-0.000188362449257559,0
0.22,0.000863776690602135,0.000497740025645548,-0.0431240809880068,-0.024918079105942,-3.89761349923791e-05,-0.000996160712565128,0.00200643163416462,0.0497651611017947,-2.65793569214214,-0.000180789952448617,0
0.23,0.000863704629518157,0.000497739940586287,-0.0431232045214738,-0.024918079475604,-3.90097713641584e-05,-0.000996096869407817,0.00200684961975148,0.0497643849309632,-2.65793589477791,-0.000174712061151098,0
0.24,0.000863646887518717,0.00049773987231278,-0.0431224988413562,-0.0249180797876921,-3.90367240812793e-05,-0.000996045712296234,0.00200718614475725,0.0497637600107634,-2.65793605741881,-0.000169833780623361,0
0.25,0.000863600437800778,0.000497739817512787,-0.0431219201975428,-0.0249180771439698,-3.90584056078598e-05,-0.000996004559758001,0.00200745938098312,0.0497632462456961,-2.65793618795851,-0.000165918340253406,0
0.26,0.000872952603121184,0.000502783161497954,-0.0435557507404318,-0.0251705610328629,-3.91743722904367e-05,-0.0010066292879395,0.00202924537343809,0.0502647264837488,-2.65793621722561,-0.000217721746052638,0
0.27,0.000843158600658835,0.000486118926559893,-0.0421800751968281,-0.0243362977120677,-3.82767298927704e-05,-0.000972503433707781,0.00193040867678037,0.0486588907835051,-2.65793665611323,-3.77891073202264e-05,0
0.28,0.000840561101102255,0.000484176730849559,-0.0417624696197927,-0.0242390681580189,-3.77652607751973e-05,-0.000969300704869744,0.0020385293497228,0.0482439705248595,-2.65793673008334,-2.11021002590058e-05,0
0.29,0.000862420759968087,0.000497225852860981,-0.0430706594958106,-0.024892353081824,-3.91522528410983e-05,-0.000994721175543544,0.002008537434282,0.0497059023530339,-2.65793647687264,-0.00015119270078664,0
0.3,0.00085747197178292,0.000494713859611413,-0.0428268606566687,-0.0247665940635129,-3.9228507062383e-05,-0.000989171931222559,0.00201051616451711,0.0494315890900218,-2.65793530669556,-0.000156105141945668,0
0.31,0.000863536167313362,0.000497625444356468,-0.0431104871632101,-0.0249123389558371,-3.89863674602302e-05,-0.00099589450158211,0.00200766244437024,0.0497504575577882,-2.65793551464089,-0.000184404744666853,0
0.32,0.000863742231315947,0.000497735657920474,-0.0431228939791585,-0.0249178617768494,-3.89883491021656e-05,-0.000996128172454964,0.00200679404325523,0.0497640090661501,-2.6579357489703,-0.000179004134055505,0
0.33,0.000863687865697826,0.00049773975693457,-0.0431226974508377,-0.0249180716102492,-3.90174495536679e-05,-0.000996081941216323,0.00200708071607732,0.0497639322723711,-2.65793594022728,-0.000173344267791519,0
0.34,0.000863633848998034,0.000497739850769328,-0.0431220532335259,-0.0249180777276425,-3.90428044963568e-05,-0.000996034157846051,0.00200739335199098,0.0497633644827825,-2.65793609388505,-0.000168739042399186,0
0.35,0.000863590018629508,0.000497739804991494,-0.0431215072359114,-0.0249180779837502,-3.90632687849632e-05,-0.000995995328694527,0.00200765361580936,0.0497628809823139,-2.65793621722168,-0.000165039819280944,0
0.36,0.000863554802994769,0.000497739763660149,-0.0431210603042472,-0.0249180782052393,-3.90797067389476e-05,-0.000995964129185882,0.00200786656991996,0.0497624852177053,-2.65793631621526,-0.000162070583616303,0
0.37,0.000863526572279318,0.000497739730312083,-0.0431206962793824,-0.0249180783986552,-3.90928841736501e-05,-0.000995939117903599,0.00200803997355469,0.0497621628766765,-2.65793639567,-0.000159687387932935,0
0.38,0.000863503871291635,0.000497739703538906,-0.0431203949572226,-0.0249180785698503,-3.91034803777221e-05,-0.000995919005761507,0.00200818341912438,0.049761896067526,-2.65793645944232,-0.000157774570078094,0
0.39,0.000863485889945549,0.000497739682049933,-0.0431201580357021,-0.0249180581348565,-3.9111873998459e-05,-0.000995903074869514,0.0020082780481032,0.0497616767152949,-2.65793651062745,-0.000156239290530276,0
0.4,0.000863471279822708,0.000497739664801992,-0.0431199519693166,-0.0249180582738726,-3.91186936281124e-05,-0.000995890130890298,0.00200837604029762,0.0497614942667223,-2.65793655170994,-0.000155007033491655,0
0.41,0.000863459638290563,0.000497739650958197,-0.0431197838235108,-0.0249180584008728,-3.91241277438828e-05,-0.000995879816906206,0.00200845598454108,0.0497613453999565,-2.65793658468355,-0.000154017990542769,0
0.42,0.000863450208649526,0.000497739639846694,-0.0431196375458855,-0.0249180585189276,-3.91285292252469e-05,-0.000995871462635764,0.00200852542788188,0.0497612159020134,-2.65793661114899,-0.00015322415782366,0
0.43,0.000863442583445971,0.00049773963092872,-0.0431195102593268,-0.0249180586296833,-3.91320883482601e-05,-0.000995864707059355,0.00200858577360499,0.04976110322397,-2.6579366323906,-0.000152587006135181,0
0.44,0.000863436529849256,0.000497739623770553,-0.043119404424275,-0.0249180587340838,-3.91349140265882e-05,-0.000995859343809912,0.00200863592970332,0.0497610095424253,-2.65793664943944,-0.000152075610896257,0
0.45,0.000863431698613416,0.000497739618025232,-0.0431193138191748,-0.0249180588335401,-3.91371691834118e-05,-0.000995855063506061,0.00200867883175391,0.0497609293484267,-2.65793666312315,-0.000151665151195136,0
0.46,0.000863427798700148,0.000497739613414538,-0.0431192329665525,-0.0249180589292326,-3.91389895722434e-05,-0.000995851608336052,0.00200871706098175,0.049760857791978,-2.65793667410591,-0.000151335705097157,0
0.47,0.000863424655486469,0.000497739609713498,-0.0431191604137752,-0.0249180590218675,-3.91404567277833e-05,-0.000995848823580574,0.00200875132003904,0.0497607935863205,-2.65793668292076,-0.000151071282715762,0
0.48,0.000863422152557058,0.00049773960674304,-0.0431190961114886,-0.0249180591119151,-3.91416250529587e-05,-0.000995846606077057,0.00200878165358485,0.0497607366871202,-2.65793668999556,-0.000150859050137238,0
0.49,0.000863420173496593,0.000497739604359038,-0.0431190389973578,-0.0249180591998459,-3.91425488976804e-05,-0.00099584485268247,0.002008808573139,0.0497606861534201,-2.65793669567391,-0.000150688706506904,0
0.5,0.000863418485474432,0.000497739602445476,-0.0431189811546875,-0.0249180592865947,-3.91433367040867e-05,-0.000995843357206952,0.00200883577464282,0.0497606349764456,-2.65793670023113,-0.0001505519840857,0
0.51,4.60896631934331,-0.0283193528568173,9.55296094210648,1.44388281109132,-1.15943527792841,4.46083875015476,-0.946594365807764,9.61497891002356,0.248143350634461,76.3686531470002,4250.08397111988
0.52,4.58199384544407,0.0421513073484376,10.9032471563466,-2.05943195826332,-4.13635137712439,1.97155816991527,-10.7540888405568,2.73342857095426,1.13520831923665,167.946619093668,4250.08397111988
0.53,4.5493375939201,0.0564429324400519,12.5379484839763,-2.73594502911364,-1.99233893538825,-4.09026208385394,-2.8758475842502,-12.5066001799585,2.70072988829994,257.090202129155,4250.08397111988
0.54,4.47025784790345,0.040132923440467,16.4940362475039,-1.88941262283032,4.38028453590714,0.89326550519933,15.7370293231374,5.28857446539189,-1.36064856652776,347.178946601776,4250.08397111988
0.55,4.51242297951497,0.0578577587413434,14.3881307615415,-2.77594661113834,-4.50296695190313,0.297652979776132,-14.5153538706041,-2.00715928870793,1.51761200597829,437.713640451423,4250.08397111988
0.56,4.42764017416243,0.0918094787867556,18.6298099521484,-4.42033343543231,4.20694158353713,1.38349882723418,16.1052590956736,10.3551820840964,-1.23234373692036,525.849189494672,4250.08397111988
0.57,4.44799053703592,0.12084124137037,17.6149981079953,-5.8500042501404,-0.961634987903972,-4.34447701952904,2.40558681404508,-18.4044521828668,2.95091925111071,614.709320845553,4250.08397111988
0.58,4.41014510852421,0.141575099928748,19.5101399686826,-6.84719776261497,-4.38875135617055,0.45638242831097,-19.9495875318651,-5.43540579040782,1.49927074225752,702.908828580502,4250.08397111988
0.59,4.3583105320851,0.134977707106209,22.1049678512687,-6.53792178806986,-2.68545630974497,3.43531862917408,-19.1701994472944,12.8014639070496,0.694454907212477,791.443138806457,4250.08397111988
0.6,4.37422880033237,0.099659007339199,21.3123171196073,-4.75895604250958,-2.13392964404374,3.81970598209762,-14.9160622451322,15.9490943542443,0.532249452705715,879.01930919431,4250.08397111988
0.61,4.30551452690746,0.109878206251085,24.7514301108636,-5.24721037242391,-3.59006038348355,2.37928455729072,-23.760057463827,8.69633132654667,1.01103038173386,966.300209381542,4250.08397111988
0.62,4.34732736202396,0.140634449965826,22.6642913576061,-6.70495726907568,-3.76324371765477,-2.18106165952532,-15.6833377315667,-17.6821795127242,2.1283963582717,1052.91706492286,4250.08397111988
0.63,4.24214896577309,0.147566038374066,27.9269311377147,-7.08512315585709,2.75642087134346,-3.22796337704028,24.0872560653682,-15.8087491012319,-2.40005585454472,1139.94355445144,4250.08397111988
0.64,4.23562866059879,0.156712864540529,28.2568072119788,-7.52473268242551,0.2052877803665,4.23355240898593,-7.20011494210566,28.3412614500019,-0.011470857170125,1226.32673043987,4250.08397111988
0.65,4.14867262068734,0.151946837755336,32.6085546209503,-7.22208707206997,-0.695886486105012,-4.09271479016081,2.87371530658036,-33.2748874751033,3.00978186606486,1312.26785671659,4250.08397111988
0.66,4.12719803937768,0.190313431548678,33.6864680805432,-9.19084744223241,-1.34678691477097,3.90591191204724,-20.9777943843943,27.9138308229795,0.378120708163601,1398.26053016276,4250.08397111988
0.67,4.07709909643366,0.285990639672118,36.1957091348665,-13.8740511806113,-3.35284602270667,2.33729571003335,-38.1868704717087,6.6619501285302,1.03204486437052,1483.58867227915,4250.08397111988
0.68,4.01237439962788,0.270631688679255,39.4363464322397,-13.1850543642311,1.61307327576129,3.68380027155807,0.945096910852326,41.5713587742866,-0.34538455607706,1569.08109019549,4250.08397111988
0.69,4.11089279787167,0.243115900421402,34.514894857199,-11.70700167757,3.77014343809786,1.65667238547593,25.3897555020091,26.1475079277228,-1.0977057413726,1654.11466551371,4250.08397111988
0.7,3.98854444590709,0.223790474805671,40.6369277291542,-10.7979971152054,3.83074413773384,1.13312326108323,34.6229022478776,23.8581490668995,-1.22715025051789,1739.11079382573,4250.08397111988
0.71,3.97342176696009,0.246317749338156,41.3976857642337,-11.9103818643223,2.84761384035311,2.78205830061497,18.9303057328669,38.6945617322177,-0.735130167583564,1823.81752380731,4250.08397111988
0.72,4.01383241146664,0.282111386105528,39.3816889257584,-13.6144286223201,-1.2134926841121,3.83638801050114,-27.1409340059951,31.6170806786406,0.376522662967025,1908.03554071295,4250.08397111988
0.73,3.85485250006761,0.307811482578712,47.3352151331882,-14.9688253395951,-3.47318363444734,-1.70047968158751,-33.0901504268443,-37.0098671772992,2.10577278580828,1992.19917780149,4250.08397111988
0.74,3.8729872253458,0.3930774874592,46.4328750398209,-19.0627126602156,-2.57790504684729,2.91700968943853,-47.0407193545625,17.5091296481251,0.824909608258293,2075.75539034521,4250.08397111988
0.75,3.74179945764895,0.321568184673579,48,-15.556564651374,1.97654631181167,-3.19338910186653,41.142222255444,-29.2117142878679,-2.50162734750819,2159.26609740597,4250.08397111988
0.76,3.85899696059747,0.377763472910696,47.1409742976097,-18.3733307119423,-3.1924827794217,2.20059457566858,-50.1394444892381,6.77398298557912,1.06486500425956,2242.15370431128,4250.08397111988
0.77,3.7736271890126,0.379289624042105,48,-18.4974434878786,3.45657387921668,1.56083945301178,32.2915460331286,40.0426206731977,-1.04647432050207,2324.48491001952,4250.08397111988
0.78,3.87473061101862,0.523933819146053,46.3627593671575,-25.6600779861671,1.70373686258919,-3.51927899687769,47.0010233278226,-24.4713886923198,-2.55633040920897,2406.25278073261,4250.08397111988
0.79,3.8235116750488,0.449600488159522,48,-21.9642625748322,-1.65149180045039,-3.47763669195517,5.41900438535488,-52.5077443995424,2.81528564780268,2487.72494266605,4250.08397111988
0.8,3.71433384739799,0.359651737795069,48,-17.2956750080388,3.50858496936121,1.27100622154181,35.9136622452316,36.2401605697205,-1.12671780906972,2568.5075189836,4250.08397111988
0.81,3.7265825937452,0.236557124088148,48,-11.1888046119183,2.95889302152443,2.27779041795675,28.7308293738388,40.0465827772488,-0.851342599325368,2649.18687378272,4250.08397111988
0.82,3.68245914767672,0.419578441746947,48,-20.3253137663967,0.37105230762512,3.68766479334725,-20.9556043131204,47.7281995006558,0.0131681456934016,2729.28793057136,4250.08397111988
0.83,3.76056627071581,0.462357613583779,48,-22.3488934942892,-3.68920027793028,0.863385515632202,-50.1217893460705,-17.066905787729,1.46323826859871,2808.95180902386,4250.08397111988
0.84,3.7650304825963,0.226905516543609,48,-10.6759129604473,1.09528550476605,-3.60933377666386,26.687181946146,-41.3009616996063,-2.78677154323852,2888.43835660093,4250.08397111988
0.85,3.72058491416719,0.0610186850563359,48,-2.42427984788519,-2.32312972079657,-2.90680988091862,-27.4298831479912,-39.4649039434839,2.48373700517685,2967.22139557237,4250.08397111988
0.86,3.74719000545549,0.123185363938152,48,-5.47550318573998,2.25071316650957,2.99848258507108,23.0535599681856,42.4560302893513,-0.611033890885648,3045.47593379338,4250.08397111988
0.87,3.5715992061581,0.320863932250296,48,-15.2384912976687,-0.288791584195114,-3.57433545898344,15.6687354233578,-47.861282340342,-3.13261632391238,3123.46755173777,4250.08397111988
0.88,3.76055574753085,0.632492737189552,48,-30.9392000312749,-3.27675629389741,1.95056268376295,-55.9432986949225,-11.4708948956007,1.20049196251192,3201.43733481928,4250.08397111988
0.89,3.66195527559069,0.00610653581263598,48,0.371505218600885,-2.26046312505722,-2.88101721453772,-29.8591943080026,-37.5841260561476,2.4779766519477,3279.05323629713,4250.08397111988
0.9,3.76147515899762,0.67223049464963,48,-32.8747072701096,-3.80781114894719,0.318062043706169,-44.7205761686268,-37.2131219496759,1.66430853189914,3355.98588626132,4250.08397111988
0.91,3.61769090043033,0.413777592437467,48,-19.7868422150452,-3.50901806777481,0.972466733153203,-50.4970072646977,-12.0652966044007,1.4143289148354,3432.64143909487,4250.08397111988
0.92,3.71736045964559,0.0363147530036543,48,-0.972961219501912,3.5050788319622,-1.23875337737287,45.7260930221994,-14.6311677749872,-1.90074307281465,3508.9003234779,4250.08397111988
0.93,3.64910426261309,0.0271752408755468,48,-0.557505088503352,3.14597729486729,1.84919638581659,40.912401156024,25.1094851315648,-1.0319508952652,3584.9432579096,4250.08397111988
0.94,3.70638796453334,0.112623489672144,48,-4.70720402087299,-1.31381834380899,3.46754627273156,-22.7115052453763,42.5481527117614,0.392553618304947,3660.50415638008,4250.08397111988
0.95,4.0301218365002,0.805405446228321,38.6658891954171,-39.4905747983514,-3.38935595438913,-2.32439802191814,1.30026186212397,-55.252744766811,2.36917179514679,3735.62096664284,4250.08397111988
0.96,3.03028461788976,0.418606788360512,48,-20.1228399851877,-2.75390178944744,1.33187140623973,-51.8648339253275,-4.35519126648543,1.25760200971726,3805.20394006334,4250.08397111988
0.97,2.67438080026214,-0.0740281564878282,48,4.40660840753284,2.41618018035765,-1.14885428528191,40.7606181774566,-25.729170282948,-2.04231266087944,3863.92115642,4250.08397111988
0.98,2.08229017084051,0.421568356843721,48,-20.5240895615815,-1.92717055550117,0.894240395576164,-51.4568982589222,-8.79919734423254,1.33610121883437,3913.3168189307,4250.08397111988
0.99,1.61818348194276,0.177502222247289,48,-8.38218444871503,-1.5735839567838,0.416963249085275,-48.713370397173,-1.12630399098675,1.42102773691406,3954.70717336485,4250.08397111988
