t,iq,id,vq,vd,ia,ib,va,vb,theta_e,omega,r
0,0,0,0,0,0,0,0,0,0,0,0
0.01,0.000462541194762508,0.000261447298848104,-0.0224748796467188,-0.0130812366308932,0.000511554254522883,-0.000143566331731489,-0.0249464752963377,0.00734250210875913,-1.3299359010821,-0.00235353757103362,0
0.02,0.000548227549485654,0.000308393509246469,-0.0267060017194587,-0.0154301332675328,0.000605962459534525,-0.000168729073355085,-0.029615600529754,0.0086148561076543,-1.32995438545551,-0.00265809468213114,0
0.03,0.000580481406035511,0.000326387136378864,-0.0282967946544964,-0.01633042489534,0.000641573786833636,-0.000178522552061376,-0.0313750410914436,0.00911033267731232,-1.32997370331158,-0.00267309566270405,0
0.04,0.000568561741826612,0.00031997443704618,-0.0277551039109547,-0.0160095785717432,0.000628465477155892,-0.00017514918970737,-0.0307722977908637,0.00892849863208342,-1.32999187626373,-0.00246350060865196,0
0.05,0.000582096154796695,0.000328026557576109,-0.0284397198194016,-0.0164124566852584,0.000643526535233048,-0.000179752480804241,-0.0315330800768517,0.00915703329241541,-1.33000934725432,-0.00239430156490018,0
0.06,0.000583457209624299,0.000329167493706,-0.0285357892692299,-0.016469549535311,0.000645117388927532,-0.000180546694454886,-0.0316398394701747,0.00919009735615112,-1.33002602551996,-0.00226705563978511,0
0.07,0.000593733292077169,0.000335506836183145,-0.0290596731590628,-0.016786729561086,0.000656605814977659,-0.000184263026632965,-0.0322240980595145,0.00937370778931089,-1.33004154550481,-0.00219633673502619,0
0.08,0.000583970265584132,0.000330225435743535,-0.0286161742184412,-0.0165224729079118,0.000645862375450852,-0.000181471489428484,-0.0317302438712602,0.00922329451786148,-1.33005654010571,-0.00202377914670586,0
0.09,0.000581932249170719,0.000329473831128427,-0.0285433421894484,-0.0164848663190064,0.000643701403860138,-0.000181236449677824,-0.0316504175167542,0.00920457885590618,-1.33007049651823,-0.00190048190006246,0
0.1,0.000581092360878702,0.00032936541008685,-0.0285267440196266,-0.0164794485516403,0.000642857508227749,-0.000181339817327779,-0.0316328856751553,0.00920368908590536,-1.33008360460458,-0.0017903663094953,0
0.11,0.000580464759462005,0.000329348400023345,-0.0285189619997742,-0.0164785979487107,0.000642241709023248,-0.000181480833054396,-0.031625011754498,0.00920510811602336,-1.33009593391211,-0.00168765193964295,0
0.12,0.000579898800497206,0.000329344462161456,-0.028512820084876,-0.0164783948954293,0.000641689020575141,-0.000181619366940405,-0.0316188917072936,0.00920674180829771,-1.33010753342569,-0.00159114697878061,0
0.13,0.00060361601684759,0.000343094573946063,-0.0296772635728879,-0.0171663739340323,0.000667998060407613,-0.000189327160644868,-0.0329136551167487,0.00959769108032769,-1.33011884141402,-0.00162553229797596,0
0.14,0.000618591126930294,0.000352039542591127,-0.0304866529513316,-0.0176139276518694,0.000684671566295648,-0.000194452225934611,-0.0338062881200027,0.00983978348580866,-1.33012964491749,-0.00161770937014946,0
0.15,0.000584326531599276,0.00033256156764286,-0.0287854062663456,-0.016639366581818,0.000646750036007851,-0.000183709234192948,-0.031921690294019,0.00929913022467274,-1.33013991586731,-0.00135353483773161,0
0.16,0.000578794634933345,0.000329795169040818,-0.0285351982926592,-0.0165009553149582,0.000640716556076932,-0.000182346861007263,-0.0316456199882101,0.00922463026193602,-1.33014901411477,-0.00125090732646169,0
0.17,0.000577616808274472,0.000329401320496099,-0.0284938405384436,-0.0164812470526817,0.000639477258808943,-0.000182250494133657,-0.0316006788065681,0.00921561457559382,-1.33015748898334,-0.00117635276441514,0
0.18,0.000577115898750537,0.000329344359744985,-0.0284841903888433,-0.0164783906061932,0.000638975756089827,-0.000182319639687853,-0.0315905525996573,0.00921539177281343,-1.3301654497155,-0.0011095257151937,0
0.19,0.000576736023399467,0.000329335287388163,-0.0284795137092463,-0.0164779397070907,0.000638603297868875,-0.000182406140676983,-0.0315858341991402,0.00921630490218768,-1.33017293763506,-0.00104715171325123,0
0.2,0.000576392470069339,0.000329333071612219,-0.0284757794574753,-0.0164778292342423,0.000638267828831198,-0.000182490356702161,-0.0315821162734917,0.0092173100019079,-1.33017998235367,-0.000988542546031113,0
0.21,0.000576071384958459,0.000329331883875914,-0.0284723678120724,-0.016477766763286,0.00063795450067493,-0.000182569946524109,-0.0315787269284661,0.00921827163347653,-1.33018661033512,-0.000933411469262519,0
0.22,0.000575769467639075,0.000329330893518646,-0.0284691643486044,-0.0164777252853515,0.000637659905783469,-0.000182644906437027,-0.0315755483740038,0.0092191916222794,-1.33019284626601,-0.000881543096369136,0
0.23,0.000575485635437469,0.000329329979596664,-0.0284661597895912,-0.0164776700635371,0.000637382959781629,-0.000182715392444141,-0.031572563110399,0.00922003918262813,-1.3301987133425,-0.000832742982981969,0
0.24,0.000575218526298633,0.000329329122098748,-0.0284633278155591,-0.0164776300006729,0.000637122331242013,-0.000182781724174616,-0.0315697522639843,0.00922084935164395,-1.33020423338252,-0.000786829422801532,0
0.25,0.000574967191432481,0.000329328315507389,-0.0284606602667592,-0.016477588459695,0.00063687709376752,-0.000182844135954443,-0.0315671037578548,0.00922160856943028,-1.3302094269133,-0.000743631643881678,0
0.26,0.000579574918086242,0.000332099218206415,-0.0286916075137551,-0.0166162376806827,0.000642011456104343,-0.000184440414873659,-0.0318243910540297,0.0093013886288286,-1.33021422157768,-0.000729370771593116,0
0.27,0.00056731542841241,0.00032511595148206,-0.0281091642012628,-0.0162668343329399,0.000628440283443907,-0.000180582356191803,-0.0311754267425553,0.00910097680078551,-1.33021906196248,-0.000625455771711612,0
0.28,0.000566849988364997,0.000324975631044768,-0.0280297089267963,-0.0162598057073901,0.00062795403362138,-0.000180559690243921,-0.0310965456524562,0.00911321637226441,-1.33022338721258,-0.000588123780285255,0
0.29,0.000572979057860222,0.000328707906210207,-0.0283973359878725,-0.0164465504219246,0.00063479512521069,-0.000182726673915525,-0.0314980430413468,0.00920711662544218,-1.33022732324583,-0.000588837257651161,0
0.3,0.000566254226104597,0.000325131860729822,-0.0280786409128361,-0.0162676231613425,0.000627411380355752,-0.000180857776285794,-0.0311458670324718,0.00910936911245937,-1.33023041566344,-0.000528310574004449,0
0.31,0.000572620720546068,0.000328729213306481,-0.0283920751921106,-0.0164476134683594,0.000634450975367431,-0.000182836935915891,-0.0314931261589635,0.00920961059191029,-1.33023393168672,-0.000533666806188223,0
0.32,0.000573440990946638,0.000329239464295348,-0.0284378455437552,-0.0164731420267544,0.000635368566226917,-0.000183139236642783,-0.0315436291428452,0.00922360709824235,-1.33023734914463,-0.000510459003751767,0
0.33,0.000573433220565887,0.000329311475899401,-0.0284433419751397,-0.0164767436740137,0.000635377583931571,-0.000183213079349936,-0.0315497955644394,0.00922589749867045,-1.33024058095693,-0.000484364717651348,0
0.34,0.00057330823213568,0.000329321297234327,-0.028442840353343,-0.0164772442544901,0.000635257976645879,-0.000183254328610327,-0.031549399568298,0.00922659918213426,-1.3302436240961,-0.000459171681270535,0
0.35,0.000573173155554734,0.000329322313337254,-0.0284415246129667,-0.0164772903422869,0.000635126506626594,-0.000183289314720393,-0.0315481062710497,0.00922704774261885,-1.33024648760922,-0.000435371970302251,0
0.36,0.000573043160399075,0.000329322101718592,-0.0284401442552378,-0.0164772875153216,0.000634999710087218,-0.000183321789620491,-0.0315467401238516,0.00922745884192841,-1.33024918180252,-0.000412965404962125,0
0.37,0.000572920656546255,0.000329321736817899,-0.028438834535138,-0.0164772608172141,0.000634880181694766,-0.000183352229136627,-0.0315454383621432,0.00922782489515693,-1.33025171664382,-0.000391881980744086,0
0.38,0.000572805213287564,0.000329321369931393,-0.0284375912801156,-0.0164772477551186,0.000634767537486533,-0.000183380888906624,-0.03154420578238,0.00922818362178239,-1.33025410155069,-0.000372045303857069,0
0.39,0.000572696638532712,0.000329321021372065,-0.0284364217490188,-0.0164772346676214,0.000634661594140122,-0.000183407840147926,-0.0315430460982426,0.00922852030523181,-1.33025634539152,-0.000353381911427933,0
0.4,0.000572594565565152,0.000329320692926289,-0.0284353235360339,-0.0164772064497857,0.000634561994414255,-0.000183433177340412,-0.031541953298072,0.00922882111268963,-1.33025845650923,-0.000335822446482906,0
0.41,0.000572498447249302,0.000329320383814305,-0.0284342842931717,-0.0164771933181755,0.000634468205318801,-0.000183457035128128,-0.0315409225155173,0.00922911858085976,-1.33026044275501,-0.000319301618396727,0
0.42,0.000572408033284076,0.000329320092953709,-0.0284333056492891,-0.0164771801649391,0.000634379982162878,-0.000183479476841988,-0.03153995166547,0.00922939788250419,-1.33026231151479,-0.000303757993027368,0
0.43,0.000572322916215849,0.000329319819275656,-0.0284323804652855,-0.0164771669915972,0.000634296927708547,-0.000183500602977381,-0.0315390337507581,0.00922966093961599,-1.33026406973774,-0.000289133769222426,0
0.44,0.000572242863211276,0.000329319561767264,-0.0284315096502982,-0.0164771523436085,0.000634218814397688,-0.00018352047221717,-0.0315381692476537,0.00922990632974314,-1.3302657239623,-0.000275374564630481,0
0.45,0.00057216758323744,0.000329319319474372,-0.0284306904070314,-0.0164771391323288,0.000634145358231398,-0.000183539156913198,-0.0315373560762919,0.00923013774132141,-1.33026728033989,-0.000262429213585938,0
0.46,0.000572096727045692,0.000329319091498795,-0.0284299163219374,-0.0164771259038685,0.000634076218749512,-0.000183556743102252,-0.0315365876081166,0.0092303554731053,-1.33026874465784,-0.000250249576853952,0
0.47,0.000572029904648528,0.000329318876995597,-0.0284291782958488,-0.0164771248421049,0.000634011015999662,-0.000183573326354681,-0.0315358578581081,0.00923057369791672,-1.33027012236179,-0.000238790362622802,0
0.48,0.000571967255736797,0.000329318675168867,-0.0284284931559973,-0.0164771115799314,0.000633949884529512,-0.000183588875902324,-0.0315351773172985,0.0092307649035513,-1.33027141857487,-0.000228008958080585,0
0.49,0.000571908273907563,0.000329318485270183,-0.0284278447535782,-0.0164770983033586,0.000633892331458075,-0.00018360351473548,-0.0315345331602438,0.00923094492441432,-1.33027263811738,-0.000217865270952562,0
0.5,0.00057185268559164,0.000329318306595433,-0.0284272281035344,-0.0164770986467396,0.000633838090097385,-0.00018361731023777,-0.0315339237514436,0.00923112833314008,-1.33027378552397,-0.000208321580411908,0
0.51,4.73752946527354,-0.00201675660506107,3.12430257540432,0.109109920842671,-0.654452352069912,4.69210844083045,-0.322210210544901,3.1095581901172,0.138159590039725,42.9537072606066,4283.2385437534
0.52,4.6952343158013,0.00837920248313362,5.23991127517769,-0.40144789576766,-2.7701031883149,3.79101883632883,-3.42270595065314,3.98784585460799,0.632819856936438,92.0981614777581,4283.2385437534
0.53,4.68968908293345,-0.0237724593942741,5.51806205493131,1.21788044722155,-4.67776998567305,0.334987739398337,-5.40874869403995,1.63636157083892,1.49423662304221,143.610042255392,4283.2385437534
0.54,4.70940974054747,-0.000255905876481499,4.53300393160498,0.0475104109375872,-1.7985435017888,-4.35244545537615,-1.77530924775214,-4.17116997471206,2.74968248838052,198.355891685899,4283.2385437534
0.55,4.64990908938256,0.0308563624324747,7.50900302530767,-1.49714492207435,4.39554518815481,-1.51716484058726,7.59325651064586,-0.984390631460369,-1.89651673054131,247.82549361879,4283.2385437534
0.56,4.64627413587775,0.0179907516494356,7.69180838238757,-0.848855996910115,-0.496686050888677,4.61968505200561,-1.69548759396166,7.55048306491578,0.110975770544377,300.944328666883,4283.2385437534
0.57,4.71122109890221,0.0251670238830655,4.44555380725674,-1.19081063017243,-2.83772875341322,-3.76078889913863,-1.70429217514102,-4.27508675840616,2.5005234615474,350.709230028193,4283.2385437534
0.58,4.65323661804587,0.0597620168977573,7.34591811056945,-2.91715886312098,3.98680454531265,2.40032748591959,4.70751158829421,6.34914666439147,-1.01601521569383,403.010530047651,4283.2385437534
0.59,4.64014127803251,0.0133547551280335,8.00186443827302,-0.589573341429974,-3.95139351509605,-2.43260739093726,-6.49146984072063,-4.71574495922308,2.12550937602213,454.906224230424,4283.2385437534
0.6,4.67362812748666,0.0702724356463141,6.32875530298349,-3.4296314791213,2.84487508432547,3.70869570655646,1.02369249571179,7.1251364507527,-0.639309668724649,506.244922322682,4283.2385437534
0.61,4.6305438994037,0.0469685032164466,8.48429170023955,-2.25581953005045,0.479252194456253,-4.60591578067903,3.20483141118891,-8.17318683456873,-3.02777145316676,557.412594463256,4283.2385437534
0.62,4.64835829052584,0.0236983233496924,7.59491703707801,-1.08050649501118,-4.392663687715,1.52062557332827,-7.53787271039426,1.42503827589041,1.24263227633605,608.462149637785,4283.2385437534
0.63,4.66810397315297,0.0498085003917068,6.60898904450765,-2.37203920838162,1.84311396322604,4.28912654388268,0.355143602749287,7.01278683676811,-0.395190299827748,659.18984430526,4283.2385437534
0.64,4.63297255059072,0.0268904369221807,8.36699991081473,-1.21032516290944,4.61270212720576,-0.433747433187062,8.44097310688614,0.470688343142735,-1.65874981762999,709.990500821629,4283.2385437534
0.65,4.60702661337653,0.0482684785428338,9.6657513454756,-2.28801371385387,2.54045340919797,-3.84358173297705,7.30931317750948,-6.72574878362499,-2.54707453921789,761.8308689513,4283.2385437534
0.66,4.60981016787288,0.0510515508089646,9.52813788399,-2.40294066106783,0.317734331624776,-4.59913045468066,3.15716103475778,-9.30547524619488,-3.061542419016,812.070267818943,4283.2385437534
0.67,4.64265079571398,0.0427039712594439,7.88770697089642,-1.98958847796939,-0.326161799792,-4.63137652544699,1.50415388543892,-7.99449214517817,3.08048228603689,863.597450005963,4283.2385437534
0.68,4.56862619889161,0.0702313890674897,11.5905800569487,-3.35857092025285,0.706243744359131,-4.51425492930591,5.27716498953391,-10.8523303652323,-2.97103182830364,914.233615916759,4283.2385437534
0.69,4.61424792463751,0.075422412130687,9.31111174985503,-3.59342247397345,3.17649990352055,-3.34765900491779,9.08447512871952,-4.13301327489066,-2.36607904280046,964.794517721008,4283.2385437534
0.7,4.60784009349424,0.0762812641585255,9.63322697603171,-3.6307345137714,4.54526567623225,0.760637292630101,8.81503542283152,5.31756011488929,-1.38843246678917,1015.63929667227,4283.2385437534
0.71,4.61528795484151,0.11949810944363,9.26258379654194,-5.78488014947042,0.298411037311025,4.60718065166504,-5.4212804392364,9.47997971152107,-0.0387944911687191,1066.42111044209,4283.2385437534
0.72,4.60547397754786,0.102713278635645,9.75505920877035,-4.93386916714142,-4.58808667346371,-0.412796865617093,-9.14232919959291,-5.99350164189139,1.68282492937431,1117.10184878075,4283.2385437534
0.73,4.53907825167543,0.111963551486905,13.0766829440573,-5.38847621919741,2.59977717142002,-3.72248920356497,12.0898515466285,-7.33967317833291,-2.50728141687681,1167.83572605009,4283.2385437534
0.74,4.55554703353826,0.110678564893965,12.255151686265,-5.34283344288154,0.305695052356963,4.54662611773507,-4.81303168664251,12.4727438053987,-0.0428439785053907,1218.81206882451,4283.2385437534
0.75,4.61574231258292,0.104731296429366,9.24731849057502,-5.01772899903242,-1.67825356481656,-4.30110575466363,1.5495437772264,-10.4062201426032,2.79225677264837,1269.09457863432,4283.2385437534
0.76,4.52368755633534,0.11848274406374,13.8520200223363,-5.70437073509833,1.38846490733198,4.30696557556381,-1.56966118511696,14.89813639173,-0.285671652592402,1319.65193100789,4283.2385437534
0.77,4.58439458943378,0.147423588315086,10.8186987388009,-7.13806015371891,0.531796292706886,-4.55583144651826,8.65872612187232,-9.6448228135849,-2.99324320208355,1370.04385169286,4283.2385437534
0.78,4.55999399081844,0.128115102582178,12.0408460891393,-6.1842069979217,-3.63897829702645,2.75096267324375,-13.3945468459085,1.95256383461496,0.951572676172756,1420.64717320151,4283.2385437534
0.79,4.51415252428916,0.176765073722379,14.3350291576481,-8.58117748337818,3.93382982037744,2.22121629927016,7.68893037169545,14.8327346666445,-1.01764114463325,1470.7250142123,4283.2385437534
0.8,4.5320435418185,0.191786886869331,13.442642957053,-9.32367330070028,4.40544486353975,1.0808591162705,10.3058435197035,12.7053186829919,-1.28790975583263,1520.91114723688,4283.2385437534
0.81,4.55121887801333,0.149087894078767,12.4860967544953,-7.17977686394811,2.52995390884416,-3.78617930041222,13.1091765806231,-5.96668227382242,-2.51977790056311,1571.1592841138,4283.2385437534
0.82,4.52935031146699,0.113449448355058,13.5817200730525,-5.38799933431904,-1.19455186941681,-4.37046117161462,1.9796097966488,-14.4766985885039,2.89982767043392,1621.41682642876,4283.2385437534
0.83,4.48815492134394,0.159720550754577,15.643807128802,-7.6953737539209,-3.13617174304438,-3.21457183003384,-4.82346245387161,-16.7535574924188,2.40411100588737,1671.58661371882,4283.2385437534
0.84,4.47734820351334,0.161844935624311,16.1864935122051,-7.83494970104052,-3.51463951040377,-2.77851576036562,-7.24907695190917,-16.4572139921614,2.27588328306421,1721.93902105271,4283.2385437534
0.85,4.53485760105758,0.152141462675397,13.3134088275841,-7.32231118776844,-2.78320089997251,-3.58355594862518,-1.87879228320824,-15.0775739194829,2.51478371877344,1771.91282158998,4283.2385437534
0.86,4.52195741646071,0.190612962899643,13.9608163527824,-9.21430520106057,-0.286793033160072,-4.51687745395425,8.91514509472751,-14.1537274777482,3.12031193724414,1821.75418371879,4283.2385437534
0.87,4.47027882796841,0.156411404231735,16.5471623909358,-7.53198384334271,3.54836427985432,-2.72341114498165,17.8449803011358,-3.47793643709158,-2.19043613817195,1872.01636639712,4283.2385437534
0.88,4.46922859108104,0.194461452294727,16.6021300554753,-9.399749170673,3.49071258492332,2.79763205322336,6.29958645527512,18.0083652046208,-0.851688022660803,1921.84341379863,4283.2385437534
0.89,4.48002805977781,0.178589106623897,16.0646624193635,-8.60017589147506,-3.25831638125215,3.07992205178396,-17.7589282351307,4.08128312567235,0.853378756686265,1971.69502743584,4283.2385437534
0.9,4.5044312751088,0.204709204272809,14.8470982734872,-9.91591502891038,-1.17254346791135,-4.35395783010708,6.47597012893091,-16.6380139707945,2.92394345979561,2021.65677602869,4283.2385437534
0.91,4.48770994891283,0.170667605697533,15.6858142677464,-8.21658742183266,3.68335952111393,2.56934440187085,7.56120951456415,16.0120326248643,-0.923701771118165,2071.48613759106,4283.2385437534
0.92,4.44200180710993,0.191559214653986,17.9738696272895,-9.26020872293728,0.0971749531797773,-4.44506828019112,10.4073633892286,-17.3348851238105,-3.07663701847171,2121.25366709765,4283.2385437534
0.93,4.48369236395466,0.226672394550384,15.892007092273,-10.999869784903,-0.170325482239751,4.48618622207509,-12.3608382014711,14.8580854642424,0.0884602742910708,2170.95395137971,4283.2385437534
0.94,4.440016766259,0.201853214952515,18.0784814254108,-9.73709570105571,1.8569870830711,-4.03808030855687,16.9440822752036,-11.599163728113,-2.66513123547481,2220.55034595787,4283.2385437534
0.95,4.41858850307271,0.1783980580978,19.1526426955612,-8.53996402553792,-4.10245732151172,1.6509373555027,-20.9078920433548,-1.61702136186729,1.2285524584329,2270.13940006879,4283.2385437534
0.96,4.42758817315832,0.143284783769597,18.7054808452747,-6.82701938264057,3.26783118474084,2.99087728072995,8.6130759322112,17.9532206105159,-0.797269757863898,2319.94733543794,4283.2385437534
0.97,4.43918949375301,0.25941811168674,18.1282442867278,-12.5876172706958,2.59662978714137,-3.60987740327125,21.1986641911389,-6.13986856407573,-2.45965077153352,2369.30042682666,4283.2385437534
0.98,4.41895646415547,0.245015763979658,19.1427979197956,-11.9050995369862,-2.7577476547325,-3.46150788378668,-1.37324846627248,-22.5009398877816,2.52426325879269,2418.99061305538,4283.2385437534
