t,iq,id,vq,vd,ia,ib,va,vb,theta_e,omega,r
0,0,0,0,0,0,0,0,0,0,0,0
0.01,0.0013598161712184,0.00077699939524355,-0.0670987958901059,-0.0389337396199449,0.00118798639984385,0.00102054710498926,-0.0591791316280309,-0.0501588962243783,-0.341943283355074,-0.00190545099466137,0
0.02,0.00152828746115261,0.000874069160618765,-0.0755870983461498,-0.0437976867159642,0.00133594390903631,0.00114669670504884,-0.0666085568665841,-0.0565238617772292,-0.341957301262023,-0.00206142031838893,0
0.03,0.00156332122445186,0.00089415288127867,-0.0773317600431716,-0.044804039277489,0.00136662942835317,0.00117294783834564,-0.068142506062608,-0.0578290749922638,-0.34197154893267,-0.00202116951111211,0
0.04,0.00154482848608606,0.000884029451026961,-0.0764582493010936,-0.0442967530713958,0.00135090588326413,0.00115890310909426,-0.0673724135176474,-0.0571753803281055,-0.34198461394577,-0.00191038448161853,0
0.05,0.0015624153644226,0.000894185214357503,-0.0773475578439797,-0.0448056510039255,0.00136638668198642,0.00117204795287971,-0.0681508307638017,-0.0578416401264436,-0.341997629840347,-0.00185257135017819,0
0.06,0.00156202560946136,0.000894223273638848,-0.0773571567356904,-0.0448075611727156,0.00136630640898362,0.00117165099944514,-0.0681565695505712,-0.0578491941480171,-0.342010077025488,-0.00177216942565011,0
0.07,0.00160220196366383,0.000917306661670236,-0.0793473907527211,-0.0459642114993067,0.00140154144720872,0.00120174215856352,-0.0699144172019669,-0.0593354145964055,-0.342021877331336,-0.00175512099441419,0
0.08,0.00156132991955003,0.000894311770788547,-0.0773764768953225,-0.0448119725321755,0.00136618362665476,0.00117093422501587,-0.0681685475822694,-0.0578643342611033,-0.342033278302105,-0.00162234686308916,0
0.09,0.0015607453206431,0.000894211558696181,-0.0773727510257904,-0.0448069620275562,0.00136590577957958,0.00117040235343504,-0.0681632023654848,-0.0578617688177589,-0.342044075024943,-0.00155224643210882,0
0.1,0.00156035653461689,0.000894207429601808,-0.0773774403142712,-0.0448067562456217,0.00136578353268269,0.00117002341178692,-0.0681651771635711,-0.0578655536316911,-0.342054371396114,-0.00148564062449682,0
0.11,0.00155998649146131,0.000894203874396882,-0.0773819464215916,-0.0448065738095868,0.00136566754799338,0.00116966258847837,-0.0681670850004796,-0.0578691905169358,-0.342064190921041,-0.00142212054782186,0
0.12,0.00155963325044004,0.000894200485100956,-0.0773862250663129,-0.0448064257072862,0.0013655568170214,0.00116931816154515,-0.0681689226412091,-0.0578726325702696,-0.342073555684836,-0.00136154221155991,0
0.13,0.00162928763058868,0.000934069993159759,-0.0808114105758824,-0.0468041838069649,0.00142649279375455,0.00122154952608443,-0.0712004508175244,-0.0604285653021919,-0.342082979639762,-0.0014027567098297,0
0.14,0.00177583934912439,0.00101876099134285,-0.0882425455845663,-0.0510478771044016,0.00155544917224073,0.00133118639714956,-0.077691613996754,-0.0660048916572835,-0.34209181291837,-0.0015599889782182,0
0.15,0.00155957689326522,0.000894712600084875,-0.0774449962395758,-0.0448320915064083,0.00136605163084835,0.00116905674140052,-0.0682143650843152,-0.0579175644129709,-0.3421003073675,-0.0011898815181818,0
0.16,0.00155833899167171,0.000894190201437375,-0.0774021970171226,-0.0448059042593755,0.00136515321662721,0.00116805531737303,-0.0681757829986156,-0.057885505716919,-0.342108001302142,-0.00113872783391743,0
0.17,0.00155805862652334,0.000894185368651394,-0.0774053611397581,-0.0448056486544631,0.00136506317546461,0.00116778280693993,-0.0681770283446633,-0.0578880720927423,-0.342115337128693,-0.00109126811235512,0
0.18,0.00155779471436562,0.000894182826177524,-0.0774085456442691,-0.0448055378857886,0.00136498041106621,0.00116752549271603,-0.0681783973440925,-0.057890632226525,-0.342122333210933,-0.00104601215744724,0
0.19,0.00155754314222885,0.000894180409932352,-0.0774115865150794,-0.0448054271265084,0.00136490152384591,0.00116728020441281,-0.0681796994458374,-0.0578930791221693,-0.342129005290979,-0.00100285211773834,0
0.2,0.00155730363893332,0.000894178105465938,-0.0774145054530281,-0.0448052792467137,0.00136482642719293,0.00116704667077431,-0.0681809078163016,-0.057895444658953,-0.342135368374249,-0.000961690901996448,0
0.21,0.00155707488419224,0.000894175907579259,-0.0774172700225887,-0.0448051685084614,0.00136475469037679,0.00116682363010526,-0.068182082355282,-0.0578976723929346,-0.342141436770895,-0.000922435940777233,0
0.22,0.00155685652875987,0.000894173811349527,-0.077419894795459,-0.0448050919831755,0.00136468620788639,0.00116661073629991,-0.0681832259782461,-0.0578997761045773,-0.342147224128248,-0.000884998951809958,0
0.23,0.0015566484959407,0.000894171812080745,-0.0774224064711347,-0.0448049812504217,0.00136462096509587,0.00116640790080272,-0.0681842839382489,-0.0579018030156271,-0.342152743461896,-0.000849295741343015,0
0.24,0.00155645024200541,0.00089416990529319,-0.0774248070799198,-0.0448048705215281,0.00136455879015245,0.00116621459585636,-0.0681852898602461,-0.0579037427157167,-0.342158007184802,-0.000815246014794637,0
0.25,0.00155626087398541,0.000894168086713852,-0.0774270796906933,-0.044804796899826,0.00136449939351298,0.00116602996543745,-0.0681862736982145,-0.0579055660003062,-0.342163027134284,-0.000782773196175424,0
0.26,0.0015674222373627,0.000900571044401929,-0.0779834133624411,-0.0451256489515649,0.00137428170393854,0.00117438940493094,-0.0686754687011459,-0.0583216679428423,-0.342167797976088,-0.000768463965563267,0
0.27,0.00150943646798376,0.000867599512357961,-0.0751607623256189,-0.0434734903239384,0.0013237708676215,0.00113082184925818,-0.0661722651534919,-0.0562166868355803,-0.342172472289744,-0.000653855586849004,0
0.28,0.00147264789062047,0.000846200997118118,-0.0731494169709982,-0.0424012648260804,0.00129127391572308,0.00110334020675665,-0.0644875650976856,-0.0546814265525336,-0.342176896313515,-0.000571789540226747,0
0.29,0.00155522314007851,0.000893960708037175,-0.0774173551354277,-0.0447943967716591,0.0013639766563054,0.00116509761136307,-0.0681742475645683,-0.0578986772500608,-0.342180884818001,-0.00066672379032348,0
0.3,0.00155338981501704,0.000893017925947698,-0.0773354885733825,-0.0447471438284439,0.00136247727166467,0.0011636823525601,-0.0681024581426936,-0.0578371841345158,-0.342184234481719,-0.000642564183821832,0
0.31,0.0015553090674162,0.000894154239613526,-0.0774379870010532,-0.0448041134447857,0.00136419613194681,0.00116510386360498,-0.0681907379306188,-0.0579143649954498,-0.342188035887777,-0.000620984380593543,0
0.32,0.00155518139979277,0.000894157690119417,-0.0774400695878997,-0.0448042783959312,0.00136416077164608,0.00116497748912289,-0.0681918023202886,-0.0579160240060515,-0.342191665132187,-0.000597520902115776,0
0.33,0.00155505117074493,0.000894156455761561,-0.0774416398115992,-0.0448042047245342,0.00136411994194303,0.00116485050328726,-0.0681924602755385,-0.057917291884864,-0.342195126316233,-0.000575131405744031,0
0.34,0.00155492656799115,0.000894155259571687,-0.0774431151217183,-0.0448041681188158,0.00136408084858672,0.00116472902367176,-0.0681931120238651,-0.0579184688426361,-0.342198427206141,-0.000553778754237266,0
0.35,0.00155480798047338,0.000894154118661368,-0.0774445323225374,-0.0448040944319109,0.00136404364696723,0.00116461340076059,-0.0681937004960914,-0.0579196139245551,-0.342201575225681,-0.000533414984644249,0
0.36,0.00155469498088964,0.000894153030553038,-0.0774458866565823,-0.0448040207382572,0.00136400819971319,0.00116450322316677,-0.0681942594296358,-0.0579207097261585,-0.342204577453942,-0.000513994300197219,0
0.37,0.00155458690910979,0.000894151992804992,-0.0774471609978209,-0.0448039841024537,0.00136397429096434,0.00116439786061337,-0.0681948183831148,-0.0579217272167302,-0.342207440643364,-0.000495473024822177,0
0.38,0.00155448395960373,0.000894151003087879,-0.077448380109864,-0.0448039474549033,0.00136394199136514,0.0011642974882646,-0.0681953511181056,-0.0579227017244707,-0.342210171232882,-0.000477809505164544,0
0.39,0.00155438609400901,0.000894150059179815,-0.0774495566148301,-0.0448038737376446,0.00136391129317781,0.00116420206232505,-0.0681958273160009,-0.0579236571568021,-0.34221277536345,-0.000460964016917724,0
0.4,0.00155429222489312,0.000894149158961864,-0.077450649772456,-0.0448038341616232,0.00136388183638235,0.00116411055111692,-0.0681963007257243,-0.0579245308404345,-0.342215258891407,-0.000444898675482186,0
0.41,0.00155420301239359,0.000894148300412841,-0.0774517057893896,-0.0448037974849136,0.00136385384716445,0.00116402356953766,-0.0681967577454253,-0.0579253764059163,-0.342217627402287,-0.000429577350766233,0
0.42,0.00155411775801465,0.00089414748160459,-0.0774527021908738,-0.044803760799152,0.00136382709556871,0.00116394045295665,-0.0681971884013623,-0.0579261732946767,-0.342219886223169,-0.000414965585932846,0
0.43,0.00155403657817162,0.000894146700699177,-0.0774536567250898,-0.0448037241036561,0.00136380162489466,0.00116386130471,-0.0681975989424316,-0.057926937879814,-0.342222040433345,-0.000401030519906388,0
0.44,0.00155395912361853,0.000894145955941992,-0.0774545633121245,-0.0448036873993481,0.00136377732197637,0.00116378578976874,-0.0681979876093435,-0.0579276641034855,-0.342224094877683,-0.000387740813470652,0
0.45,0.00155388527794005,0.000894145245661214,-0.0774554269908817,-0.0448036506860943,0.00136375415159303,0.00116371379271286,-0.0681983563601238,-0.0579283563975272,-0.342226054176851,-0.000375066578787094,0
0.46,0.00155381492472088,0.000894144568261198,-0.0774562523002906,-0.0448036139644003,0.00136373207834178,0.0011636451983908,-0.0681987069732617,-0.0579290187371792,-0.342227922737002,-0.00036297931218107,0
0.47,0.00155374783113036,0.000894143922220324,-0.077457037413771,-0.0448035772346901,0.00136371102758082,0.00116357978224113,-0.0681990390792365,-0.0579296491152151,-0.3422297047605,-0.000351451830038341,0
0.48,0.00155368376433785,0.000894143306087713,-0.077457780140734,-0.0448035404973783,0.0013636909245039,0.00116351731994594,-0.0681993521750865,-0.0579302451947946,-0.342231404254815,-0.000340458207669323,0
0.49,0.0015536224134634,0.00089414271847905,-0.0774584739112928,-0.0448035407931904,0.00136367166795499,0.00116345751389632,-0.0681996791697186,-0.0579307880959767,-0.342233025041914,-0.000329973721005175,0
0.5,0.00155356428385194,0.000894142158074352,-0.0774591524895298,-0.0448035040394419,0.00136365343054871,0.00116340083559322,-0.0681999618184897,-0.0579313342377428,-0.342234570767475,-0.000319974790996474,0
0.51,4.5028075091703,0.0299755670055,14.8613450328558,-1.49692127402669,-0.453418631105263,4.4800207080129,-3.08312941585993,14.6148781209862,0.107522571395822,32.9830906635902,4123.12667964191
0.52,4.59786884318919,0.0529200707748789,10.1101873769075,-2.63985724545777,-2.09724150747914,4.09203818315119,-7.04979994974798,7.71265555701206,0.485120639831018,70.0578494595946,4123.12667964191
0.53,4.5912581139119,0.0785894599602928,10.4426772126074,-3.91818882615485,-4.13177237795153,2.00356791464015,-11.1218287128184,0.840617110724661,1.13640304117394,107.892099779842,4123.12667964191
0.54,4.50488668909316,-0.0618839430183118,14.7632436331049,3.12777328817894,-3.9186932451017,-2.22298829388878,-14.4456028983773,-4.36587737059257,2.07307171551797,148.281498431203,4123.12667964191
0.55,4.50746521080696,-0.00245233542018175,14.6365029485745,0.146093170612915,0.771813731185393,-4.4408954282822,2.35441450240216,-14.4466360834974,-2.97005866371216,189.302335119647,4123.12667964191
0.56,4.51273313807782,0.0666215163744632,14.3753068985526,-3.30148628679387,4.48535079835991,0.500826334772659,13.8466645944979,5.08125375640106,-1.44483675476651,226.546948793139,4123.12667964191
0.57,4.49555571890636,-0.0600691669473129,15.2365710064937,3.05389249374417,-1.62001020621468,4.19394759842916,-2.43654639734908,15.3473970774473,0.355256239561986,265.524590410425,4123.12667964191
0.58,4.50943160858109,0.00485212889963149,14.5452942629184,-0.199087331419516,-2.88208477475928,-3.46822495330477,-9.13093931619576,-11.3239201765276,2.44931073606998,304.659209730236,4123.12667964191
0.59,4.45484581201691,-0.0367149361582437,17.2771723558371,1.89676394122312,4.42566166107283,0.510409695334794,17.3809115834292,-0.0480686076647299,-1.46421542141091,342.870732788219,4123.12667964191
0.6,4.43214567350847,0.0564719422592337,18.414806675374,-2.76955455269837,-4.10130399216003,1.68119300360028,-18.1441585033111,4.19106782556588,1.19451116507853,381.383881088381,4123.12667964191
0.61,4.42290209751269,0.0134270858467893,18.8796555015103,-0.623449067999256,3.69142943412467,-2.43630703805873,16.1305452004135,-9.83034038746944,-2.15112666761263,420.763025439972,4123.12667964191
0.62,4.40866089168095,0.00953887834633269,19.5945146579178,-0.395556637958634,-3.86087814255237,2.12838009208848,-17.3704673847804,9.07570011445222,1.06914348728351,458.352605998941,4123.12667964191
0.63,4.41762644191583,0.0773209221135227,19.1489963571636,-3.78805930598735,4.3639237071537,-0.691065686785503,19.4897565182005,1.08758707862988,-1.71034990535623,496.593206669088,4123.12667964191
0.64,4.46268145793403,-0.0125900224887079,16.8990869376023,0.715405924201658,-3.90212922508298,-2.16542647402487,-15.1447967986152,-7.53167145391232,2.07459902183846,535.306218978956,4123.12667964191
0.65,4.45925687409163,0.0914830090848664,17.0731670462025,-4.50083693652248,0.724154410402736,4.40101595088895,-2.02930853454719,17.5394547517394,-0.142568838980318,573.925754329701,4123.12667964191
0.66,4.32045239745051,0.0624122185998937,24.0164198415424,-3.0440030174018,3.7449956094271,-2.15527540909235,22.4663646878912,-9.01758471464838,-2.0785676384233,612.228407265707,4123.12667964191
0.67,4.33094469490302,0.0973084878333577,23.494749785094,-4.78450289060255,-2.49932095060471,-3.53835352642743,-9.15161358812447,-22.161739645344,2.54908112507522,650.46958663865,4123.12667964191
0.68,4.33978970126294,0.0546756807940223,23.0556028763235,-2.6340248109021,-3.98091938908661,1.72888544989322,-22.2801483777027,6.48798111608954,1.17367885110987,688.46372156254,4123.12667964191
0.69,4.2997247515464,0.101069765339473,25.062015978605,-4.94176951874873,-0.233452870048794,4.29457189880348,-6.8748840705082,24.6020669844092,0.0778083097617581,726.40048571506,4123.12667964191
0.7,4.25303739109528,0.0469224183036325,27.3996669354414,-2.22024297145042,2.89924972159885,3.11205395441708,16.813510859828,21.7480362238029,-0.738980024688058,764.635158423533,4123.12667964191
0.71,4.35624146329619,0.0497926081050326,22.2427031736487,-2.40427820434004,4.18310232421892,1.21695272524329,20.5869076696844,8.75771835324692,-1.27625979180506,803.119703622263,4123.12667964191
0.72,4.28239775467311,0.11751187877483,25.9382546864932,-5.76136933948052,4.28385374374343,0.0365605401749282,25.7142975863879,6.69039105628193,-1.5348282471059,840.637816838698,4123.12667964191
0.73,4.20058435869367,0.0395397767147447,30.0323819463115,-1.85585815059407,4.19649487952498,0.18948106650849,29.8865775260533,3.49008003109772,-1.51626210715121,878.620790629972,4123.12667964191
0.74,4.32009992493089,0.0404592963478001,24.0599380180571,-1.90336053224638,4.06930599189712,1.45108547658607,21.9294674131577,10.0797746861583,-1.21889516095457,916.682260924153,4123.12667964191
0.75,4.17754945674916,0.0546260604371015,31.190969511706,-2.60194588977677,2.55388533735106,3.3064441857874,16.6623098249156,26.4955493015718,-0.644605998705774,954.435491086524,4123.12667964191
0.76,4.18970349508185,0.0749504472998858,30.5867751449456,-3.60995832074385,-0.791408178913721,4.11496124411883,-9.84526686810616,29.1831001290257,0.207891862878103,992.18311061515,4123.12667964191
0.77,4.33359800298322,0.0501144051342326,23.3955917096181,-2.39710968109215,-4.20427950605817,1.05195862085988,-23.3149955022926,3.08396352027955,1.33718235885435,1030.33616102712,4123.12667964191
0.78,4.23150743971524,0.12369757223826,28.5037664772219,-6.01819053179258,-1.75549767833499,-3.85216617023507,-5.51025761204398,-28.6062996858012,2.74321882098955,1067.72109217562,4123.12667964191
0.79,4.25908189932083,0.161568069057683,27.1287396782761,-7.91388849678869,4.03978589404118,-1.35868053506602,28.2593770995467,-0.0758525997610153,-1.85732008781732,1105.26735582113,4123.12667964191
0.8,4.21633846788496,0.0904742959267533,29.2696331184357,-4.36730531350019,-0.336299196609018,4.20387898545499,-7.30434828477067,28.6780626040868,0.101282089236442,1143.05023629259,4123.12667964191
0.81,4.15627998166916,0.131958295725072,32.2763700379268,-6.45873129748289,-3.09033902713825,-2.78242357939633,-18.8173514768996,-27.0071574993202,2.33554982232346,1180.73660501835,4123.12667964191
0.82,4.22447843992672,0.0607364401227457,28.8702640105818,-2.88848769549766,4.19533921942283,0.499034907132845,28.2337993903651,6.68491414996153,-1.43802651340667,1218.34119530737,4123.12667964191
0.83,4.27538892871885,0.0938016930635754,26.3286301063851,-4.5346256901238,-4.14768607474044,1.04136903873582,-26.678064605092,1.42844753313322,1.34674510611687,1255.81724776478,4123.12667964191
0.84,4.27724280192096,0.115462041276578,26.2398170841629,-5.60030754187726,4.04387633639926,-1.39828525182473,26.7081548551319,-2.56240305342992,-1.87671740364356,1293.24314765907,4123.12667964191
0.85,4.1324495924707,0.0672340374822133,33.4834539053387,-3.16172457515856,-4.09834887249263,0.534037985021464,-33.6262248263525,0.644353666630087,1.45748911369781,1330.55542855826,4123.12667964191
0.86,4.10470997477754,0.0864898324562677,34.8744322294258,-4.1086454308695,3.88067213274532,1.34033886248607,31.2936462610058,15.9315628327058,-1.21716803550418,1368.00069535891,4123.12667964191
0.87,4.22916673837386,0.00201479243648972,28.6556022650854,0.0417310637512317,-0.5664923272423,-4.19105497500712,-3.86621520467185,-28.3936201046576,3.00771632257995,1405.70731811187,4123.12667964191
0.88,4.13514389109369,0.117902979353346,33.3607077841462,-5.71796456656638,-3.11788177729006,2.71884705995619,-29.3919740996528,16.7852256812066,0.882162806855112,1442.98113963218,4123.12667964191
0.89,4.05065458272303,0.119764394303524,37.5893268898313,-5.76088607071314,3.40882839164065,2.19135461644677,27.7478818473549,26.0038527402299,-0.969908059758023,1480.13186133601,4123.12667964191
0.9,4.11510213108337,0.175506484828149,34.3710313043045,-8.62659572616956,2.15539598023036,-3.50986271011708,26.3702004835599,-23.672736918259,-2.54824864884665,1517.71559387424,4123.12667964191
0.91,4.01544833494828,0.11756346163581,39.3578970546605,-5.64116209676318,-2.71174688387353,-2.96379407785914,-21.4353500763101,-33.4871996063159,2.42984413017845,1554.71790662954,4123.12667964191
0.92,4.09272882424358,0.147065015335165,35.49812963514,-7.17755978966085,-4.00625397541635,0.849697847467253,-36.2038494247815,-0.957005201192812,1.39771830765936,1592.0931847709,4123.12667964191
0.93,3.96765694635456,0.04823833284255,41.7559551080329,-2.26860296010736,-2.32463518771563,3.21569585389311,-26.694651896959,32.1885368799958,0.638089390797913,1629.33012449647,4123.12667964191
0.94,4.04932883363161,0.119622124471144,37.6765966265322,-5.7319916335219,-0.491616977596831,4.02115483448249,-11.3411274339827,36.3835194830207,0.151186572294489,1666.2829115959,4123.12667964191
0.95,4.04649355977984,0.0407536762061998,37.8226635527045,-1.82027388000518,0.297434950760283,4.03575314427558,0.583367429744099,37.861946036373,-0.0634959656287876,1703.51001909001,4123.12667964191
0.96,4.09359656856585,0.0607227919351132,35.4718639563242,-2.85434820017328,0.0875161000185399,4.09311141503283,-2.62210620678051,35.4897871960958,-0.00654554003288857,1740.66221863985,4123.12667964191
0.97,4.10304699869054,0.0542032758730646,35.003649836156,-2.54264714235477,-1.24685375642945,3.90938465473233,-13.487741859397,32.4006385103291,0.321949585208325,1777.73184423463,4123.12667964191
0.98,3.94262427204647,0.0643349892951566,43.0291249567384,-3.06208480051341,-3.10194782430924,2.43440851884821,-36.1294487433521,23.5699998169205,0.921709027681355,1814.66962622705,4123.12667964191
