t,iq,id,vq,vd,ia,ib,va,vb,theta_e,omega,r
0,0,0,0,0,0,0,0,0,0,0,0
0.01,0.000492731283533992,0.000271495239719143,-0.0239433695884345,-0.013587038460166,0.000560860408708954,4.39247641545791e-05,-0.0274706076749883,-0.00180506934306526,-0.989027997542217,-0.00312965419029593,0
0.02,0.000560610444367596,0.000308237629665853,-0.0273840265127557,-0.015425813879732,0.000637764104930289,5.05119108579771e-05,-0.0313557105630097,-0.00215871651501626,-0.989050922406621,-0.00313772320947509,0
0.03,0.000584517825254253,0.00032271791276085,-0.0286217107994019,-0.0161504825487057,0.000665696618514239,5.15359229604841e-05,-0.0327880430620547,-0.0022326324824057,-0.989072466879337,-0.0028638167741026,0
0.04,0.000567740805975066,0.000315502196747685,-0.0278898496602653,-0.0157893748367389,0.000647715226975951,4.83347045643746e-05,-0.0319781832477957,-0.00213163504794787,-0.989090504993649,-0.002374814218203,0
0.05,0.000579144496565787,0.000323333117529212,-0.0285035179178607,-0.0161812795988477,0.000661546778693546,4.80469811100621e-05,-0.0327062855797794,-0.0021408471976776,-0.989106435183332,-0.00212800899038333,0
0.06,0.000577804488489493,0.000323998790148892,-0.0284961059265489,-0.016214584395478,0.000660793545869748,4.67454026983989e-05,-0.0327184206301993,-0.00210849509378613,-0.989120260700459,-0.00183450267538174,0
0.07,0.000588711423388515,0.000331517435554737,-0.029067790046005,-0.0165908616581898,0.000674038227455486,4.64480143126398e-05,-0.0334028477872816,-0.00210781128650547,-0.989131805114473,-0.00167429770414565,0
0.08,0.000574842004632228,0.000324693677245277,-0.0284438103747878,-0.0162493612005362,0.000658701025321658,4.45227309680673e-05,-0.0326938775263618,-0.00204999033013132,-0.989142122877265,-0.00136443197880047,0
0.09,0.000571925878931272,0.000324111330533426,-0.0283389866991814,-0.016220216763945,0.000655944868670519,4.34015533854587e-05,-0.0325902967107734,-0.00201647199571388,-0.989150691869595,-0.00116779911887478,0
0.1,0.000570332848508787,0.000324060902779982,-0.0282924006866699,-0.0162176990618225,0.000654586401272658,4.25637177374701e-05,-0.0325500025861711,-0.00199274461865286,-0.989157964553483,-0.00100713779464128,0
0.11,0.000569065898785871,0.000324055915123133,-0.0282570150885615,-0.0162174465872617,0.00065352530304122,4.18677868073226e-05,-0.0325203091706158,-0.00197331370375763,-0.989164153034814,-0.000871052244412129,0
0.12,0.000567996234898604,0.000324054901175716,-0.0282273131962755,-0.0162174024693568,0.000652631187513589,4.12775352897445e-05,-0.0324954773180096,-0.00195686151999854,-0.989169420550418,-0.000755281358705001,0
0.13,0.00059358438480847,0.000338720565251512,-0.0294778728807361,-0.0169513391474047,0.000682069177757802,4.30776039903556e-05,-0.0339436308473973,-0.0020304712159475,-0.989174500054253,-0.000831512835523657,0
0.14,0.000612226600981344,0.000350155532958957,-0.0304804125598612,-0.0175236062184874,0.000703928440013571,4.37613933850568e-05,-0.0350957269831977,-0.00210291993209527,-0.989178932922932,-0.000872008388398536,0
0.15,0.000569892410750826,0.000326277125072859,-0.0283737096372279,-0.0163286028736394,0.000655436972350572,4.04536457332802e-05,-0.0326789196026875,-0.00194393517994518,-0.989182838790611,-0.000492982123588255,0
0.16,0.000565215095174298,0.000324242359851252,-0.0281595244263133,-0.0162267752395143,0.000650410970496628,3.95825869851158e-05,-0.0324440148728074,-0.00191126908699416,-0.989185409896692,-0.000407147537921721,0
0.17,0.00056437076643807,0.000324068757503165,-0.02812764731098,-0.0162180868853726,0.000649610178278513,3.9262423212255e-05,-0.0324126099227508,-0.00190094804452236,-0.989187523069603,-0.000357772834125385,0
0.18,0.000563965911631411,0.000324053765141109,-0.0281155620954477,-0.0162173351305915,0.000649263723350508,3.90513729004793e-05,-0.0324021021629874,-0.00189487891439517,-0.989189314292215,-0.000318114151296921,0
0.19,0.000563652463327177,0.000324052316546286,-0.0281067672062522,-0.0162172718048745,0.000649001075378476,3.88793959751199e-05,-0.0323947214129717,-0.00189005083412629,-0.989190838253948,-0.000284593149858873,0
0.2,0.000563389053706574,0.000324052047342234,-0.0280994424423556,-0.0162172531516344,0.000648780877465624,3.87340710230286e-05,-0.0323885931730936,-0.00188600043035139,-0.989192135397662,-0.000256083279420047,0
0.21,0.000563164954211074,0.000324051900284057,-0.0280932106584676,-0.0162172522233748,0.000648593585705713,3.86103653268903e-05,-0.0323833875725728,-0.00188254192572877,-0.989193239538606,-0.000231817616067693,0
0.22,0.000562974420586334,0.000324051782078135,-0.0280879150509355,-0.0162172392612868,0.000648434350291019,3.85051823161184e-05,-0.0323789572983868,-0.00187961310796571,-0.989194179399311,-0.000211162551205318,0
0.23,0.00056281213762784,0.000324051682037734,-0.0280834003364533,-0.0162172396687593,0.000648298725093635,3.84155949409945e-05,-0.0323751866027708,-0.00187710664781074,-0.989194979423079,-0.000193580669165524,0
0.24,0.000562673952639769,0.000324051596919084,-0.0280795528524699,-0.016217238572404,0.000648183239276326,3.83393109786659e-05,-0.0323719723812621,-0.00187497185464849,-0.989195660415477,-0.000178614705780908,0
0.25,0.000562556469629286,0.000324051524459808,-0.0280762828003854,-0.0162172254773799,0.000648085054688723,3.82744551314105e-05,-0.0323692338687498,-0.00187316759036096,-0.989196240086321,-0.000165875450055566,0
0.26,0.000568077011748688,0.000327172167583726,-0.0283431931900599,-0.0163734018540163,0.00065441231215701,3.86994084718118e-05,-0.032678058164659,-0.00188928639155756,-0.989196636081768,-0.000196701492231599,0
0.27,0.000552694871222347,0.000318397106196467,-0.0276070452497211,-0.0159342558410082,0.000636738576268581,3.75808914374199e-05,-0.0318216955968906,-0.00185179533579912,-0.98919737885712,-7.28801186846431e-05,0
0.28,0.000552260805378134,0.000318120195034162,-0.0275034361543374,-0.0159204001442083,0.0006362237661438,3.75735949740968e-05,-0.0317275102091088,-0.00180644318436009,-0.98919772567071,-6.2691310829368e-05,0
0.29,0.000561236764885368,0.000323545981578986,-0.0280193064361332,-0.016191936407567,0.000646704663602872,3.79708642145511e-05,-0.0323077353831116,-0.00186294718214714,-0.989197816753265,-0.000124169128818055,0
0.3,0.000555934926474375,0.000320854157749901,-0.0277615169442726,-0.0160572191651372,0.000640795715519311,3.7307961503704e-05,-0.0320183205584763,-0.0018339190219417,-0.989197086618852,-0.000101750984810513,0
0.31,0.000561688640478132,0.00032377897394343,-0.0280390324166839,-0.0162035936921615,0.000647210222846009,3.8024732131225e-05,-0.0323306212831963,-0.00186405870268049,-0.989197337083476,-0.000137213157732963,0
0.32,0.000562204719785146,0.000324028137281332,-0.028065131610073,-0.0162160641517037,0.000647778343815003,3.809984229621e-05,-0.0323592807611587,-0.00186796613550475,-0.989197655585536,-0.000134311771435437,0
0.33,0.000562205864855165,0.000324049334705124,-0.0280663338325789,-0.016217114484285,0.000647790956371368,3.80825766440003e-05,-0.0323608628580594,-0.00186773983200044,-0.989197937233586,-0.000128532054838554,0
0.34,0.000562162791260667,0.00032405111365997,-0.0280652422607603,-0.0162172048678061,0.000647755951146076,3.8057271277555e-05,-0.0323600008590322,-0.00186705685049839,-0.989198178030441,-0.000123281142800268,0
0.35,0.000562121754865769,0.000324051242149626,-0.0280641013701938,-0.0162172123078633,0.000647721740105964,3.80344873264971e-05,-0.0323590520171503,-0.00186641723796926,-0.989198383105967,-0.000118778360772578,0
0.36,0.000562086364607964,0.00032405123344922,-0.028063106003966,-0.0162172124608709,0.000647692170363343,3.80149395393435e-05,-0.0323582207129818,-0.00186586464697,-0.989198557679842,-0.000114942210280105,0
0.37,0.000562056213039637,0.000324051215982583,-0.0280622553710293,-0.0162172126031057,0.000647666972187088,3.79982938335152e-05,-0.0323575102913742,-0.00186539241630371,-0.989198706280667,-0.000111676489043037,0
0.38,0.000562030601668856,0.000324051200257104,-0.0280615318826643,-0.0162172127359643,0.000647645567848714,3.79841551998057e-05,-0.032356906063483,-0.00186499075714747,-0.989198832772126,-0.00010889662422626,0
0.39,0.000562008715588372,0.000324051186798056,-0.0280609096527657,-0.0162172128611285,0.000647627276838335,3.79720733893054e-05,-0.0323563864063467,-0.00186464534081331,-0.989198940443437,-0.000106530357639164,0
0.4,0.000561990147344556,0.000324051175335069,-0.028060380958844,-0.0162172129794418,0.000647611758652431,3.79618229738934e-05,-0.0323559448728811,-0.00186435183350956,-0.989199032094969,-0.000104516155151507,0
0.41,0.000561974314860801,0.000324051165576892,-0.0280599274517837,-0.0162172130921013,0.000647598526847224,3.79530828828734e-05,-0.0323555661359458,-0.00186410007682573,-0.989199110109964,-0.000102801635285231,0
0.42,0.000561960868891142,0.000324051157270309,-0.0280595408295151,-0.0162172131998271,0.000647587289536176,3.79456601511069e-05,-0.0323552432626431,-0.00186388544365236,-0.989199176517746,-0.00010134220985946,0
0.43,0.000561949343774291,0.000324051150199679,-0.0280592056315137,-0.0162172133035827,0.000647577657566629,3.79392980247318e-05,-0.0323549633381315,-0.00186369938392414,-0.989199233044704,-0.000100099924710503,0
0.44,0.000561939564887265,0.000324051144180871,-0.0280589197420341,-0.0162172134037241,0.000647569484980998,3.79338997740263e-05,-0.0323547245974692,-0.00186354068744417,-0.989199281161407,-9.90424726734566e-05,0
0.45,0.000561931299399423,0.000324051139057633,-0.0280586771987351,-0.016217213500741,0.000647562577191056,3.79293368113858e-05,-0.0323545220612134,-0.00186340603784837,-0.989199322118891,-9.81423533931354e-05,0
0.46,0.000561924198064797,0.000324051134696572,-0.0280584653470335,-0.0162172135953564,0.000647556642338951,3.79254166965211e-05,-0.0323543451577547,-0.00186328844813831,-0.989199356982724,-9.7376158154631e-05,0
0.47,0.000561918144468068,0.000324051130984347,-0.0280582824453653,-0.0162172136878105,0.000647551583121862,3.79220749833343e-05,-0.0323541924336902,-0.00186318693204526,-0.989199386659071,-9.67239610973586e-05,0
0.48,0.000561913080401572,0.000324051127824431,-0.0280581290649106,-0.0162172137782208,0.00064754735087861,3.7919279275371e-05,-0.0323540643677965,-0.0018631017782649,-0.989199411920155,-9.61688010292349e-05,0
0.49,0.000561908714827008,0.000324051125134557,-0.0280579936284557,-0.0162172138671867,0.000647543702401326,3.79168693314082e-05,-0.0323539512878661,-0.00186302660499472,-0.989199433422828,-9.56962403242807e-05,0
0.5,0.000561904989536712,0.000324051122845052,-0.02805787576192,-0.0162172139548274,0.000647540589035439,3.79148128708058e-05,-0.0323538528824304,-0.00186296118854743,-0.98919945172594,-9.52939894554181e-05,0
0.51,4.68686095540085,0.0171403075725749,5.65794854459835,-0.846714578703165,-1.05850393693818,4.56579991029951,-2.12209271358263,5.31281750355408,0.2314658526365,71.8495831419898,4254.86862972626
0.52,4.6417269320833,-0.00860554982360484,7.9158631288714,0.456449852648348,-4.05189670879974,2.26447257186592,-6.67938334292703,4.2725956632049,1.05931675618138,154.411503263814,4254.86862972626
0.53,4.66239469313464,0.0160043965630599,6.88387042169159,-0.768128763750611,-2.76127266076045,-3.75680099395966,-3.43735242275093,-6.01350996524905,2.51118937147101,243.558541644986,4254.86862972626
0.54,4.61709239487122,0.00750337156412506,9.15053956212476,-0.327867898491382,4.59666639970094,-0.43388534571116,9.14171143489958,-0.518636363840622,-1.66328366108001,329.525873813459,4254.86862972626
0.55,4.60238992462311,0.0488010311455393,9.8872932848643,-2.39035040386872,-3.98420707418611,2.3044453885737,-9.78556914544948,2.77758529190827,1.05701738269352,415.117678767087,4254.86862972626
0.56,4.58946272692432,0.0217266261296154,10.5354390424545,-1.00517396030624,4.37885174122439,-1.37451722305934,10.3631750990343,-2.14719639868101,-1.87022124072814,498.883562160383,4254.86862972626
0.57,4.60779298671021,0.0192324691002111,9.62089091948796,-0.87301048008938,-3.96937500505862,-2.34012567300549,-7.82086056513554,-5.67078737070432,2.10766682468657,584.635738981257,4254.86862972626
0.58,4.53217171432485,0.068612790687814,13.4040656515463,-3.33538170659202,-1.80019274386529,4.15987911460261,-8.54977502771054,10.8487369815647,0.423555532396338,669.559350785269,4254.86862972626
0.59,4.52664720825623,0.0687952693704865,13.6825920082919,-3.32636499811266,2.76180345202906,3.58715896350609,5.51514364791302,12.9561266862024,-0.640927974546022,753.596719055088,4254.86862972626
0.6,4.49821060554376,0.085168531610234,15.106809969018,-4.12497023868406,4.02436657030369,2.01137416668931,11.4690859372228,10.6626054355701,-1.08837796739231,837.71936318962,4254.86862972626
0.61,4.48139468511128,0.0452240741367887,15.9501193960624,-2.15265837406959,3.58757404265373,2.6859367135326,11.3636226670137,11.3977334021212,-0.918050846558919,922.946846107922,4254.86862972626
0.62,4.46399796708774,0.0620661061617692,16.8226160857471,-2.94903429193067,0.654095308634363,4.41625286627929,-0.689798258051595,17.0652100364047,-0.133139125901573,1005.49782246138,4254.86862972626
0.63,4.45240091362845,0.0591214191546081,17.4052870562015,-2.82402943354072,-4.22660488517847,1.40113539048436,-17.4453643300101,2.56484368792534,1.26397106329714,1089.87879824389,4254.86862972626
0.64,4.43226215648246,0.11495159165581,18.4151496346439,-5.61704382089066,0.459384368645877,-4.4098897598528,7.95208184110329,-17.5337763115801,-3.01186625117209,1172.86579618257,4254.86862972626
0.65,4.39072928608695,0.115871687768295,20.4948125994668,-5.59987836917504,1.79489395106618,4.0087760745836,2.70926180005298,21.0726334788889,-0.394589911304859,1255.412841452,4254.86862972626
0.66,4.36759940750143,0.124615058385761,21.6544714765731,-6.02560180354312,-1.45563693380221,-4.11977846663316,-0.89250783987672,-22.4594621881366,2.83047924195283,1338.19140104832,4254.86862972626
0.67,4.34442615431285,0.141545070732698,22.8165419486708,-6.92392117471896,-1.46918884429047,4.09091160465962,-14.8438900323603,18.6599624768211,0.377358784345162,1420.91478731008,4254.86862972626
0.68,4.34004216164308,0.121972403785866,23.0392561234024,-5.92841635759146,4.33117250555289,0.302965277329774,22.3492030663247,8.15270295845951,-1.47286356469982,1503.236004431,4254.86862972626
0.69,4.30316335363015,0.16963222658535,24.8868146198569,-8.25737778296507,1.5979789615915,-3.99905653606357,17.6789047666038,-19.3647658397173,-2.72204069114302,1584.53473953208,4254.86862972626
0.7,4.24547479798079,0.0654719446966838,27.775058974514,-3.09678696864091,-1.03432981071613,-4.11807050431344,-3.33510513717431,-27.7474514918194,2.91093483967427,1666.71122919725,4254.86862972626
0.71,4.25006520220063,0.171087842968967,27.549423164716,-8.29806544138593,-1.35181090638612,-4.032980603269,0.269796124242705,-28.7707458511151,2.85840651394676,1747.50287576159,4254.86862972626
0.72,4.25276639237324,0.162597034270195,27.418404808499,-7.89189403483064,0.937205470793817,-4.1513980403193,14.6814801282823,-24.4643629580369,-2.88134356764478,1828.90522435641,4254.86862972626
0.73,4.21577683430345,0.0592768570920206,29.2720995571788,-2.73384893166024,4.14225078401,-0.786159338051045,29.3045727005168,-2.36045785953809,-1.74429615293046,1909.93129128581,4254.86862972626
0.74,4.21239421154801,0.178624048185488,29.4456314499239,-8.69796834267106,0.246022688118268,4.20899564991512,-8.22556179224669,29.5810749969772,-0.0160061942468409,1990.41298077772,4254.86862972626
0.75,4.21577614916596,0.104832864972684,29.2810534129884,-4.97238646761575,-3.20931642616561,-2.73569854812232,-18.4858648708566,-23.2460215119499,2.30155767930745,2070.49928463638,4254.86862972626
0.76,4.16408939258613,0.200156642573625,31.870007959467,-9.70112738966521,0.563319863286406,4.13066264449684,-6.87866205847644,32.5959090723403,-0.0875086892974823,2150.39720423316,4254.86862972626
0.77,4.18064416643669,0.238021425876425,31.0470770185545,-11.681444683368,0.852406362909368,-4.09973697180795,19.3208720894416,-26.9644403426082,-2.87972324368545,2230.63015498959,4254.86862972626
0.78,4.13114454233929,0.176553223286005,33.5269493956595,-8.51747677667962,-3.77862300140883,1.679146951156,-34.3147933622039,4.37020627998708,1.19533639889653,2309.78674381898,4254.86862972626
0.79,4.08058281558142,0.0969062511237365,36.0601137596945,-4.60028867961847,1.79232201947335,3.66716903276031,10.8808064873958,34.6857681258723,-0.430861988650084,2389.42402804717,4254.86862972626
0.8,3.99603755785007,0.118671442479533,40.2925964382225,-5.66814249786903,3.98964196135325,0.255256920019662,39.5866357835602,9.40847673374179,-1.4772149520906,2468.19039875577,4254.86862972626
0.81,4.03763402333356,0.187494304625782,38.2181067885286,-9.01991820654075,3.68842636183798,-1.65322520968756,38.8661612833495,-5.60393772705617,-1.94576539331218,2546.7351741958,4254.86862972626
0.82,4.01494975945969,0.244499512352164,39.3577390068391,-11.8648569438989,3.80830257409392,-1.29477144186745,41.093475904371,1.0642782185717,-1.83770056093124,2625.22112361104,4254.86862972626
0.83,3.92486040544151,0.182142720610111,43.8676939704967,-8.744939792889,3.66474413058506,1.4168117836241,36.6109541764563,25.6999334738404,-1.15551545850961,2703.53711022797,4254.86862972626
0.84,3.94512528594871,0.0268478531238815,42.8600212230182,-1.08201297808736,-0.36274509924573,3.92850484561524,-5.3078585046952,42.5438457290412,0.0988808109603256,2781.67252612244,4254.86862972626
0.85,4.00493690897925,0.0940520167658117,39.8750531813875,-4.36597922029314,-3.79138449438037,-1.29374226279197,-35.9190785203107,-17.8578117086688,1.9231185906683,2859.08003152491,4254.86862972626
0.86,3.98088480638561,0.376073001678909,41.0833694490081,-18.4424639084197,3.52443322541741,-1.88871522042827,45.01979346134,1.08899816131159,-1.96855333572862,2936.22151219656,4254.86862972626
0.87,3.97686349679242,0.302432092115616,41.2901155069505,-14.7715598802812,-3.77307162520967,-1.29260935842933,-32.1009544777565,-29.8764345511819,1.97675469742796,3013.09573716722,4254.86862972626
0.88,3.89589869167731,0.0134830084256277,45.3440529958221,-0.384176570245001,2.76973229874522,2.73985244139474,31.8548256163227,32.2722918101383,-0.787360553285158,3089.97236131662,4254.86862972626
0.89,3.84709014959594,0.388948420328518,44.4559693867086,-19.1837173744997,0.19153740244228,-3.86195506398765,25.6246625232465,-41.0819290806357,-2.99127769022063,3165.88868085877,4254.86862972626
0.9,3.46074427665403,0.195620828958949,48,-9.45365723551647,-3.46622344047196,-0.0177064349584894,-47.3273069160608,-12.3894170645602,1.63237012612909,3237.77971358679,4254.86862972626
0.91,3.31338919409913,0.346848079425931,45.4118775718413,-17.0906549274927,-1.22930768987525,3.09639373229373,-36.201698397008,32.3073698035387,0.482229366302746,3304.89319271242,4254.86862972626
0.92,2.99489006794682,0.037167876896955,48,-1.65564919257374,0.612031167674894,2.93192186457178,7.59982250093537,47.4234527655162,-0.193382438081495,3367.39346527677,4254.86862972626
0.93,2.91576048020593,0.358178265674113,43.0150547595552,-17.6852182317241,1.53427725931616,2.50518345425586,1.73039666708701,46.476527486956,-0.427287392009127,3425.55520047619,4254.86862972626
0.94,2.70763901048109,0.0763343084538672,43.395337280673,-3.50769790956757,0.742388084204777,2.60499440885329,7.31357377016809,42.9181882310573,-0.249441878807457,3479.56837947565,4254.86862972626
0.95,2.33051988885564,0.00233339901952334,48,0.0191372098993819,-2.24508777947765,0.625227366277918,-46.2481490852003,12.8494775156769,1.30019257661215,3530.06283902562,4254.86862972626
0.96,2.31002547968962,0.327264897868098,45.3462339504389,-16.1438179779889,-2.04076349964626,-1.13075389395899,-26.4618862021932,-40.2078645418599,2.21750443182341,3576.8642492452,4254.86862972626
0.97,2.09636756771001,0.224963564839786,48,-11.148740338246,0.455058137449164,-2.0587101971849,25.868638633301,-41.9417208324756,-2.81714816156872,3620.48835565194,4254.86862972626
