t,iq,id,vq,vd,ia,ib,va,vb,theta_e,omega,r
0,0,0,0,0,0,0,0,0,0,0,0
0.01,0.000609950563215852,0.000343865807709516,-0.0301153497372622,-0.0172091860676513,1.16786189227577e-05,0.00070010498722628,-0.000780013093996045,-0.0346768215740984,0.496666501145552,-0.00125992158804121,0
0.02,0.000692357748156049,0.000389472417561387,-0.0342374297583629,-0.0194916272046347,1.25155883856432e-05,0.000794286708638756,-0.000822894150730034,-0.0393884243498008,0.496656990863998,-0.00134318160819943,0
0.03,0.000723936631790344,0.000407498029722434,-0.0358145824464622,-0.0203937277961037,1.33243073369796e-05,0.000830639123753272,-0.000864901508887812,-0.0412048588714478,0.496647422068974,-0.00131518659704913,0
0.04,0.000706444774060667,0.000398365784177596,-0.0349767652232125,-0.0199367024333817,1.36369857970478e-05,0.000810909088258005,-0.000862646785244923,-0.040250491300366,0.4966386925718,-0.00118884184919582,0
0.05,0.000722945006032875,0.000408216804670259,-0.0358092987107155,-0.0204297112899239,1.44428848747633e-05,0.000830109537615106,-0.000899757886351299,-0.0412173435981608,0.496630375033929,-0.0011406692028341,0
0.06,0.000723371826452421,0.000409015898112479,-0.035850187739631,-0.0204696979741332,1.49485627997491e-05,0.000830865419116773,-0.000915753857243209,-0.0412723380848719,0.496622568950996,-0.00106267280629285,0
0.07,0.000739157862771072,0.000418632170505903,-0.0366445791263996,-0.0209509585189657,1.58878257949954e-05,0.000849326095955075,-0.00096068307031956,-0.0422000584152769,0.496615429471402,-0.00102485645601774,0
0.08,0.000722970987236367,0.000409859263969924,-0.0358660231007231,-0.0205119057066721,1.58926222280811e-05,0.000830914610057021,-0.000945894097580363,-0.0413063575389694,0.496608618667482,-0.000920751964912314,0
0.09,0.000720739448125296,0.000409144143226326,-0.0357721608248656,-0.0204761225528275,1.63322515915179e-05,0.000828611814771134,-0.000959410233427709,-0.0412067787734306,0.496602395227505,-0.000852969810738425,0
0.1,0.000719791987135096,0.000409084460961854,-0.0357402500791996,-0.0204731353232265,1.6735954116793e-05,0.000827750269576604,-0.000972224532278486,-0.041177293805515,0.496596637212486,-0.000792688826701495,0
0.11,0.000719012398553854,0.000409078195098364,-0.0357155111404797,-0.0204728137350298,1.7106280536475e-05,0.000827061771662376,-0.000983947822935181,-0.0411553846408547,0.496591303474822,-0.000737063255834632,0
0.12,0.0007182987387476,0.000409076376676205,-0.0356930125542525,-0.0204727276004255,1.74487752995944e-05,0.000826433361065167,-0.000994794386427845,-0.0411355576688585,0.49658636219503,-0.000685549371635983,0
0.13,0.000750570312640635,0.000427684132028055,-0.037292081757222,-0.0214039779473768,1.84380829359099e-05,0.000863672129979716,-0.00105192991847822,-0.0429851494961426,0.496581548732641,-0.000707143078736553,0
0.14,0.000775342331122175,0.00044245255563466,-0.0385697652267391,-0.0221430796458822,1.9624784365279e-05,0.000892488017990285,-0.0010932427611483,-0.0444606296189657,0.496577048975827,-0.000715580395600031,0
0.15,0.00072146809830413,0.000411787033954023,-0.0358833461393568,-0.0206083791015313,1.8333297527167e-05,0.000830511088670711,-0.00102394103017701,-0.0413675158078902,0.496572825004437,-0.000555577821125206,0
0.16,0.000716274653470578,0.000409292132147908,-0.0356371794259316,-0.0204835208480149,1.86169424111157e-05,0.000824756229499261,-0.00103158901339086,-0.0410915929099196,0.496569214109426,-0.00050776165586006,0
0.17,0.000715386050358283,0.000409088347629574,-0.0356019389255776,-0.020473319598577,1.88638458801589e-05,0.000823877801941604,-0.001039545095678,-0.0410557452330376,0.496565895386537,-0.000472272142533219,0
0.18,0.000714906809015264,0.000409070958663545,-0.0355861980141726,-0.0204724601660815,1.90794018104084e-05,0.000823448098683126,-0.00104641466348476,-0.0410414927933639,0.496562823146566,-0.000440166319465401,0
0.19,0.000714493247213712,0.000409068788590893,-0.0355731095542174,-0.0204723431430125,1.92768597842828e-05,0.000823083396011651,-0.00105266397042573,-0.0410299263426949,0.49655997713332,-0.000410490289749514,0
0.2,0.000714112668577679,0.000409067911655635,-0.0355611085781119,-0.0204723042385468,1.94595671407117e-05,0.000822748312071275,-0.00105845522753563,-0.0410193534404333,0.496557340517367,-0.000383003452893125,0
0.21,0.000713760320660551,0.000409067191258566,-0.0355500008025997,-0.0204722696669974,1.96288017391742e-05,0.0008224381268253,-0.00106381676364375,-0.041009568106437,0.496554897877193,-0.000357539326361702,0
0.22,0.000713433933359485,0.000409066531206324,-0.035539711036008,-0.0204722350649354,1.97855725714496e-05,0.00082215079841838,-0.00106878116004001,-0.0410005021421551,0.496552634940551,-0.000333948624781242,0
0.23,0.000713131527615479,0.000409065920192311,-0.0355301756357844,-0.0204722018888302,1.99308236871972e-05,0.00082188458131852,-0.00107338056803823,-0.0409921002760638,0.496550538486749,-0.000312093479760831,0
0.24,0.000712851278357685,0.000409065354067269,-0.0355213361003009,-0.020472184224618,2.00654312199543e-05,0.000821637868786683,-0.00107765575261107,-0.0409843177734619,0.496548596267658,-0.000291846203880857,0
0.25,0.000712591829866424,0.00040906482949914,-0.0355131549290553,-0.0204721509865703,2.01900476425139e-05,0.00082140946713666,-0.0010815977192787,-0.0409771068452333,0.496546796936502,-0.000273088506941353,0
0.26,0.000719359921147797,0.00041303342092535,-0.0358500808126871,-0.0206707705683484,2.04564464080529e-05,0.000829250768317652,-0.00109578899903648,-0.0413679622006582,0.496545170533597,-0.000271379973744315,0
0.27,0.00069954646754271,0.000401765424411126,-0.0348800855421174,-0.020106841108501,1.99895375997559e-05,0.000806462110015272,-0.00106212723107653,-0.0402464571426224,0.496543501236842,-0.000211363939749617,0
0.28,0.000698754723242141,0.000401377348536111,-0.0347989928361268,-0.0200874232052439,2.00266593598093e-05,0.000805581077288913,-0.00108374352410142,-0.0401659056092271,0.496542070081784,-0.000195170049826676,0
0.29,0.000710576458847949,0.000408437994488768,-0.0354292339627496,-0.0204407818789729,2.06039133478395e-05,0.00081933874433329,-0.00109424042398918,-0.0408883702402713,0.496540825545373,-0.000208325247992818,0
0.3,0.000704284341004159,0.000405128678335557,-0.0351219642389829,-0.0202751597020859,2.06924028685927e-05,0.000812229957251702,-0.00109503249956023,-0.0405393065650411,0.49653999378206,-0.000186216286570299,0
0.31,0.000710805621705989,0.00040874256006675,-0.0354454747607451,-0.0204560199980356,2.07641319093091e-05,0.000819685282949994,-0.00109998146385102,-0.0409099068191781,0.496538868912427,-0.000189041051153865,0
0.32,0.000711236220613554,0.000409036180539892,-0.0354693884139075,-0.020470712747647,2.08180486859904e-05,0.000820203735270831,-0.00110155197131787,-0.0409379307990499,0.496537788864327,-0.000179058251582154,0
0.33,0.000711142819276254,0.00040905979269573,-0.0354673423291533,-0.0204718922052604,2.08841276469366e-05,0.000820132840837921,-0.0011036048139937,-0.0409366925724549,0.49653678494697,-0.00016870457672928,0
0.34,0.000711013016301998,0.000409061465313396,-0.0354633185693786,-0.0204719901396335,2.09481971657782e-05,0.00082001949049441,-0.00110564585626995,-0.0409332003570573,0.496535854595202,-0.000159015653115305,0
0.35,0.000710889112828938,0.000409061371840217,-0.0354594104482057,-0.0204719808942866,2.1007847145585e-05,0.00081991048720505,-0.00110753476697857,-0.0409297588291244,0.496534992663283,-0.000150031031413666,0
0.36,0.000710774056912005,0.000409061151601878,-0.0354557756281037,-0.0204719643542589,2.10631186885252e-05,0.000819809203876193,-0.00110928446739225,-0.0409265541901939,0.496534194140973,-0.000141706656325089,0
0.37,0.000710667441105735,0.000409060936682777,-0.0354524059274466,-0.0204719477955569,2.11143258875592e-05,0.000819715345110654,-0.00111090544443278,-0.0409235827082868,0.496533454365254,-0.00013399463465091,0
0.38,0.000710568429874685,0.000409060736677354,-0.0354492710863938,-0.0204719481604998,2.11618787860872e-05,0.000819628180769694,-0.00111242718753072,-0.0409208258444923,0.496532769014294,-0.000126849975664514,0
0.39,0.000710476948060074,0.000409060551302087,-0.0354463780415771,-0.02047193156527,2.12058162483451e-05,0.000819547644565931,-0.00111381676494135,-0.0409182735522118,0.496532134084132,-0.00012023094409989,0
0.4,0.000710392023081256,0.000409060379548666,-0.0354436880536815,-0.0204719304365373,2.12466037690701e-05,0.000819472880821726,-0.00111512129462812,-0.0409159072139843,0.496531545865472,-0.000114098870348533,0
0.41,0.000710313521574838,0.000409060220421785,-0.0354412036418068,-0.0204719138097808,2.12843068413239e-05,0.00081940377174251,-0.00111631249255836,-0.0409137142903706,0.496531000921566,-0.000108417929280555,0
0.42,0.000710240587375838,0.00040906007299405,-0.035438890533844,-0.0204719141031708,2.13193351342709e-05,0.000819339564053455,-0.0011174353193863,-0.0409116800880185,0.496530496069013,-0.000103154931360449,0
0.43,0.000710173124696955,0.000409059936405859,-0.0354367517688957,-0.0204719143805562,2.1351735954823e-05,0.000819280173070188,-0.0011184735575534,-0.0409097992079674,0.496530028358087,-9.82791287822607e-05,0
0.44,0.000710110688504769,0.00040905980986098,-0.0354347724210329,-0.020471897713436,2.13817228583619e-05,0.000819225207070575,-0.00111941954539422,-0.040908050459551,0.496529595056498,-9.376203583683e-05,0
0.45,0.0007100527136746,0.000409059692621089,-0.0354329310060145,-0.0204718979644464,2.1409566493415e-05,0.000819174168773947,-0.00112031339484914,-0.0409064310816895,0.496529193632412,-8.95772624893006e-05,0
0.46,0.000709999046211331,0.000409059584002295,-0.0354312260706739,-0.0204718982027796,2.14353415485622e-05,0.000819126922410579,-0.00112114100812636,-0.040904931728779,0.496528821741096,-8.57003602027576e-05,0
0.47,0.000709949473910299,0.000409059483371014,-0.0354296528062118,-0.0204718800478762,2.14591503443848e-05,0.000819083281057408,-0.00112188860422744,-0.0409035394143716,0.49652847720938,-8.21086791019855e-05,0
0.48,0.000709903315235276,0.000409059390139935,-0.0354281825258431,-0.020471880265154,2.14813186874303e-05,0.000819042645160275,-0.00112260225707064,-0.040902246427888,0.496528158024862,-7.87812356504713e-05,0
0.49,0.000709860707227563,0.000409059303765484,-0.0354268270606483,-0.0204718804718665,2.15017823502173e-05,0.000819005134915821,-0.00112326024421954,-0.0409010544126093,0.496527862322339,-7.5698590054801e-05,0
0.5,0.000709821321268732,0.000409059223743005,-0.0354255745763881,-0.0204718637461447,2.15206988545653e-05,0.000818970461114276,-0.00112385339560537,-0.040899944900368,0.496527588374753,-7.28427326960875e-05,0
0.51,4.68485541979076,-0.00982738173007044,5.75821605732884,0.498410573592907,-0.353407310992218,4.67151690078413,0.0747371597110832,5.77926289588103,0.0734099941377638,22.689478115288,2375.29514345402
0.52,4.65918241285265,-0.0189595124071864,7.04296356803917,0.963376864068871,-1.54584396192257,4.39530507072418,-1.39956978542152,6.96940709233471,0.334122307308734,48.4745144321537,2375.29514345402
0.53,4.66362525754546,0.0353281455434968,6.82199909118166,-1.74458868126464,-3.27452682865267,3.32086173592298,-6.05946559183207,3.58693992259187,0.785948038881361,75.0239616971388,2375.29514345402
0.54,4.66379794379274,0.0193533414899227,6.81465662961923,-0.943360025036819,-4.62136181006031,0.628013401822226,-6.87949025989011,-0.0456823875024318,1.43987978853672,103.773980433088,2375.29514345402
0.55,4.6296424308996,5.68272586440877e-05,8.52376195109164,0.0314612312767826,-3.44552683102355,-3.09223768457602,-6.36459820503881,-5.66986748490366,2.30222105404824,130.928604245879,2375.29514345402
0.56,4.62596725092411,0.0540976104027499,8.70892940380954,-2.65905660805331,0.932261929632825,-4.53137807434239,4.45266587740708,-7.94290878642988,-2.92699524061236,156.890855488655,2375.29514345402
0.57,4.64499575358773,-0.016525525764419,7.7590164515125,0.873339787454748,4.62255841687509,-0.456302888909401,7.62984382168173,-1.65847578696172,-1.67274745338943,184.997446504874,2375.29514345402
0.58,4.5943035467102,0.0353493249424721,10.2951459377897,-1.70427037860851,1.04689399240259,4.47357660298325,0.606291288320909,10.4176282462707,-0.22218640506938,211.07278536924,2375.29514345402
0.59,4.64506197890166,-0.00960972847968297,7.7588556914754,0.546941056643498,-4.59910227910417,0.651882935087337,-7.60192451509299,1.64612570219008,1.42792412387621,238.36825969738,2375.29514345402
0.6,4.6045588267346,0.0425451991052728,9.78573815309542,-2.06576588694068,0.56246218954847,-4.57027443028915,3.33287411322147,-9.42974071997812,-3.00989919964017,265.627170014769,2375.29514345402
0.61,4.59693706572056,0.0624723154762027,10.1685984487885,-3.05737388040981,3.82103780812525,2.55644347586132,6.63940308176262,8.28651049448422,-0.967560340887521,292.182515613067,2375.29514345402
0.62,4.54542559680605,0.0449327049982684,12.7460049178682,-2.15267918944615,-4.33064553121632,1.38145650928076,-12.8147460872806,1.69615794592398,1.27188976236612,318.664499959483,2375.29514345402
0.63,4.55735822385591,0.0755806518317448,12.1512784569164,-3.67837556549768,2.37986008590517,-3.88735030412668,9.6204024023776,-8.28443556041679,-2.57566350043561,345.369638396007,2375.29514345402
0.64,4.61908078507355,0.0661768689927863,9.06710421846255,-3.19847390278471,-0.191405177225787,4.61558779952852,-3.69892398380455,8.87471552092188,0.0557714170330433,372.144202482329,2375.29514345402
0.65,4.56177134448419,0.0718713984013282,11.934595030601,-3.49318240447009,-1.23627780235255,-4.39164439506156,0.324386894492985,-12.4310761802037,2.88294108183693,399.036953707692,2375.29514345402
0.66,4.54352907191487,0.0743025700005822,12.8487935873429,-3.62122354322873,1.74317278553123,4.1964897163019,1.36778486582245,13.2790783249819,-0.377349342609308,425.906300369361,2375.29514345402
0.67,4.54663438820851,0.0269690925375858,12.695659631531,-1.23401586656099,-1.37232180234441,-4.33466774537596,-2.58138102313699,-12.4915587759094,2.84091564763425,452.35690481745,2375.29514345402
0.68,4.52484378946931,0.0868010776987156,13.787380323174,-4.20343282756091,0.220544136666384,4.52029932968722,-3.79395914451827,13.9056311514936,-0.0295701929077623,478.668971475033,2375.29514345402
0.69,4.51490481056361,0.0264174723883533,14.2866043248936,-1.20787322920404,1.8845463537501,-4.10287074764305,7.13372002121246,-12.4368830312442,-2.70516102417211,505.609797982303,2375.29514345402
0.7,4.56552198450819,0.0463687588314833,11.7580303028313,-2.1680572094063,-4.04152279609517,2.12420209525042,-11.4521454569664,3.43512926948054,1.09703934385446,531.787864437344,2375.29514345402
0.71,4.47139974899082,0.0815492420868609,16.466537252187,-3.95529489142341,4.18115347813518,1.58682752258657,13.815368964399,9.79422213007768,-1.18983367585881,558.586580650761,2375.29514345402
0.72,4.46502578976489,0.0626656044102949,16.7876256414227,-2.96566948469908,-0.690049364397715,-4.41182662351276,0.575006189863493,-17.0378677671429,3.00047455785577,584.746423167054,2375.29514345402
0.73,4.46990807542429,0.0514661339236464,16.5460141212298,-2.4107597765267,-3.96356201742586,2.06710016682874,-15.8479384790979,5.33152810766123,1.10159008803044,611.197870984766,2375.29514345402
0.74,4.43890969204814,0.0724758149232581,18.0985142383149,-3.47521194926636,2.58086709563423,3.61224265970328,7.41936851808831,16.8696854303692,-0.604050708753543,637.722464458742,2375.29514345402
0.75,4.48514401900766,0.0495212909289178,15.7894174529246,-2.32854559105967,3.80779284180383,-2.37058703771934,14.7041402005402,-6.20613317897865,-2.11659980210539,664.117702971052,2375.29514345402
0.76,4.44681283788052,0.116624404875698,17.7086104962595,-5.68589689369466,-1.40257586812658,-4.22143655656467,0.299945884909237,-18.5966217808527,2.84703715842102,690.441968850721,2375.29514345402
0.77,4.49785860703986,0.0998421298545344,15.1590206037674,-4.83752124385012,-4.46247964605687,-0.571818072768414,-14.2684371032511,-7.04338129599082,1.72043497061297,716.726148595847,2375.29514345402
0.78,4.44188905824391,0.128873249992685,17.9602726823003,-6.2812935840288,-3.05284988291735,3.2291011617294,-17.1492597726275,8.24190106482016,0.786353774242127,742.94440803945,2375.29514345402
0.79,4.47030632425677,0.0929181809107793,16.542227312118,-4.45784767101749,-0.106414070618882,4.47000542131754,-5.1906988365584,16.3271043327324,0.0445844031471899,769.062028268506,2375.29514345402
0.8,4.41869598952417,0.13032629027683,19.1256238999809,-6.30188119633938,2.2530297245503,3.80338221193546,3.74397792153832,19.7860007454597,-0.505308509223051,795.117797170483,2375.29514345402
0.81,4.37204145118584,0.075723477280655,21.4612770665746,-3.61655030480167,3.37210080194483,2.78377741161568,13.960899943055,16.6960810436297,-0.863361560010188,821.438126111865,2375.29514345402
0.82,4.40226352428754,0.119774003934377,19.9531653636182,-5.79221635107393,3.83484791493361,2.16522779832063,14.1177598791813,15.2436030609342,-1.02959801975574,847.545526588115,2375.29514345402
0.83,4.37845271214869,0.173174690680377,21.1466820088617,-8.4221642094502,3.78808696287576,2.20255188082032,13.3288851858942,18.451445191532,-1.00460341526247,873.562533174184,2375.29514345402
0.84,4.38956203185444,0.0846371166137188,20.5943267285803,-4.02114985972017,4.23520350397135,1.15692244898071,18.6239177423519,9.6667278602408,-1.28485496494952,899.711687497658,2375.29514345402
0.85,4.34463243935404,0.102966893721623,22.8439829111846,-4.96255704638,3.40805031729337,2.6965953068799,14.4029516775781,18.4127540215585,-0.877722633636354,925.756299944301,2375.29514345402
0.86,4.34622629410395,0.128335381527671,22.7674743893341,-6.16299676906127,1.32371329197277,4.14173104997983,0.364791296417161,23.5840485615702,-0.279824148128469,951.601293898425,2375.29514345402
0.87,4.36285677374904,0.158720767940564,21.9391764955612,-7.70239000224638,-1.98559106683794,3.8880765972029,-17.4097067100543,15.4128644099655,0.508524765235206,977.667564735095,2375.29514345402
0.88,4.34378465581183,0.147826676829792,22.896058636179,-7.17441324759963,-4.31628037271584,0.509942748312863,-23.4150745659051,-5.23793753225283,1.48721606634668,1003.69757357348,2375.29514345402
0.89,4.34827758937262,0.0912608824010661,22.674742223955,-4.3476703452388,-2.11007397365027,-3.80308221954516,-6.73727201369693,-22.0829196024242,2.65603151302859,1029.64513397095,2375.29514345402
0.9,4.30603636380541,0.148812769132712,24.7901622219646,-7.22679442457375,3.20460829016741,-2.88003126949375,23.6416047444841,-10.3852407652378,-2.2683559707117,1055.54983076557,2375.29514345402
0.91,4.36277262737105,0.165954328273259,21.9567590356416,-8.06843237172786,3.00085036038214,3.17115482936503,8.40751007436645,21.8291695361001,-0.719791710808852,1081.40510152822,2375.29514345402
0.92,4.34094338282361,0.151618114064437,23.0517053921772,-7.32627837855348,-3.61559246406689,2.40712871263156,-23.4671284029588,5.86083278099933,1.01833266734829,1107.17617974808,2375.29514345402
0.93,4.27899729308253,0.149792365483695,26.1525288756674,-7.20213657323676,-0.98000328471305,-4.16795503201708,1.97269151575907,-27.0542792547838,2.94565144344887,1132.90587708976,2375.29514345402
0.94,4.27612742261877,0.187635178088464,26.2995975367787,-9.11239821181612,4.08167081568879,1.28857908057013,21.5866873295023,17.5704172376626,-1.22114822940042,1158.75337527371,2375.29514345402
0.95,4.30329461935729,0.167205430605371,24.9448446902368,-8.11453384750391,-3.72569957499877,2.15996872983554,-25.8441685081767,4.49109010188945,1.08423642545767,1184.57895209014,2375.29514345402
0.96,4.28039762199194,0.173942291635862,26.0933661449257,-8.38386678242014,1.65268879004968,-3.95230053088298,18.632812736235,-20.099036507627,-2.70491630220215,1210.16293290963,2375.29514345402
0.97,4.27018307116706,0.161948821422844,26.6077921150512,-7.85166634811473,0.257461015111945,4.26548997276274,-7.25430492062353,26.7768244158734,-0.0223786002833369,1236.01972685436,2375.29514345402
