t,iq,id,vq,vd,ia,ib,va,vb,theta_e,omega,r
0,0,0,0,0,0,0,0,0,0,0,0
0.01,0.000628162168764009,0.000342416899324177,-0.0299790490485462,-0.0171317694525801,-0.000584479007791519,-0.000412578880530897,0.0286031098618629,0.0193417427514093,2.68454594677925,-0.00529117554856341,0
0.02,0.000755858073446423,0.000407728820192543,-0.0363370358412817,-0.0203994347178866,-0.00069945953979828,-0.000498317740196875,0.0343421099155606,0.023603741167185,2.68450569151061,-0.00557700013807908,0
0.03,0.000799323302403111,0.000432770850615956,-0.0385869935215844,-0.0216523391677378,-0.000741133923756165,-0.000526240304390745,0.0364603503307944,0.0250683608204703,2.68446702189574,-0.00510823570013274,0
0.04,0.000777995722604715,0.000424732831997323,-0.0377588418254418,-0.0212501922964191,-0.000724524429494956,-0.00051062674629587,0.0357347680221115,0.0245015747053001,2.68443453638259,-0.00417157102111737,0
0.05,0.000791033593276914,0.000435400751356478,-0.0385211273885666,-0.0217839240353602,-0.000739866224124173,-0.000517596300580491,0.0365508600926194,0.0249489724869439,2.68440663053712,-0.0036612656694075,0
0.06,0.000788561020109012,0.000437053128430417,-0.0385325452712976,-0.0218666008851445,-0.000740269699292995,-0.000514630636296401,0.0366306795125833,0.0249218498069708,2.68438281677927,-0.00309816259240647,0
0.07,0.000797547369987262,0.000445125973297908,-0.0390589786662012,-0.0222704946655322,-0.000751490449427323,-0.000519115636344667,0.0372259708433879,0.0252151906965125,2.68436336991101,-0.00274161099799873,0
0.08,0.000782279860898928,0.000438556866612578,-0.0384328958100399,-0.0219418346681878,-0.000738864749728211,-0.00050830383397153,0.0366551013833396,0.0247978856261691,2.68434630643136,-0.002211461882774,0
0.09,0.000776614692552909,0.000437534324820207,-0.0382409724168836,-0.0218906627118135,-0.00073545318575445,-0.000503661868368606,0.0365247979971049,0.024647762913131,2.68433243491762,-0.00184380132585915,0
0.1,0.000773214952562718,0.000437373498848991,-0.038142677148563,-0.0218826155357497,-0.000733813672237268,-0.000500673980549849,0.0364744629287274,0.0245627001122807,2.68432095802702,-0.00155169285020687,0
0.11,0.000770632039788941,0.000437346825512913,-0.0380723521771187,-0.0218812934017931,-0.000732654130130505,-0.000498361226559812,0.036442461611793,0.0244998365893919,2.68431142416523,-0.00131130383020836,0
0.12,0.000768529632738949,0.000437341267596231,-0.0380159943544597,-0.0218810118372711,-0.000731724844399613,-0.000496471482392396,0.0364175202246607,0.0244491048193495,2.68430349721355,-0.00111185495244162,0
0.13,0.000799318306266058,0.000455241287377409,-0.0395029823318669,-0.0227765744199362,-0.00076138328597733,-0.00051618783044493,0.037877787346998,0.025387618657808,2.68429600931451,-0.00123105561194471,0
0.14,0.000817341481109219,0.000466575075748497,-0.0405318891385872,-0.023343625330493,-0.000779513692535973,-0.000527349790177696,0.0388410338349334,0.0260601798026552,2.68428936231598,-0.00124951241525087,0
0.15,0.000773080452395631,0.000441876435396224,-0.0383364366841214,-0.0221079145565899,-0.000737813226632216,-0.000498537674244651,0.0367630806026855,0.0246357092099573,2.68428359003475,-0.000703237034059699,0
0.16,0.00076417687600707,0.000438040449642458,-0.0379368891489579,-0.0219159944562418,-0.000730441907370663,-0.000492240137842901,0.0364145531795181,0.0243618285036733,2.68428005797956,-0.000539595605243312,0
0.17,0.000761977808899895,0.000437444289718499,-0.0378479708861192,-0.0218861610160789,-0.000728937359620658,-0.00049052830052146,0.0363485901400979,0.0242951217129167,2.684277357115,-0.000457723159995295,0
0.18,0.000761119912420076,0.000437351318485789,-0.037819408022492,-0.0218815152067821,-0.000728476224222777,-0.000489798006943402,0.0363318635050169,0.0242714652456169,2.68427515502997,-0.00039974707790905,0
0.19,0.000760587636206714,0.000437336553259177,-0.0378041168775253,-0.0218807791786628,-0.000728228845638781,-0.000489325619139998,0.0363244956419076,0.0242580041783333,2.68427333185625,-0.000353416915367489,0
0.2,0.000760178761265494,0.00043733398769128,-0.0377929715478278,-0.021880649394118,-0.000728046747882093,-0.000488958790459283,0.0363194947647668,0.0242480064408461,2.68427181711337,-0.000315237473546176,0
0.21,0.00075984497436811,0.000437333362438768,-0.0377839864494831,-0.0218806138809541,-0.000727899420119817,-0.0004886586632443,0.0363155260978471,0.024239914605021,2.68427055763367,-0.000283550433056005,0
0.22,0.000759568696664329,0.000437333076634279,-0.0377765675647048,-0.0218805926836618,-0.000727777685670566,-0.000488410140261999,0.0363122566750311,0.0242332294241952,2.68426951021579,-0.000257209520039227,0
0.23,0.00075933889281738,0.000437332875274013,-0.0377703866893109,-0.0218805923092896,-0.000727676460865289,-0.000488203406627941,0.0363095482911084,0.0242276522461646,2.68426863911989,-0.000235304858082572,0
0.24,0.000759147855272452,0.000437332713427568,-0.0377652417337647,-0.0218805917660526,-0.000727592316832429,-0.000488031544969279,0.0363072936039543,0.0242230099368058,2.68426791465727,-0.000217087834524181,0
0.25,0.00075898915704812,0.000437332579680685,-0.0377609633452707,-0.0218805729871347,-0.000727522417692201,-0.000487888775769716,0.0363054022275464,0.0242191576258192,2.68426731214376,-0.000201937362440692,0
0.26,0.000765153426708348,0.00044088360830347,-0.0380522021472199,-0.0220582408012881,-0.000733430509661135,-0.000491851410460946,0.0365934160239536,0.0244020076878594,2.68426701492134,-0.000253053939220182,0
0.27,0.000750153740292798,0.000432120510741733,-0.0373525518146104,-0.0216198007066748,-0.000718945303275711,-0.000482261776192937,0.0358911246339056,0.0239678134624947,2.68426602156984,-8.97524056443741e-05,0
0.28,0.000749608957672556,0.0004319261485051,-0.0371877175649756,-0.0216100791842294,-0.000718530521676256,-0.000481858564938958,0.0358096271380348,0.0238241991318907,2.6842656966672,-7.7274510101908e-05,0
0.29,0.000756902663538154,0.000436492727899192,-0.0376711682041268,-0.0218385531646994,-0.000725848348810267,-0.000486386387668733,0.0362280896067954,0.0241570867786872,2.68426573329002,-0.000146559314334857,0
0.3,0.000747003226651778,0.000431543253157098,-0.0371982692561321,-0.0215909239827003,-0.000717035706763648,-0.000479690728698747,0.0357970645534037,0.0238421769861288,2.68426716305383,-8.60641883518199e-05,0
0.31,0.000756689351787176,0.000436433507030271,-0.0376540789927429,-0.0218355953011043,-0.000725700389477976,-0.000486222095218175,0.0362178583535788,0.0241431071576431,2.68426704165376,-0.00017421995195268,0
0.32,0.000758399501207793,0.000437192826547781,-0.0377364861972242,-0.0218735890491736,-0.000727136985233036,-0.000487420943049515,0.0362883440699533,0.0242002556405113,2.68426665224097,-0.000181441965227502,0
0.33,0.000758638046537711,0.000437310670178751,-0.0377496707392192,-0.0218794897078875,-0.000727348232779626,-0.000487582665995314,0.0362994691398255,0.0242094661437189,2.68426627457079,-0.000175119069039088,0
0.34,0.000758615846881417,0.000437328911160959,-0.0377503149136866,-0.0218803870163082,-0.000727354955006515,-0.000487554457578135,0.0363005665203897,0.0242096361468878,2.68426595043691,-0.000167560619027341,0
0.35,0.000758556009657336,0.000437331694764808,-0.037748907181192,-0.0218805299533163,-0.000727331163692885,-0.000487499342927017,0.0363000797540067,0.0242083001110152,2.68426567899214,-0.000160845463462301,0
0.36,0.000758498558734671,0.000437332086237856,-0.0377473685114199,-0.0218805521117275,-0.000727306257616691,-0.000487447458591521,0.0362994257068338,0.0242069015696972,2.68426545289044,-0.000155180641111825,0
0.37,0.000758449431474175,0.000437332113100339,-0.0377460176382848,-0.0218805553179808,-0.000727284681184359,-0.000487403231182224,0.0362988366567241,0.0242056812740602,2.68426526478343,-0.000150454449860462,0
0.38,0.000758408220450408,0.000437332089051687,-0.0377448687811592,-0.021880555579316,-0.000727266539059395,-0.000487366152010619,0.0362983333983003,0.024204644683868,2.68426510832828,-0.000146521033720235,0
0.39,0.000758373936138263,0.000437332061846837,-0.0377439044491706,-0.0218805558102032,-0.000727251439761134,-0.000487335308282096,0.0362979109523072,0.0242037746256635,2.68426497820667,-0.000143249210135764,0
0.4,0.000758345414384526,0.000437332038101972,-0.0377430935032901,-0.0218805560157222,-0.000727238877355397,-0.000487309649331228,0.0362975556811609,0.024203042997282,2.68426486998825,-0.000140528035786144,0
0.41,0.000758321665658965,0.000437332018179629,-0.0377424091077472,-0.0218805562002222,-0.000727228417038135,-0.000487288284473434,0.0362972558286925,0.0242024255849303,2.68426477998628,-0.000138264898698938,0
0.42,0.000758301933261992,0.000437332001583655,-0.0377418323004006,-0.0218805563670311,-0.000727219725738308,-0.000487270532758898,0.0362970030993905,0.0242019052622975,2.68426470513431,-0.000136382712156896,0
0.43,0.000758285518701678,0.000437331987776985,-0.0377413438990012,-0.0218805565192276,-0.000727212495797555,-0.000487255765857658,0.0362967890878153,0.0242014647244427,2.68426464288213,-0.00013481735348974,0
0.44,0.000758271839901417,0.000437331976293388,-0.0377409277992194,-0.0218805566593815,-0.000727206470814791,-0.000487243460172896,0.0362966067367283,0.0242010894438574,2.68426459110883,-0.00013351549156496,0
0.45,0.000758260489407582,0.000437331966742812,-0.0377405744878117,-0.0218805567892245,-0.00072720147138808,-0.000487233249011983,0.036296451889795,0.0242007708201276,2.68426454805062,-0.000132432772064353,0
0.46,0.000758251268458103,0.000437331958799433,-0.0377402830424921,-0.0218805388315048,-0.000727197410176622,-0.000487224953115175,0.0362963079557498,0.0242005159545365,2.68426451224027,-0.000131532306755908,0
0.47,0.00075824341042391,0.000437331952193416,-0.0377400226089002,-0.0218805389462215,-0.000727193949026048,-0.000487217883867667,0.0362961937843385,0.024200281152647,2.68426448245805,-0.000130783416790796,0
0.48,0.000758236891165913,0.00043733194669934,-0.037739798275762,-0.0218805390550112,-0.000727191077570137,-0.000487212018972404,0.0362960954265188,0.0242000789259482,2.68426445768905,-0.000130160587492362,0
0.49,0.000758231419645809,0.000437331942130155,-0.0377396007044832,-0.0218805391591604,-0.000727188667543747,-0.000487207096768287,0.0362960087803951,0.0241999008643189,2.6842644370893,-0.000129642599062577,0
0.5,0.000758226937655936,0.000437331938329988,-0.0377394312987177,-0.0218805392589316,-0.000727186693447202,-0.000487203064587947,0.0362959344829709,0.024199748201586,2.68426441995725,-0.00012921180363741,0
0.51,4.68878656829671,-0.0310273331494547,5.56141212369418,1.56732509887462,-1.13189222022956,4.55022001448565,0.216667183724551,5.77398199742879,0.237189767736417,73.1445486273148,1620.65179766502
0.52,4.67599135823511,0.0197002358365415,6.20215712697675,-0.9521230263406,-4.11365250879285,2.22331876222995,-5.91778151044055,2.08642116546119,1.07950983690085,157.414317782664,1620.65179766502
0.53,4.64733742975976,0.0159041505703139,7.63597181288561,-0.751873236688801,-2.53336173113939,-3.89616176091931,-3.50883398602967,-6.82359604238964,2.56848508752079,248.970420346381,1620.65179766502
0.54,4.6812378400073,0.0320690648123065,5.94215803619045,-1.53403220221454,4.68057735065605,-0.0849223419351695,5.95909984102334,1.46684218960648,-1.58208745239936,332.644038079783,1620.65179766502
0.55,4.65275741934037,0.0388795381210159,7.36750967150814,-1.86280478027189,-4.29727524091798,1.78412127544757,-7.52761964941625,1.04172108690002,1.18563292168454,420.458689784501,1620.65179766502
0.56,4.6480700855126,0.0208017844124801,7.60331257549252,-0.944127921106201,4.60830561457579,-0.607048265577856,7.66167251505842,-0.0226698931065422,-1.69729605477081,507.250510931948,1620.65179766502
0.57,4.62843985588868,0.0741777578714746,8.58633148758777,-3.59477757820731,-3.38929136696205,-3.15288151841743,-3.70192618985089,-8.54068245144493,2.33609906086489,593.103275258003,1620.65179766502
0.58,4.63710757203064,0.0698319457899932,8.15460995171695,-3.35163204854062,-2.99450387357236,3.54126950208493,-7.88497732474693,3.94439265815062,0.71699337323086,678.77800968554,1620.65179766502
0.59,4.43366998091557,0.0567458302932575,9.91201175753815,-2.71022333459605,1.24539134606183,4.2555434416866,0.0513695512035848,10.2757310578943,-0.27190338826706,764.90022038507,1620.65179766502
0.6,4.07232567941496,0.0976923692390821,10.9923792624359,-4.7319641843301,2.56906527773683,3.16121556319038,2.98334333606859,11.5898036838485,-0.658441879011863,843.114746865416,1620.65179766502
0.61,3.76931351531307,0.085518006975378,10.0708837002948,-4.12682237094737,1.84270974245107,3.28929453094652,1.07637584978791,10.8302712992893,-0.487967364350468,915.946075006805,1620.65179766502
0.62,3.40631874229912,0.0723855804488927,13.4317141837806,-3.47980373354593,-0.588472584614548,3.35588245675445,-6.01444211077328,12.5038580460164,0.194837807849472,983.145030359724,1620.65179766502
0.63,3.14405137046129,0.0602144614912385,12.9408993891894,-2.87111208160159,-3.0535811667996,0.751216918898273,-13.2554780090353,0.0496421013070445,1.34872432490057,1044.86682728786,1620.65179766502
0.64,2.88667935608977,0.119936776492354,13.2656867413225,-5.85503636949012,-0.702525068001938,-2.80245625551213,3.04479850287311,-14.1770623784991,2.93749677333094,1101.62728285943,1620.65179766502
0.65,2.65551174527231,0.0436814056001413,13.2375426395769,-2.08411742016125,2.60456746781626,0.51949879698377,12.4962680398689,4.83935591079922,-1.35747523771971,1154.22654916672,1620.65179766502
0.66,2.45141712583627,0.074562653022475,12.5744220106556,-3.62250212437038,-2.02075176873576,1.38980854912481,-12.5335043614623,3.7616324866119,0.998733738194384,1202.33236858808,1620.65179766502
0.67,2.24378517722709,0.0923872127332288,13.0917483583096,-4.48956888236947,1.09651655730958,-1.95978538574165,10.6815036640596,-8.80088537032062,-2.59032711314712,1246.30974587848,1620.65179766502
0.68,2.07396083976019,0.0407755131231885,12.3601272324272,-1.94541493768854,-0.797847267774584,1.91478874673784,-6.75804886988851,10.5302497574259,0.414457570072228,1287.0977415392,1620.65179766502
0.69,1.90697511295761,0.0578102955298269,12.3155366764978,-2.80873739286354,0.967794030057138,-1.64416265226245,8.9422727825054,-8.92172667455664,-2.57927375892385,1324.31563290648,1620.65179766502
0.7,1.7382418592582,0.085317315853292,12.8665373857891,-4.15941480882726,-1.38832092468029,1.04944214502596,-12.9745638976288,3.80909536742612,0.972568327740362,1358.43382244589,1620.65179766502
0.71,1.5385411600929,0.0490997320979681,15.608280908947,-2.37933345194109,1.53900239849626,0.0314849553733096,15.4623731313502,3.19291054604187,-1.5184388045516,1389.94958369586,1620.65179766502
0.72,1.47698010147282,0.0299738975325217,12.046912364291,-1.44163256541322,-0.914623433197121,-1.1601002672729,-6.11507871642927,-10.4791323237395,2.49425606792306,1418.82093572007,1620.65179766502
0.73,1.31479226717427,0.0186639395994966,14.0125545170883,-0.8911653289542,-0.526225725593538,1.20503673561688,-6.60100127615448,12.3924429347126,0.425923538475566,1445.19058238703,1620.65179766502
0.74,1.20188063562504,0.00873995993295307,13.9865564800485,-0.401280165800886,-1.01640294971937,-0.641497071693889,-11.5565642872693,-7.88863802029626,2.14107369521041,1469.27225735191,1620.65179766502
0.75,1.05002712074239,0.096589485598317,16.3584974020689,-4.80525461187585,-0.34652341616736,0.995895579400975,-11.1431013086181,12.9043481960277,0.426578222249969,1491.26603943765,1620.65179766502
0.76,0.986252380230446,-0.0425281230307765,14.7258952281261,2.15155187670852,0.875457847198092,0.456153435302227,14.2515606581926,4.28651193323573,-1.1335485971948,1511.38073931767,1620.65179766502
0.77,0.868022847125755,0.0619412137451583,16.1760312960189,-3.08406941164394,0.43073063235758,-0.756155737557657,11.5510019725165,-11.7366871840627,-2.55256358546654,1529.83479641156,1620.65179766502
0.78,0.827300889748502,0.00582082035818055,14.1005855685202,-0.276554497484208,-0.537800430685498,-0.628674272483612,-8.87906342807056,-10.9574280013851,2.44097794053591,1546.67008971494,1620.65179766502
0.79,0.716031404104446,-0.0142687905242194,15.8588828513659,0.729750796147134,-0.687972691409258,0.198992828820311,-14.9268963439357,5.40596587625414,1.26931028350345,1561.98944634454,1620.65179766502
0.8,0.691079577211477,-0.0115447944059979,13.5904732057578,0.607663507779573,-0.151996375209669,0.674256157732202,-2.17187760638026,13.4295630814264,0.205018109743988,1576.02989265174,1620.65179766502
0.81,0.642951411467363,-0.000622421334152301,12.7673771387723,0.0779261888431444,0.442967933359826,0.466011067391233,8.86159363253644,9.19152597702595,-0.761021092465232,1588.74818644506,1620.65179766502
0.82,0.586423170193119,0.00735072872551576,12.6098665504204,-0.311216233153515,0.5846182765574,-0.0465579044545529,12.602444203605,-0.532907175980406,-1.63773253287041,1600.40731726925,1620.65179766502
0.83,0.448873772914257,0.0408709318581848,16.7228462377395,-2.05710066913557,0.261072960628573,-0.367422109173996,12.4443734276493,-11.3588212173294,-2.4330172603667,1611.04246774978,1620.65179766502
0.84,0.416126618235145,0.0491823715215902,15.7910431361775,-2.46705742321855,-0.0543108781298135,-0.41548838321796,2.27211285856913,-15.8202692396811,3.12925896170894,1620.67321828462,1620.65179766502
0.85,0.371442694753624,-0.0173482787704998,15.692395969031,0.888301465913744,-0.216033333354567,-0.302655310777537,-10.4009589994992,-11.7839052369722,2.47499808852043,1629.26405009641,1620.65179766502
0.86,0.327314388211451,0.0430092268785345,15.7635629038166,-2.11232364871069,-0.324839416265813,-0.0588545322554825,-14.3685521282009,-6.81883687725835,1.8806842144788,1637.03963156193,1620.65179766502
0.87,0.287101309356107,0.0263413335011827,15.7940326155683,-1.34266459988272,-0.273545437020761,0.0910709699615214,-15.6844621043494,2.29169434843318,1.34090361172502,1644.09514113293,1620.65179766502
0.88,0.297298582881289,-0.0226259357910539,13.4800687932215,1.13158286213633,0.292887897054025,-0.0558127235754926,12.716553619569,-4.61324164601109,-1.83505739223703,1650.32983105843,1620.65179766502
0.89,0.21463367282745,0.00236960312338955,15.9322674569256,-0.090563046108988,0.161008505383775,-0.141948898285426,12.1256644770052,-10.3350669555366,-2.28232568301887,1656.05393879659,1620.65179766502
0.9,0.187327100132458,-0.0252288428123075,15.7826091283759,1.23072419388003,0.104374102196667,-0.157588019038009,5.77315193521805,-14.7402900132048,-2.69047602939313,1661.03805842084,1620.65179766502
0.91,0.166867865972322,0.0365681432250975,15.3971606075482,-1.84204256122717,-0.0235457646888449,-0.169197253991622,3.02799672860433,-15.2084486843191,-3.06413226986038,1665.50134669008,1620.65179766502
0.92,0.124151899251115,0.061921510764927,16.2555552715975,-3.07608201229462,-0.0923328264051238,-0.103550068812682,-1.29774339190191,-16.4930658103064,2.87604901311147,1669.42614614514,1620.65179766502
0.93,0.119325848799508,0.0197490012707532,15.2958825861991,-1.02548422151104,-0.0819917470957477,-0.0889158852573723,-7.53659319678255,-13.3497342657286,2.56070427020711,1673.03877958045,1620.65179766502
0.94,0.152943414884501,0.00835409486961265,12.5416939676098,-0.424616403217143,-0.122470235867523,-0.0919919582581892,-9.32897942232586,-8.39312394790413,2.2695927917185,1676.10662045519,1620.65179766502
0.95,0.0882247273152495,0.00776900709018575,14.7862633402767,-0.365464254262901,-0.0834688117777028,-0.0296127918548034,-13.2959224141192,-6.47962922140439,1.99955295725385,1678.76922810492,1620.65179766502
0.96,0.0687079629228127,-0.00481219260775185,14.8375447261043,0.202063462908408,-0.0667794770190931,-0.0168654325694042,-14.6402025482942,-2.42033726722285,1.74825325823723,1681.15675741343,1620.65179766502
0.97,0.0912150574831562,0.0105031324069744,12.8801761881563,-0.523020106002272,-0.0904546612173989,0.015762511413462,-12.8888618572907,0.222999311449433,1.5129120469022,1683.155472942,1620.65179766502
