t,iq,id,vq,vd,ia,ib,va,vb,theta_e,omega,r
0,0,0,0,0,0,0,0,0,0,0,0
0.01,0.000397875336224011,0.000215223284085544,-0.0187095890952255,-0.0107635577140425,-0.000135552869784657,0.000431568377758473,0.00592634225292776,-0.020755273216146,0.800190184242046,-0.00391372162063976,0
0.02,0.000562859991167228,0.000295210467717574,-0.0266451516747425,-0.0147638033468459,-0.000198190690048195,0.000603888268047179,0.00883259566286831,-0.029153374605535,0.800156913380467,-0.00496591230558287,0
0.03,0.00064131321246522,0.00033304297583592,-0.0305117937974643,-0.0166558568073112,-0.000228099157321409,0.0006856901885439,0.0102875687214815,-0.0332047143719899,0.800120305499284,-0.00501061524269864,0
0.04,0.000650449247933286,0.000338057423323166,-0.0311519473340118,-0.0169066344679094,-0.000231137029942883,0.000695659916187542,0.0105709998951264,-0.0338309336694952,0.800086499487414,-0.0043682639328954,0
0.05,0.000663298639025593,0.000348217297840147,-0.0319378202215665,-0.0174147421287368,-0.000233256400322557,0.00071190717285111,0.010779794277608,-0.0347432531471645,0.800056761434577,-0.00385517387853504,0
0.06,0.000662713111570741,0.000351814597639257,-0.0320757491429468,-0.0175946456645581,-0.000230311891145564,0.000714085857692756,0.0107525132039667,-0.0349686816872059,0.800031081068728,-0.0032859581718611,0
0.07,0.000662279185755146,0.00035609215494453,-0.0321920677703086,-0.017808566041855,-0.000227005275564061,0.000716856992407567,0.0106861752138467,-0.0352034076630973,0.800009850320827,-0.00281591104882679,0
0.08,0.000653085340416575,0.000354601232969688,-0.0318838474826188,-0.0177340073069814,-0.00022143572312459,0.000709386154936045,0.0105163765312488,-0.03493537705696,0.799991590538583,-0.00231639875411135,0
0.09,0.000645741264977471,0.000354071782253374,-0.0316399755619563,-0.0177075213449746,-0.000216525800765716,0.000703892879553097,0.0103593685975039,-0.0347466235482668,0.799976640502902,-0.00190940510344445,0
0.1,0.000639803106996101,0.000353883180159534,-0.031443818490946,-0.0176980913379193,-0.000212388957463488,0.000699622935351081,0.0102248035728265,-0.034603317040336,0.799964391520428,-0.00157679892633688,0
0.11,0.000634970266455311,0.000353815513677913,-0.0312846241164021,-0.0176947082942808,-0.000208962365443389,0.000696209298149484,0.0101126192732731,-0.0344900759517587,0.799954351793757,-0.00130455185545989,0
0.12,0.000631023005504992,0.000353790840914692,-0.0311547924085573,-0.0176934773663284,-0.000206142382355523,0.000693443084029589,0.0100200623503494,-0.0343988165759839,0.799946121216794,-0.00108152304680843,0
0.13,0.000646759282686394,0.000364211990127212,-0.0319299861140504,-0.0182146449969059,-0.000210164229921266,0.000711884077610284,0.0102127446671936,-0.0353128468403422,0.799938832588241,-0.00109167861869832,0
0.14,0.000655260850655199,0.000370258258346759,-0.0324526272207345,-0.0185170307167765,-0.000212045024243972,0.00072214601568431,0.0103767184516096,-0.0358939710016881,0.799932249426311,-0.00103917895635659,0
0.15,0.000634979075083098,0.000359614520250819,-0.0314638140367546,-0.0179847237543281,-0.00020490879479624,0.000700380906924058,0.0100381221604848,-0.0348232391622341,0.799926520235382,-0.00069460130792138,0
0.16,0.000625561975174747,0.000355843301461624,-0.0310526921056606,-0.0177961213249038,-0.000200778829196242,0.00069111511467065,0.0098745002033332,-0.0344015387294526,0.799922662773116,-0.000508364523808736,0
0.17,0.000620954276097548,0.000354506985348098,-0.0308573880346037,-0.0177292968608759,-0.000198402887397523,0.000686946657271692,0.0097808731042974,-0.0342175522914308,0.799919862531903,-0.000397233454637036,0
0.18,0.000618520575397027,0.000354033368258079,-0.0307584655292864,-0.0177056119096129,-0.000196985727313515,0.000684911637559471,0.0097263457667089,-0.0341316582198485,0.79991772301745,-0.000324058980963451,0
0.19,0.000617105529689479,0.000353865428460928,-0.0307037839182446,-0.0176972102634351,-0.000196086578066639,0.000683805549944781,0.00969291919687014,-0.0340875478063388,0.799916036276079,-0.000271807113313207,0
0.2,0.000616195792154749,0.000353805812993672,-0.0306703521919509,-0.0176942249950747,-0.000195474638720525,0.000683129177531169,0.00967097261961162,-0.0340621254525515,0.799914682371874,-0.000232307329598459,0
0.21,0.000615558061680614,0.000353784596852404,-0.0306478635879498,-0.0176931563786156,-0.000195031230235943,0.000682669823196153,0.00965554882936872,-0.0340457001976373,0.799913584798283,-0.000201362677298161,0
0.22,0.000615081747862441,0.000353777002400155,-0.0306315411826168,-0.0176927842345216,-0.000194694253491714,0.000682332669332239,0.0096440696884282,-0.0340340689462254,0.799912690248545,-0.00017661222107459,0
0.23,0.00061471131411955,0.000353774248015517,-0.0306190694920147,-0.017692651775329,-0.000194429963586434,0.000682072728911886,0.00963519121924969,-0.0340252910871953,0.799911959082248,-0.000156586510746971,0
0.24,0.00061441642818133,0.000353773219904228,-0.0306092428285912,-0.0176925902400094,-0.000194218751691291,0.000681866640063866,0.00962816512012634,-0.0340184057880454,0.799911360553222,-0.000140282011970443,0
0.25,0.00061417830061622,0.000353772812801926,-0.0306013476160765,-0.0176925737106772,-0.000194047893526372,0.000681700522989085,0.00962249676800859,-0.0340128975004683,0.799910870207559,-0.000126962788815591,0
0.26,0.000616516553317668,0.00035530213521175,-0.030710898228082,-0.0177690573955466,-0.000194659378033793,0.000684426763316735,0.00964777803628647,-0.0341440924563004,0.799910661064402,-0.000147626694499283,0
0.27,0.000611739702754349,0.000352311253905531,-0.0304945322474885,-0.0176194863857908,-0.000193316427833654,0.000678953195945127,0.00959677163529107,-0.0338860557113432,0.799909919575421,-7.97956865891536e-05,0
0.28,0.000610837393289496,0.000351950036304056,-0.0303696735033684,-0.01760140949152,-0.000192920684622916,0.000678065452990903,0.00951979635287533,-0.0337860942132876,0.799909611760377,-6.33040369840133e-05,0
0.29,0.000612371657169503,0.000353126774647916,-0.0305259969986804,-0.0176602595766772,-0.000193201253748041,0.000679978559241355,0.00959091955771486,-0.0339372291608568,0.799909567649365,-7.89036948118098e-05,0
0.3,0.000602012429682794,0.000348007009766433,-0.0300397347932187,-0.0174042206827372,-0.000189338661246887,0.000669087973062132,0.00942056277695735,-0.0334147506497615,0.799910618426912,9.91973606668718e-06,0
0.31,0.000608961176756248,0.000351729942756564,-0.0303599314776661,-0.0175904071253069,-0.000191729072563904,0.000676600051848709,0.00952051603968883,-0.0337714026433706,0.799910838805362,-6.99416839100188e-05,0
0.32,0.000611845460511742,0.000353048901977351,-0.0304943575059138,-0.0176563713113359,-0.000192878839866702,0.000679555846025854,0.00957097212155683,-0.0339123838771418,0.799910691733458,-9.78616322891987e-05,0
0.33,0.000612995793666112,0.000353516162721018,-0.0305492631093354,-0.0176797418883647,-0.000193378214739522,0.000680692578497441,0.00959406273604135,-0.0339674065830687,0.799910429627143,-0.000104537748523301,0
0.34,0.00061341466781287,0.000353681680201117,-0.0305704011174886,-0.0176880218277733,-0.000193563154750061,0.000681103215908619,0.00960344629317697,-0.0339880767322601,0.799910153610757,-0.000103010439262348,0
0.35,0.000613531669397392,0.000353740297585683,-0.0305774161989567,-0.017690954590964,-0.000193606064173276,0.000681226834031728,0.00960642610995194,-0.0339950707182351,0.799909900906517,-9.87353038918199e-05,0
0.36,0.000613530035201114,0.000353761045319097,-0.030578721453256,-0.0176919803112672,-0.000193590286630034,0.00068124061989993,0.00960664023594482,-0.0339967180243507,0.799909682306554,-9.39247631737385e-05,0
0.37,0.000613486438189998,0.000353768379630936,-0.0305778627409677,-0.0176923471851914,-0.000193553778997121,0.00068121553924267,0.00960576239928321,-0.0339963846232997,0.799909498142407,-8.94168009309669e-05,0
0.38,0.00061343236346129,0.000353770964581938,-0.0305763191819642,-0.0176924784015194,-0.000193513086138678,0.000681179745306643,0.00960455858150007,-0.0339954047065205,0.799909345008568,-8.54771155832195e-05,0
0.39,0.000613380267671801,0.000353771869281751,-0.0305746963751319,-0.017692525225927,-0.000193475001674531,0.000681144119839021,0.009603357627992,-0.0339943087820661,0.799909218525045,-8.21416317864755e-05,0
0.4,0.00061333405081215,0.000353772180671549,-0.0305732014479802,-0.0176925414760368,-0.000193441562773827,0.000681112160730054,0.00960227046579242,-0.0339932798147197,0.799909114415089,-7.93612576291112e-05,0
0.41,0.000613294702441836,0.000353772283494878,-0.0305719051897527,-0.0176925475171517,-0.000193413208568786,0.000681084834189932,0.00960133355219347,-0.0339923817729418,0.799909028876257,-7.70618268292728e-05,0
0.42,0.000613261873323256,0.000353772313771905,-0.0305708124731855,-0.017692549169992,-0.000193389591564873,0.000681061995076695,0.00960054621621349,-0.033991622258339,0.79990895866184,-7.5167883776268e-05,0
0.43,0.000613234632138019,0.000353772319452271,-0.0305698971548919,-0.0176925493478123,-0.000193370008472351,0.000681043029394982,0.00959988758312363,-0.0339909851707306,0.799908901055472,-7.36112354953703e-05,0
0.44,0.000613212163980964,0.000353772317325983,-0.0305691361846853,-0.0176925495085779,-0.000193353861532264,0.000681027381821741,0.00959934002675189,-0.0339904555168376,0.799908853805663,-7.23332361331652e-05,0
0.45,0.000613193770360163,0.000353772313178648,-0.0305685094742685,-0.0176925496547445,-0.000193340644424766,0.000681014570177247,0.00959888907305324,-0.0339900193193129,0.799908815055509,-7.12846190264022e-05,0
0.46,0.000613178578160704,0.000353772308925995,-0.030567985783476,-0.0176925497894227,-0.000193329728495962,0.000681003987769301,0.00959851225961305,-0.0339896548277862,0.799908783278439,-7.04244777618677e-05,0
0.47,0.000613166179928961,0.00035377230513698,-0.0305675549231926,-0.017692549914067,-0.000193320820231824,0.00068099535134647,0.00959820223421689,-0.0339893549558567,0.799908757220814,-6.97190502141189e-05,0
0.48,0.000613155935380667,0.00035377230192289,-0.0305671933081787,-0.0176925500309663,-0.000193313459582629,0.000680988215055559,0.00959794204276739,-0.0339891032815149,0.799908735853575,-6.91405572321699e-05,0
0.49,0.000613147553477517,0.000353772299249664,-0.0305668932952238,-0.0176925501411762,-0.000193307437237287,0.000680982376248175,0.0095977261734041,-0.0339888944880528,0.799908718332305,-6.86661794701214e-05,0
0.5,0.000613140684973547,0.000353772297044093,-0.030566643089001,-0.0176925502459486,-0.000193302502264109,0.000680977591660782,0.00959754614103929,-0.0339887203643563,0.799908703965262,-6.82771877915843e-05,0
0.51,4.75158114722711,-0.0129151151830501,2.42137383923488,0.65399317223526,-0.730396880141138,4.69512625989593,0.280791980336353,2.49237120077251,0.151609846304008,47.0170107190531,2692.55562258098
0.52,4.75019837546447,-0.00267584476598182,2.49090324697244,0.15157934207785,-3.03544319013561,3.65383037453435,-1.47399355524789,2.01368276593169,0.692652258208973,100.768375759225,2692.55562258098
0.53,4.73818911446587,-0.0450993056750504,3.09195806672556,2.28440255475815,-4.72590962821802,-0.343872385822724,-3.22989072678656,2.08482747765685,1.63391356476001,156.760296053332,2692.55562258098
0.54,4.73397420985366,0.047462771070709,3.30337830999105,-2.34159141220236,-0.696705348614593,-4.68266656846386,1.86607841285897,-3.59348159278449,3.00391791966621,216.613594870715,2692.55562258098
0.55,4.72050403159201,0.0307387862257926,3.97758516823356,-1.4913857265539,4.70782458028024,0.347118000922229,3.84548039073631,1.80490878450486,-1.4906856943181,270.724957171843,2692.55562258098
0.56,4.73294660233515,0.00993201403283289,3.35632516913089,-0.448035391522885,-3.03722883294995,3.62989300141975,-2.50222692332666,2.28134056580287,0.698836132156461,328.11462783383,2692.55562258098
0.57,4.69195677966023,0.00863337397103203,5.40668097020846,-0.365240300659319,0.763117029492049,-4.62949083125185,1.24944260382074,-5.2729965646298,-2.97638349594585,382.595755588277,2692.55562258098
0.58,4.70420288993337,0.0152377215717249,4.79532646110601,-0.693429319215301,-0.170635183858503,4.70113184795382,-0.882349144597302,4.76418514295564,0.0395198508788605,439.819813288435,2692.55562258098
0.59,4.67492188826146,0.0122777313960367,6.26040340734337,-0.541710165478171,1.46889937504914,-4.4381730509315,2.49649236995104,-5.76659575250729,-2.81934487494782,495.911534292501,2692.55562258098
0.6,4.69280935541159,0.0590718695341916,5.36711472853679,-2.87405101749283,-3.95547965100058,2.52589189446603,-6.07569658511513,0.389872756227533,1.01507793451875,551.296189074167,2692.55562258098
0.61,4.66141562369084,0.0782484785975541,6.93797922533129,-3.82384789368943,4.02412943437243,2.35399675798615,3.94308593937905,6.87091272829694,-1.02471643879311,606.826647836345,2692.55562258098
0.62,4.6753844244122,0.0545538028013595,6.24080371182082,-2.63302197269213,2.13122622626891,-4.16173886805742,5.2386619370337,-4.29381611013215,-2.6566442416769,662.641023643949,2692.55562258098
0.63,4.66012448613505,0.0689885323176214,7.00514098544033,-3.34564569693496,-3.19173036053717,-3.39622981399847,-2.24958703318722,-7.429986778954,2.40202884693956,718.227134654694,2692.55562258098
0.64,4.65445042183239,0.0679948707920082,7.29024050758795,-3.27751193219186,-4.65494192384442,0.00690777716601104,-7.24660131215603,-3.37290090972071,1.58391989375026,773.132572497872,2692.55562258098
0.65,4.64723031566935,0.0940990852028167,7.65268230340832,-4.56263474499158,-4.24375739488591,1.89634580656151,-8.825348754126,-1.22245720626531,1.17080620397053,828.153699559925,2692.55562258098
0.66,4.65277333139362,0.0942596870339292,7.37705952078442,-4.58517343106572,-4.23591127683197,1.92723641952282,-8.58916393577645,-1.2927047035206,1.16406841961815,884.145845192636,2692.55562258098
0.67,4.60580575895575,0.0923439780175793,9.72704656369236,-4.45796710293448,-4.60476070601821,0.134732846094709,-9.76766657243606,-4.36824853606117,1.56159199197504,938.600613884789,2692.55562258098
0.68,4.64427344280663,0.0909827178129045,7.80531945570418,-4.39716025235359,-3.32340862222371,-3.24538268871772,-2.34333546046846,-8.6467802684111,2.3639045662884,994.141573171962,2692.55562258098
0.69,4.62515286421252,0.0898808116082287,8.7630535155752,-4.3481131862001,1.83664710034181,-4.24580322276418,7.59119755020839,-6.17016328394575,-2.71388912313896,1049.44284297049,2692.55562258098
0.7,4.5508155408392,0.122629317480177,12.4816809097637,-5.96165044202409,4.12110200190695,1.9342901349404,8.47454588728752,10.9323239217608,-1.1050176943399,1104.07252220099,2692.55562258098
0.71,4.55121229375062,0.101749958080152,12.4636901358575,-4.89407526261021,-3.52104993502682,2.88549714118793,-12.8310220246877,3.82889256584003,0.906631227074772,1158.75016458352,2692.55562258098
0.72,4.54180330583946,0.0812283331140026,12.9360217184576,-3.85909656590828,0.727918660915026,-4.4838275763154,6.09849272132032,-12.0433247375222,-2.96277088149705,1213.59516856883,2692.55562258098
0.73,4.54065150028005,0.143502966308206,12.9955113750728,-6.97615359956841,0.80742882386037,4.47058920532117,-4.99620903373846,13.8776053494689,-0.1470892700218,1268.58636703412,2692.55562258098
0.74,4.53805268962501,0.117655001254712,13.127514953756,-5.70554895051436,-0.442716268136504,-4.51793838150326,4.74966415645166,-13.5028007497971,3.06983424157725,1323.50721389523,2692.55562258098
0.75,4.5442283886481,0.138702274776064,12.820762253061,-6.73531260755607,-1.65976680238446,4.23254345883487,-11.2350203383254,9.13841882758898,0.404228989708371,1378.01148529733,2692.55562258098
0.76,4.530926408596,0.130110449026722,13.4879719961884,-6.27143403364825,4.30363562094306,-1.42300502149802,14.7194440577937,2.14341784023702,-1.86142340419803,1432.2391102181,2692.55562258098
0.77,4.54273683086775,0.111627297921749,12.8996436447474,-5.3796434759133,-2.60441566789892,-3.72369945040766,-2.64861808698076,-13.7231990555674,2.55582637153913,1487.18226916896,2692.55562258098
0.78,4.53075194998766,0.15086163074785,13.5011063131355,-7.29231446602893,-3.94515312508777,2.23298886776426,-15.3432404182196,-0.206628697802564,1.08903087164698,1541.15992726107,2692.55562258098
0.79,4.50594151601587,0.115756020600245,14.7438910777628,-5.55912106375628,0.0201069358921265,4.50738328891494,-5.87075720526365,14.6225976129851,0.021223132762191,1595.84337106179,2692.55562258098
0.8,4.51325726703774,0.102157771157705,14.3804565306595,-4.89045675574346,2.80723155039962,3.53544599606865,4.78738748494717,14.4150968910707,-0.648455671662168,1650.24312684005,2692.55562258098
0.81,4.46308234892561,0.128046581467658,16.8915840820376,-6.14860991226481,4.39406413080025,-0.79227545382371,17.6197036585406,3.56048587119228,-1.72050319772861,1704.26055117713,2692.55562258098
0.82,4.46823494847219,0.173084289928474,16.6364474962589,-8.37257020040359,4.46267229647215,-0.282201524567637,16.8360418120683,7.96360553761626,-1.59523097884878,1758.24896681031,2692.55562258098
0.83,4.45450804860453,0.167944704691781,17.3253436492876,-8.10817328294838,3.99524257714701,1.97708981299997,11.3601011539898,15.3901952009501,-1.07358400728436,1812.29951932762,2692.55562258098
0.84,4.43357210456854,0.143227341068454,18.3747389761618,-6.89431387049729,0.830727653222305,4.35740372742871,-3.95396368951153,19.2231310490522,-0.156092758958595,1866.41265159897,2692.55562258098
0.85,4.42156289518583,0.175380192930855,18.9778654540601,-8.52558980697746,-3.9776452766593,1.93889522698533,-20.8042105604934,-0.1728632520228,1.15688461760704,1920.49326016778,2692.55562258098
0.86,4.21119983435612,0.135251954871361,15.7654440042086,-6.50168348009246,-1.29698878689229,-4.00878001676984,1.87801634150963,-16.9497541972197,2.86079069341167,1972.53692664608,2692.55562258098
0.87,3.87121822666154,0.158423013186797,19.4176846782758,-7.64295293780497,3.81080675778009,0.699414229481547,17.2534557930505,11.7379500370252,-1.34838153124062,2021.19376233794,2692.55562258098
0.88,3.67726483011115,0.148464860934752,16.6284996951851,-7.21184531471197,-3.15801688490304,1.88977453691494,-18.0522297874332,1.62318041443742,1.07190191414843,2067.1548756385,2692.55562258098
0.89,3.43081077784759,0.174738175801531,17.1632877543683,-8.48289172296189,2.00742673434699,-2.78769329907481,17.3477753153615,-8.09892524539398,-2.46661360528294,2109.7200113304,2692.55562258098
0.9,3.17779326668548,0.135452431972215,18.8275720640933,-6.58151681254533,-1.63279241931873,2.72959819800169,-15.8435223476612,12.1151406513339,0.581679456938267,2150.00481902559,2692.55562258098
0.91,2.95699891938133,0.113232285973373,19.5916415962607,-5.46931980358794,1.9825675730117,-2.19683635673019,17.589988553827,-10.2146063177436,-2.36914315455819,2187.41753782049,2692.55562258098
0.92,2.81104780285756,0.123426258509637,17.1902883515512,-5.9571644041336,-2.60757617845042,1.05724654873775,-18.1926925058968,0.140572875186196,1.22947832398035,2222.4596416855,2692.55562258098
0.93,2.63234555906314,0.082516466323866,17.0934515340175,-3.95192735045284,2.35186420917755,-1.18523704427582,17.1652162316749,-3.62755659485933,-2.0062671886059,2255.39770029184,2692.55562258098
0.94,2.43558379495575,0.0857891117446089,18.4780978362049,-4.15269802914579,-2.17435537709062,-1.10073016133023,-14.1771538160723,-12.5575997006219,2.07462645674808,2286.25391400644,2692.55562258098
0.95,2.25005624103994,0.114903641961807,19.8280203521925,-5.63248342691256,-0.0893381141948749,2.25121625707771,-7.40500374035931,19.23645446143,0.0906862508038124,2315.06402168697,2692.55562258098
0.96,2.08138707037035,0.0982425556560615,20.8227868658782,-4.81282042733723,2.05526041456814,-0.343115672559388,21.2451733173058,2.32256411003479,-1.68905039217947,2341.98449880211,2692.55562258098
0.97,1.92919558034152,0.0710334808944349,21.4646107254989,-3.46227561629347,-0.331828275257065,-1.9017705798432,0.521387632307086,-21.7358004448251,3.00565146507995,2367.185990827,2692.55562258098
