t,iq,id,vq,vd,ia,ib,va,vb,theta_e,omega,r
0,0,0,0,0,0,0,0,0,0,0,0
0.01,0.00128374340580545,0.000730259107766072,-0.062711136015394,-0.0366056280929801,0.00107356229350835,0.00101426796182338,-0.0533353550510038,-0.0492747246568277,-0.296589416255669,-0.00339988726448189,0
0.02,0.00145883816804669,0.000831372869124462,-0.0716285665350691,-0.0416741340236002,0.0012214628299547,0.00115213636480458,-0.060790157025591,-0.0563199946669901,-0.296613964594523,-0.00361436074123401,0
0.03,0.00148430425402972,0.000846250858652332,-0.0729493356036258,-0.0424199375076711,0.00124316271172288,0.00117211181483779,-0.0618908152040357,-0.0573636091659603,-0.296638080777758,-0.00340627211605921,0
0.04,0.00147080864695035,0.000839451823237683,-0.0723974911105992,-0.0420790925948328,0.00123274027383796,0.00116116702361844,-0.0614047504385214,-0.0569342021661559,-0.296659183786148,-0.0031219334564394,0
0.05,0.00148205459253405,0.000846251583619715,-0.0730233924890547,-0.0424199726584005,0.00124255438429345,0.0011699086118596,-0.0619148805223345,-0.0574318509265984,-0.296679596413908,-0.00291634114177818,0
0.06,0.00148104839205796,0.000846257065660272,-0.0730573110144067,-0.0424202501988596,0.00124228739534491,0.00116892146364268,-0.0619261398426691,-0.0574630448529817,-0.296698355122616,-0.00269499691942997,0
0.07,0.00151431231167511,0.000865437935685754,-0.0747195553764714,-0.0433817069910677,0.00127037584564603,0.00119510242599283,-0.0633325751253003,-0.0587704805588198,-0.296715478011314,-0.00259063711110635,0
0.08,0.00147930031548429,0.000846278532047575,-0.0731179497564659,-0.042421301069559,0.00124183538150573,0.0011672024941873,-0.061946772284885,-0.0575186818738733,-0.296731367750296,-0.00230552631946199,0
0.09,0.00147844639064996,0.000846242793028973,-0.0731403842028348,-0.0424195195615894,0.0012415683954969,0.00116637837517789,-0.0619524608686566,-0.0575397604573735,-0.296745835771074,-0.00213458758103682,0
0.1,0.00147771912674508,0.00084623873160115,-0.073163622530863,-0.04241930669329,0.00124136731945751,0.0011656676141135,-0.0619598161869058,-0.0575612232345947,-0.296759104457737,-0.00197797818620094,0
0.11,0.0014770519942449,0.000846235053044842,-0.0731849238567807,-0.0424191320300831,0.00124118289423145,0.00116501561438974,-0.0619665788488229,-0.0575808904748878,-0.296771273400971,-0.00183434926529267,0
0.12,0.00147644050826023,0.000846231678801053,-0.0732044738906135,-0.0424189574017451,0.00124101384349468,0.00116441799577847,-0.0619727717800239,-0.0575989453250114,-0.296782433750543,-0.00170262467662434,0
0.13,0.00153794197488034,0.000881285818782633,-0.0761885114567119,-0.0441761041057015,0.00129253485345336,0.00121296490678606,-0.064526437006415,-0.0599379377289915,-0.29679361895588,-0.00174811292455844,0
0.14,0.00170037522862511,0.000975115898240931,-0.0844996043067878,-0.0488795235350612,0.00142978040203684,0.00134084112969265,-0.0714555035511388,-0.066509412576503,-0.296803538363159,-0.00209677788418786,0
0.15,0.00147518220625599,0.000846433591757957,-0.0732766424635797,-0.0424290821526073,0.0012408741666575,0.00116311808060601,-0.0620053053677351,-0.0576631203569657,-0.296812715022737,-0.00134636428461326,0
0.16,0.00147435779168796,0.000846220528330878,-0.0732710234622304,-0.042418411606989,0.00124043828161133,0.0011623824456661,-0.0619939035280667,-0.0576603888975388,-0.296820441809096,-0.0012540203336119,0
0.17,0.00147396866473252,0.000846218039435406,-0.0732833751489833,-0.0424182898194487,0.00124033032222557,0.00116200227480289,-0.0619978083162825,-0.0576717968196835,-0.296827526949776,-0.00117039299463818,0
0.18,0.00147361259974372,0.000846216072524069,-0.0732947386520338,-0.0424181854583168,0.00124023184495513,0.00116165429723335,-0.0620014070218534,-0.0576822910342209,-0.296834024852916,-0.00109369880040306,0
0.19,0.00147328610424367,0.000846214268966429,-0.0733051598881761,-0.0424180810644078,0.00124014154305837,0.00116133521738586,-0.0620046991509135,-0.0576919175502292,-0.296839984192702,-0.00102336122154285,0
0.2,0.00147298644538043,0.000846212614737108,-0.0733147027163431,-0.0424180088466882,0.00124005865659641,0.00116104237037887,-0.0620077367267401,-0.0577007252548074,-0.296845449606454,-0.000958853402137386,0
0.21,0.00147271158298269,0.000846211097482889,-0.0733234491823578,-0.0424179394955204,0.00123998262536033,0.00116077375786976,-0.062010518056362,-0.0577087986482567,-0.296850462032543,-0.000899692156781767,0
0.22,0.00147245977081732,0.000846209705871903,-0.0733314807631308,-0.0424178701020347,0.0012399129720079,0.00116052766655248,-0.062013066335768,-0.0577162141736804,-0.296855059015137,-0.000845434347710528,0
0.23,0.00147222868057789,0.000846208429508286,-0.0733388358379846,-0.0424178006698082,0.00123984904608912,0.00116030183012822,-0.0620153947639615,-0.0577230064012994,-0.296859274987638,-0.000795673565539808,0
0.24,0.00147201691527696,0.000846207258855123,-0.0733455864487777,-0.042417728290044,0.00123979046697778,0.00116009487620264,-0.0620175234402958,-0.0577292431193714,-0.296863141529108,-0.000750037085128052,0
0.25,0.00147182220773738,0.000846206185162691,-0.0733517494740942,-0.0424176938774568,0.00123973659712353,0.0011599046032968,-0.0620194980860534,-0.0577349267077211,-0.296866687601006,-0.000708183073750737,0
0.26,0.00148009694866566,0.000850891652771815,-0.0737608097556577,-0.0426525398774829,0.00124664146684721,0.001166442726988,-0.0623639202123719,-0.0580571930905681,-0.296869930910992,-0.000694056785351774,0
0.27,0.00142767250008439,0.000821372080226924,-0.0712724271395884,-0.0411728305182916,0.00120308105771154,0.00112494303422404,-0.0602211912191947,-0.0561103285625479,-0.296873067118199,-0.00050771661592841,0
0.28,0.00137715106674089,0.000791887012709411,-0.0684204680515201,-0.0396948433991886,0.00116010981882832,0.00108525356934752,-0.0579737252323253,-0.0538153158827674,-0.29687596130069,-0.00032963385160017,0
0.29,0.00147102573201019,0.000846113763480609,-0.0733636931446867,-0.0424130598278411,0.00123942852250181,0.00115915578875164,-0.0620192228348022,-0.0577469922572157,-0.296878155966551,-0.000572342491965145,0
0.3,0.0014701422831681,0.000845678304200934,-0.0733268240131777,-0.0423912150539448,0.00123875506770186,0.00115843688183597,-0.0619876176645797,-0.057718051681248,-0.296879361004111,-0.000555783208211592,0
0.31,0.00147100559199474,0.000846200823260784,-0.0733775953203057,-0.0424174048255113,0.00123950982745265,0.00115910684262295,-0.0620276412478127,-0.0577588040765605,-0.29688155973611,-0.000532642950796295,0
0.32,0.00147089668260142,0.000846201068377848,-0.073381182420542,-0.0424174138470617,0.00123948054215254,0.00115900012279418,-0.0620288158950484,-0.0577621063463578,-0.296883579248675,-0.000508811787298774,0
0.33,0.00147079493561036,0.000846200508802951,-0.0733843792405463,-0.0424174142608335,0.00123945238827858,0.00115890069501489,-0.0620298584821844,-0.0577650483058368,-0.296885431384109,-0.000486951158475121,0
0.34,0.00147070185864356,0.000846199994307169,-0.0733873195607029,-0.0424173795831762,0.00123942663563115,0.00115880973514685,-0.0620307836184652,-0.0577677647714287,-0.296887130009086,-0.00046690238661298,0
0.35,0.0014706166979183,0.000846199522439875,-0.0733900228595366,-0.0424173448836483,0.00123940307617797,0.00115872650730627,-0.0620316312701878,-0.0577702633217223,-0.296888687847469,-0.000448515308624663,0
0.36,0.00147053811757624,0.000846199089671381,-0.073392474797745,-0.0424173452251087,0.00123938132933096,0.00115864972062792,-0.0620324314432872,-0.057772519264072,-0.296890116567266,-0.000431652199057963,0
0.37,0.00147046646102406,0.000846198692763239,-0.0733947406385615,-0.042417307575605,0.00123936150491311,0.00115857969116084,-0.0620331340100061,-0.0577746157084736,-0.296891426871052,-0.000416186747478434,0
0.38,0.00147040033712141,0.000846198328744035,-0.073396794952535,-0.0424173078771636,0.00123934320452541,0.00115851507731779,-0.0620338047161602,-0.0577765055129493,-0.296892628573044,-0.000402003112393504,0
0.39,0.0014703402056896,0.000846197994889638,-0.0733987011674849,-0.0424172731043561,0.00123932657055146,0.00115845630843279,-0.0620343928057544,-0.0577782701359659,-0.296893730674157,-0.000388995053545848,0
0.4,0.00147028467558122,0.000846197688700895,-0.0734004268685669,-0.0424172733717055,0.00123931120321792,0.00115840204471084,-0.0620349563187785,-0.0577798575569816,-0.296894741429942,-0.000377065136152534,0
0.41,0.00147023397379013,0.000846197407885282,-0.0734020174240557,-0.0424172385710031,0.00123929717553834,0.0011583524944943,-0.0620354419234078,-0.0577813312002957,-0.296895668411348,-0.000366124001066292,0
0.42,0.00147018729124618,0.000846197150340829,-0.0734034635942765,-0.042417238809581,0.00123928425687376,0.0011583068761134,-0.0620359143571055,-0.0577826612898988,-0.296896518561617,-0.000356089695459968,0
0.43,0.00147014445040785,0.000846196914139325,-0.0734047851027775,-0.0424172390350753,0.00123927240083612,0.00115826501246036,-0.0620363462386028,-0.0577838765462119,-0.296897298248983,-0.000346887058971623,0
0.44,0.00147010550656391,0.000846196697512141,-0.0734060109751399,-0.0424172041984556,0.0012392616286904,0.00115822694968024,-0.0620367128808178,-0.0577850146165838,-0.296898013313213,-0.000338447160720377,0
0.45,0.00147006953422955,0.000846196498837551,-0.0734071190169757,-0.0424172044014523,0.0012392516743487,0.00115819179661175,-0.0620370751344413,-0.0577860334369016,-0.296898669110593,-0.000330706782996481,0
0.46,0.00147003647227823,0.000846196316627684,-0.0734081282594093,-0.0424172045944786,0.00123924252420644,0.00115815948914687,-0.0620374053344974,-0.0577869611549441,-0.296899270553519,-0.000323607947731956,0
0.47,0.00147000649241372,0.00084619614951865,-0.0734090675280795,-0.042417169730302,0.00123923423242022,0.00115813018629019,-0.0620376786602957,-0.0577878353091139,-0.296899822147003,-0.000317097482234891,0
0.48,0.00146997866915187,0.00084619599625873,-0.073409909148854,-0.0424171699060348,0.00123922653182941,0.00115810299829326,-0.0620379542842938,-0.0577886086724736,-0.296900328022329,-0.000311126620903703,0
0.49,0.00146995317419645,0.000846195855700309,-0.0734106786930598,-0.0424171700737456,0.00123921947596535,0.00115807808498511,-0.0620382063918121,-0.0577893157160357,-0.296900791969019,-0.00030565063995356,0
0.5,0.00146992977471682,0.000846195726791008,-0.0734113801774951,-0.0424171702342303,0.00123921299973562,0.00115805521972169,-0.0620384363593968,-0.0577899600650967,-0.296901217462107,-0.00030062852242076,0
0.51,4.56113638954825,0.042669033264722,11.9451896553553,-2.12818006273312,-1.0655944036626,4.435120559505,-4.96364769637627,11.0715359290426,0.245148075854128,75.1525232818114,4208.48306145813
0.52,4.4486494441182,-0.0306930026900231,17.5718674234329,1.56381418994261,-3.99208244577307,1.96333942129674,-15.0143922649289,9.26196871524683,1.10682421019222,160.307437226787,4208.48306145813
0.53,4.3758856368138,0.0417347920805249,21.2127117524229,-2.0617596287449,-2.25246839122665,-3.75186660821892,-8.96700637021045,-19.3344973923479,2.61044609064891,251.734448764502,4208.48306145813
0.54,4.45963023027116,0.103626018506926,17.0281731806133,-5.15177395757972,4.45385684411884,0.249397984265665,16.5673968541485,6.48234666275304,-1.49162650505011,340.952619363654,4208.48306145813
0.55,4.43423636056633,-0.0481836857943422,18.3007083928561,2.4727206416984,-4.3069655731834,1.05585099344473,-17.1111864181284,6.94532752404759,1.31952204739487,428.255513259151,4208.48306145813
0.56,4.34895998877412,0.0410761136761928,22.5674680248116,-1.98189707307213,4.3400955122464,0.280555120522787,22.3591888090284,3.64488749639315,-1.4967987652911,515.313514917041,4208.48306145813
0.57,4.38515939625589,-0.0090300900284767,20.7606079168593,0.530155861206408,-2.21600702343092,-3.78404774615782,-10.9849910067753,-17.624241228938,2.60975593425298,604.047936930448,4208.48306145813
0.58,4.26211284891125,0.0292151916493033,26.9161904749789,-1.38407769968319,-3.73184657917834,2.059072746105,-24.3157886151666,11.6249475175865,1.0734596354453,691.66766008361,4208.48306145813
0.59,4.315448238624,0.0202686591794123,24.2527582088245,-0.918520583525324,-0.73984165031725,4.25160424442866,-5.17420197821192,23.7121824108776,0.176986221414953,778.527274168066,4208.48306145813
0.6,4.37354854969721,0.0872169677853136,21.3512486273361,-4.24354595495683,0.445089560099043,4.35171563863255,-2.48076203867371,21.627050652496,-0.0819853945093106,864.689407182039,4208.48306145813
0.61,4.2873701155099,0.0371281782364519,25.6637009687732,-1.72779030164924,-1.21227634889556,4.11257912542665,-9.12216565119221,24.0498835875206,0.295313979328213,951.954722263251,4208.48306145813
0.62,4.29762577739157,0.164861534073745,25.1545896346984,-8.14381402524566,-4.10899300081897,1.27001699482265,-26.4047337688285,-1.36569438936804,1.30937038991437,1038.85977538472,4208.48306145813
0.63,4.22738487877856,0.0800750584585615,28.6703820978071,-3.85688877563486,-0.861876960936502,-4.13936746768388,-1.52150926402822,-28.8886034660963,2.95525073008084,1124.84438206528,4208.48306145813
0.64,4.27867003937681,0.104271019517762,26.1099704580691,-5.05188522584316,3.75988319587478,2.04479047942582,20.1056188874684,17.4073602481309,-1.04832644060448,1210.71653857112,4208.48306145813
0.65,4.16633980874301,0.156583266187254,31.7304423429717,-7.6955722623533,-4.03622743424381,-1.0448798113775,-28.1904579574465,-16.47242798968,1.86167591662761,1297.14539956593,4208.48306145813
0.66,4.23699513209559,0.0864995746866541,28.2017598356013,-4.18068750090699,3.32671351053006,2.62537371524122,19.1206391343172,21.147542762704,-0.882275759827245,1383.00001622263,4208.48306145813
0.67,4.10213458748211,0.117825782006575,34.9490064958614,-5.73754416523747,0.465907225157211,-4.07729340939167,10.64246023901,-33.7800312042026,-2.99910224465756,1468.28339371119,4208.48306145813
0.68,4.06815636225103,0.107100008700465,36.6521983076275,-5.15828558462826,-3.99160670632555,-0.792743654407971,-34.6120863382562,-13.1146875779538,1.7931682611343,1553.20084631593,4208.48306145813
0.69,4.04561950865545,0.193464786246239,37.7833794372848,-9.4564095494604,-3.11776150888352,2.58534891379389,-35.8850075450469,15.1417857850681,0.926267552809589,1638.48701035098,4208.48306145813
0.7,4.11567896187064,0.0967320453079994,34.2848014867382,-4.66941009888518,-2.52415734325349,3.25219927314941,-25.2721978234739,23.6340225274459,0.683519989863909,1723.80835230545,4208.48306145813
0.71,3.97809299519265,0.15533372869706,41.1685133606696,-7.52254125102349,-3.39959766977695,2.07173553556405,-39.6251497494686,13.4641236823334,1.06251672980894,1808.18312791276,4208.48306145813
0.72,3.9610888641886,0.108058350102245,42.0231285095784,-5.17848734745798,-3.54155432592459,-1.77744045007155,-34.5821191893403,-24.4302495548979,2.06322116636233,1892.87572080026,4208.48306145813
0.73,4.00126153305238,0.0807781245813082,40.0188636061895,-3.84829628967951,1.99464473092543,-3.46958374429656,23.9385756421315,-32.2995886179671,-2.5996522154888,1977.67451876154,4208.48306145813
0.74,3.96161282330904,0.135044348416391,42.0055943573905,-6.58116340876712,1.52574818328566,3.65851139386587,8.68127224075041,41.6223159064042,-0.361034757070569,2062.00683484057,4208.48306145813
0.75,3.90037445009144,0.14009585107833,45.0717334312539,-6.82343966487007,-2.46357396283818,-3.02710274487689,-21.7334330060876,-40.0709167991953,2.49437326740489,2145.99762157997,4208.48306145813
0.76,3.92456702815688,0.0507424518046594,43.8662624789626,-2.2940048716902,1.27283236029567,3.71277509923446,11.5085843909659,42.391790803652,-0.317339930711125,2229.83013784898,4208.48306145813
0.77,3.80730845119785,0.190131949559271,48,-9.21391725628873,2.92336231271436,-2.44656914666378,43.8543186515444,-21.5799677204239,-2.21774005992242,2313.3414139509,4208.48306145813
0.78,3.77839573065196,0.15038645222124,48,-7.35448385647666,-2.43622337980259,-2.89200726591824,-23.6316685947906,-42.4220776509256,2.48130874809058,2397.15230736192,4208.48306145813
0.79,3.81791550753984,0.153910427175384,48,-7.39093200946632,-3.80073270362201,0.393189722557212,-48.3691959330897,-4.36425947383201,1.50800286002547,2480.02906483221,4208.48306145813
0.8,3.80079575559511,0.133181855677024,48,-6.44964036984437,-3.40538688902812,1.69325896379341,-46.369616409817,13.9805770591475,1.14439372741004,2563.48248586179,4208.48306145813
0.81,3.70880094222274,0.201056465194686,48,-9.88419957228853,-3.61137981111495,0.868080636289178,-48.9959558886286,-1.04580483092498,1.38905567947151,2646.30501146367,4208.48306145813
0.82,3.74747871876608,0.223390498347726,48,-10.8512331090799,-3.07698156550581,-2.15074045572545,-30.9010756047518,-38.2997752794583,2.24037604713196,2728.73300144579,4208.48306145813
0.83,3.62229298881823,0.145895010264949,48,-6.96230993373665,1.78291899161102,-3.15649991608026,31.1890415493199,-37.1445480097444,-2.58717180642526,2811.11709480459,4208.48306145813
0.84,3.62459326614971,0.114609781800247,48,-5.54103538035099,1.92169127646513,3.0753722352034,19.3472585639233,44.276253896948,-0.526892443773783,2893.74591748732,4208.48306145813
0.85,3.76044750278593,0.167950711767948,48,-8.16580005434657,-3.26365162192925,-1.87556683524498,-36.1280598713158,-32.6411332594655,2.13702550446605,2976.0908053655,4208.48306145813
0.86,3.7255448060697,0.135480415205331,48,-6.40892492618083,2.95638974398079,2.27107875834862,32.8908200362402,35.5424855075315,-0.879403582728651,3057.88112387446,4208.48306145813
0.87,3.66343976524282,0.168329944813723,48,-8.21458413257582,0.358076345517836,-3.64978180370607,15.0043715523065,-46.3286976591346,-2.99788034451359,3140.22945506715,4208.48306145813
0.88,3.65791960969635,0.229887592722805,48,-11.1105884625437,-3.61694008858913,0.59242600537608,-48.8668136927626,-6.28328699812766,1.47120987251272,3221.78028582621,4208.48306145813
0.89,3.69274093588434,0.119140656016332,48,-5.65278302514388,-0.823135868684748,3.60180197361773,-17.6645543741539,44.9879703331003,0.256928322587676,3303.78261086435,4208.48306145813
0.9,3.75320217533647,0.132811419206471,48,-6.38675948958939,1.43906149499399,3.46890003540715,10.8312138504921,47.1961386482281,-0.357867916230334,3385.61824300698,4208.48306145813
0.91,3.63435684573516,0.0283972392408927,48,-1.17223907147833,1.3535650108063,3.37301317027661,16.4364838317936,45.1133698994864,-0.373806742032802,3467.33654632119,4208.48306145813
0.92,3.79227718070437,0.278551857230817,48,-13.6740021206017,-0.510885365527166,3.76801718357918,-23.295126125313,44.1397262429207,0.208083615277122,3548.77217198879,4208.48306145813
0.93,3.73422161017659,0.106105935839848,48,-4.95864652811395,-3.65196135971749,0.786668755360628,-48.0979292267292,3.89581563877561,1.38703520651216,3630.03819576438,4208.48306145813
0.94,3.08984471995351,0.353324364584936,48,-17.2976428677254,-0.320500271859098,-3.09342174230611,17.8062730776631,-47.8136495978195,-3.13097568128311,3706.6439989583,4208.48306145813
0.95,2.59652221076221,0.070638854394714,48,-3.39738359223242,1.98756580121858,1.6722737887553,33.6179515170423,34.4292833365809,-0.844136646817784,3772.52923630416,4208.48306145813
0.96,2.18116413758352,0.120007359454154,48,-5.73340107981231,-1.85153738398622,-1.15917560235932,-35.9189896405267,-32.3527135051409,2.18512279261621,3828.64880027602,4208.48306145813
0.97,1.79804212473033,-0.134158904243101,48,6.78538798987593,1.42347239671318,1.10665280449114,43.7368457486557,20.9076496558424,-0.984444601613125,3876.74297194072,4208.48306145813
0.98,1.41791121511435,0.211810515130863,48,-10.3653002307675,-1.06182858046928,-0.963252808958088,-22.3740817444378,-43.7131549418154,2.45584100795894,3917.90279977281,4208.48306145813
0.99,1.31405837815135,0.140337531507958,48,-6.91022222423503,0.279493574025969,1.29163748242984,-1.75866034432358,48.4629578645548,-0.106707753079929,3953.30320105167,4208.48306145813
1,1.06927253706826,0.105462948446189,48,-5.30555029849612,0.61921874300596,-0.878085611050242,35.3942705347748,-32.8541394238389,-2.42907818674139,3983.6926049728,4208.48306145813
