t,iq,id,vq,vd,ia,ib,va,vb,theta_e,omega,r
0,0,0,0,0,0,0,0,0,0,0,0
0.01,0.000786487618578756,0.000448470524763792,-0.0388219109637362,-0.0224515853190837,-0.000198468381107942,0.00088334528212924,0.0095641558320284,-0.0438148533882864,0.739242212810904,-0.00214935866293149,0
0.02,0.000871845443649837,0.00049711274604708,-0.0431004572293175,-0.0248867484571884,-0.000220015026847641,0.000979198114712585,0.010646416780888,-0.0486174194283821,0.739226153058237,-0.00229786415190217,0
0.03,0.000904975345018507,0.000516053188280093,-0.0447393159683367,-0.0258349467327504,-0.000228321681802218,0.00101644501958759,0.0110490043008558,-0.0504675179690698,0.739209725215094,-0.00229684318673358,0
0.04,0.00088541844718822,0.000505217838160286,-0.0437895094621525,-0.025292501272928,-0.000223138186021586,0.000994696054358088,0.0108092252305713,-0.0494003280302043,0.739194373643512,-0.00215331304474825,0
0.05,0.000904741456611043,0.000516351834397744,-0.0447493066009875,-0.0258498950270345,-0.000227912371227689,0.00101648033489978,0.0110431466086072,-0.0504853090231078,0.739179189198575,-0.00212047837251288,0
0.06,0.000905131611437771,0.000516767913344681,-0.044778771101346,-0.0258707408130691,-0.000227852803170651,0.00101705231447248,0.0110468498302432,-0.0505212893777642,0.739164522513776,-0.00203718736808773,0
0.07,0.000929268302391779,0.000530782058905165,-0.045974060796922,-0.0265723066668478,-0.000233741560867633,0.00104433426382977,0.0113328804912183,-0.0518774283048789,0.739150612490653,-0.00202527179745231,0
0.08,0.000905403258340821,0.000517305350411687,-0.044811391494792,-0.0258976331212034,-0.00022761060376839,0.00101762139267555,0.0110475588531882,-0.0505638176205606,0.739136990619724,-0.00187953449396869,0
0.09,0.000904142083339759,0.000516795169255403,-0.044758505237004,-0.0258721083560855,-0.000227124938807957,0.00101634857012895,0.0110301439162483,-0.050507679683656,0.739124078241046,-0.00180167739759706,0
0.1,0.000903782223918771,0.000516773315584515,-0.0447495060887621,-0.0258710007273962,-0.00022688610836409,0.00101607069724659,0.0110242757940711,-0.0505004189788694,0.739111711366868,-0.00172950206373141,0
0.11,0.000903470605321237,0.000516769958499667,-0.0447425110369495,-0.0258708372006131,-0.000226666636172865,0.00101584081466209,0.0110190862221811,-0.0504952695822125,0.739099861910402,-0.00166044044373947,0
0.12,0.000903173364033467,0.000516767403464077,-0.0447358724061914,-0.0258707086556281,-0.000226456764752746,0.00101562198109348,0.0110141360312717,-0.0504904016004237,0.739088508025086,-0.00159427082605215,0
0.13,0.000946132257536424,0.000541423124418552,-0.0468538926221639,-0.0271050345566675,-0.000237159827239457,0.00106398330097322,0.0115279970575107,-0.0528873844693555,0.73907718139281,-0.0016503443070705,0
0.14,0.000991226600038579,0.000567694597745486,-0.0491560537772743,-0.0284202439482218,-0.000248106579292027,0.00111501141440142,0.0121060872872954,-0.0554749541651285,0.73906634884794,-0.00171528785655427,0
0.15,0.000905798569781824,0.000518677820577438,-0.0448876978254154,-0.0259663498519237,-0.000226779931008822,0.00101885651269911,0.0110440673632231,-0.0506673989541095,0.739055869434955,-0.00141387664943136,0
0.16,0.000902205854899537,0.000516830213619095,-0.0447179036356724,-0.0258738522381999,-0.00022571581064946,0.0010149587415986,0.0109975797510642,-0.0504797026024566,0.739046334694207,-0.00134887344656776,0
0.17,0.000901836069334535,0.000516758696717304,-0.0447061217347754,-0.0258702680774038,-0.000225510338651061,0.00101463931214359,0.0109918326752283,-0.0504686804404581,0.739037218592802,-0.00129537515290028,0
0.18,0.000901602188207147,0.000516754134243843,-0.0447007455127329,-0.0258700518515933,-0.000225347313592553,0.00101446534159361,0.0109879304325555,-0.0504646571077973,0.73902848452166,-0.00124445918989708,0
0.19,0.0009013829894417,0.000516752170723652,-0.0446958326721723,-0.0258699392767807,-0.000225192630662667,0.00101430388873241,0.0109842822000575,-0.0504610420125531,0.739020115753797,-0.00119568615451358,0
0.2,0.000901173031797337,0.000516750379809016,-0.0446911265553467,-0.0258698540319507,-0.000225044402249918,0.00101414930128041,0.0109807707286637,-0.0504575942215339,0.739012096982386,-0.00114895341542218,0
0.21,0.000900971921714186,0.000516748667032643,-0.0446866182802431,-0.0258697687994797,-0.000224902417922723,0.00101400122830788,0.0109774094810921,-0.0504542889370876,0.739004413568881,-0.00110417513351899,0
0.22,0.000900779251738621,0.000516747025855458,-0.0446822976994025,-0.0258696835782024,-0.000224766393554534,0.0010138593676747,0.0109741909091192,-0.0504511188183627,0.73899705148784,-0.00106126955035576,0
0.23,0.000900594425897816,0.000516745453171961,-0.0446781449191478,-0.0258696198389021,-0.000224635916129431,0.00101372328005073,0.0109710850593305,-0.0504480837757652,0.738989997300481,-0.00102015834600762,0
0.24,0.000900417588400338,0.000516743946125466,-0.0446741764168234,-0.0258695346327941,-0.000224511071588425,0.00101359307322624,0.0109681341203173,-0.050445167207152,0.738983238130903,-0.000980766476758559,0
0.25,0.000900247896547111,0.000516742501981926,-0.0446703590958352,-0.0258694708982024,-0.00022439128162674,0.00101346812545928,0.0109652834348026,-0.0504423737099896,0.73897676164021,-0.000943022037358952,0
0.26,0.000909289719634749,0.000521976206125367,-0.0451187754412213,-0.0261314665617019,-0.000226606405339766,0.00102367792349619,0.0110733364797318,-0.0509503548681198,0.738970609434644,-0.000933141257253519,0
0.27,0.000878933161513095,0.000504656347052329,-0.0436319621980692,-0.0252643923539221,-0.000218956547513693,0.000989575444990673,0.0107125333320312,-0.0492674261137801,0.738964474365697,-0.000812161292648743,0
0.28,0.000875420494386907,0.000502620861175412,-0.043388906685832,-0.0251624911504044,-0.000218089614917126,0.00098560929984788,0.0106238716405797,-0.0490191955834702,0.738958758292838,-0.000769356566596645,0
0.29,0.000898681668997098,0.000516205747273083,-0.0446096672361605,-0.0258425813524936,-0.000223709534159819,0.00101195412941258,0.0109431067482037,-0.0503796569716254,0.738953450434856,-0.00080446742010218,0
0.3,0.000893873545465249,0.000513606909905827,-0.0443766841470318,-0.025712485248622,-0.000222387602373466,0.00100665074752677,0.0108821246923584,-0.050119869869404,0.73894889822292,-0.000764703989089738,0
0.31,0.000899165998846942,0.000516617343541513,-0.0446401256780271,-0.0258631873515266,-0.000223721816908575,0.00101259148809845,0.0109479076146436,-0.0504161541511394,0.738943891452495,-0.000750831872861614,0
0.32,0.00089925235738784,0.000516729656752071,-0.0446477226541317,-0.0258688191199414,-0.000223692069215456,0.00101273204679461,0.010948617806911,-0.0504256156033687,0.738939061820496,-0.000723286123726463,0
0.33,0.000899139462645216,0.000516732893381827,-0.0446453907489399,-0.0258689921264573,-0.000223608954207578,0.00101265181182225,0.0109466859671631,-0.0504240590898884,0.738934432905588,-0.000696332785293892,0
0.34,0.000899023787495168,0.000516732064506477,-0.0446427858658157,-0.0258689341866278,-0.000223527168501077,0.00101256673948593,0.0109447507639837,-0.0504221431171607,0.73892999752925,-0.000670484708564151,0
0.35,0.000898912522227008,0.000516731122266984,-0.044640266404177,-0.0258688918556078,-0.000223448625189488,0.00101248480839801,0.0109428709235623,-0.0504202987538083,0.738925747645622,-0.000645716776688059,0
0.36,0.000898805913570904,0.000516730213813048,-0.0446378502916911,-0.0258688495158298,-0.000223373373732747,0.00101240630185937,0.0109410696714499,-0.0504185288200732,0.738921675498794,-0.000621984644961992,0
0.37,0.000898703728696214,0.000516729343096964,-0.0446355311597464,-0.0258688071676986,-0.000223301246791562,0.00101233105216191,0.0109393423415263,-0.0504168286916894,0.738917773655568,-0.000599245027129497,0
0.38,0.000898605851187615,0.000516728508746113,-0.0446333084821895,-0.0258687648112472,-0.000223232159690197,0.0010122589739882,0.0109376882186453,-0.0504151980592918,0.738914034993933,-0.000577456415978181,0
0.39,0.000898512048214463,0.000516727709251312,-0.0446311754794096,-0.0258687224467385,-0.000223165949757399,0.00101218989580194,0.0109361023909937,-0.0504136319877268,0.73891045268897,-0.000556579038965316,0
0.4,0.000898422319776759,0.000516726943157432,-0.0446291369444257,-0.0258686800734789,-0.000223102611385537,0.00101212381814224,0.0109345877559981,-0.0504121340924453,0.738907020201707,-0.000536574786848908,0
0.41,0.000898336069910853,0.000516726209070885,-0.0446271676892804,-0.0258686591104976,-0.000223041737834282,0.00101206030098384,0.0109331111997763,-0.0504107002494074,0.738903731266551,-0.000517407144171111,0
0.42,0.00089825361742441,0.000516725505655606,-0.0446252880138052,-0.0258686138096626,-0.000222983538672121,0.00101199958048032,0.0109317199073305,-0.0504093147207558,0.73890057988014,-0.000499041122609426,0
0.43,0.000898174657401874,0.000516724831631114,-0.044623486871948,-0.0258685714113714,-0.000222927803619726,0.00101194143170268,0.0109303860119907,-0.0504079877510005,0.7388975602896,-0.000481443197106935,0
0.44,0.00089809882670621,0.000516724185770841,-0.0446217501009639,-0.025868550417864,-0.000222874283397846,0.00101188558666062,0.0109290860195648,-0.0504067213928003,0.7388946669834,-0.000464581244675222,0
0.45,0.000898026385940468,0.000516723566898531,-0.0446200946792142,-0.0258685080032362,-0.000222823148998477,0.00101183223841902,0.0109278627547724,-0.0504054994133417,0.738891894679796,-0.000448424485759894,0
0.46,0.000897956725256239,0.000516722973887471,-0.0446184936752444,-0.0258684869906373,-0.000222773985381304,0.0010117809365734,0.0109266661686731,-0.0504043308007454,0.738889238318481,-0.000432943428057315,0
0.47,0.000897890033162506,0.000516722405657941,-0.0446169600976901,-0.0258684659678634,-0.000222726915358405,0.00101173182085789,0.0109255206051841,-0.0504032108044227,0.738886693050365,-0.000418109812676469,0
0.48,0.000897826381751921,0.000516721861175207,-0.0446155009746795,-0.0258684235296065,-0.000222681983512909,0.00101168494493339,0.0109244463858122,-0.0504021302554985,0.738884254229445,-0.00040389656255785,0
0.49,0.000897765161177693,0.000516721339447383,-0.0446140890549187,-0.0258684024892981,-0.000222638775334704,0.00101163985834,0.0109233932842204,-0.0504010978918792,0.738881917404265,-0.000390277733046995,0
0.5,0.000897706501740334,0.000516720839524185,-0.0446127338892693,-0.0258683814399738,-0.000222597374936062,0.00101159665773322,0.0109223833413747,-0.0504001064040821,0.738879678308395,-0.000377228464535632,0
0.51,4.5699324812811,0.000675048398610767,11.5045928913181,-0.027284633349782,-0.566863964045525,4.53463874916459,-1.45581337643451,11.4121430703956,0.124510118350943,38.3866006241678,3414.13779470518
0.52,4.66114529808378,-0.00296061517628221,6.9454324253909,0.162782781819256,-2.49629486629168,3.93634299770949,-3.57840128873251,5.95487817058634,0.564528286367177,81.7484586579097,3414.13779470518
0.53,4.61485041769807,-0.0204256512909293,9.2616092983405,1.04572300698156,-4.48276620629072,1.09638894772642,-8.73368036312505,3.25480732412869,1.32650053359589,126.581359599603,3414.13779470518
0.54,4.62821046948521,0.01008567086848,8.59515934307078,-0.478236624415936,-3.02881342401521,-3.49953184199181,-5.24840229038421,-6.82347036338544,2.43035288040397,175.148852334484,3414.13779470518
0.55,4.64518954652993,0.0237826963569705,7.74777335300608,-1.15459025041456,3.12507428349984,-3.43689718531773,6.09182744161249,-4.92450088816323,-2.39855865791168,220.649491758614,3414.13779470518
0.56,4.59061668091844,0.0645679605940346,10.4779951894882,-3.18469707199576,2.72595396803996,3.69419889783822,3.51323162459901,10.3724578660621,-0.621648556148025,264.715183001781,3414.13779470518
0.57,4.59261778178492,0.0264584206197844,10.3796161862233,-1.27582569475505,-4.577520714324,0.373017757651616,-10.4463040378216,-0.488769195119268,1.4952479612804,311.968802237459,3414.13779470518
0.58,4.53449033914206,0.00596752974048442,13.2876739805197,-0.235222162199951,3.25002592925751,-3.16211475224061,9.69972252079289,-9.08476704697448,-2.3411692053206,356.400711404597,3414.13779470518
0.59,4.57650758790042,0.0763757487281294,11.1885439378401,-3.755572223683,-1.89663201681663,4.16569825478154,-8.19700104582271,8.49099593870231,0.443937694474744,402.054944435834,3414.13779470518
0.6,4.56110473484306,0.097956481995193,11.9605209834921,-4.83554214032328,1.76189152755219,-4.208207471087,9.27419684291065,-8.96804342687653,-2.72361423435283,448.28277134105,3414.13779470518
0.61,4.65050402764128,0.00821354592160906,7.49241291015003,-0.336999900699384,-3.07572422058842,3.48814788854058,-5.21757488787681,5.38764628002354,0.724414440127182,493.697962909679,3414.13779470518
0.62,4.56209522691381,0.0736530815066887,11.9146595097217,-3.608189484856,4.45038839254335,-1.00607196132316,12.4009889938279,1.09252668900435,-1.77697996073642,538.831233825848,3414.13779470518
0.63,4.57805004357017,0.0522042675755143,11.1188264764522,-2.52506628403384,-3.33274494417846,-3.13912067688371,-6.25419791658383,-9.5335864380839,2.33768823989795,584.073197149337,3414.13779470518
0.64,4.52114172485453,0.0358576256628633,13.9661925011517,-1.70430910892591,-2.14251216505605,3.98141305168474,-8.20987553857933,11.4261606044651,0.501614149819736,629.546909495365,3414.13779470518
0.65,4.58979719218968,0.04727147826964,10.5353971350187,-2.2667163408495,3.89357412779403,2.43075160587483,7.65875808312156,7.58129411028582,-1.00240289495351,674.945473617847,3414.13779470518
0.66,4.56579615577852,0.0574874149618707,11.7374655282989,-2.76495675970983,3.72583229555605,-2.63969184648368,11.2319361303195,-4.38824494251337,-2.17460323658023,719.89132508609,3414.13779470518
0.67,4.55216886732508,0.0869388715686328,12.4208887336903,-4.22050927669006,0.483586006226423,-4.52724467403909,5.74215916135072,-11.7948625958532,-3.01608328211544,764.610234652197,3414.13779470518
0.68,4.56638975138662,0.055527114431785,11.7119953755908,-2.66283835751374,-1.76741629031845,-4.21084769122831,-1.93346008041232,-11.8542513856236,2.75635412576524,810.309416395258,3414.13779470518
0.69,4.51996389452885,0.0431937756829242,14.035463643311,-2.02417863623533,-2.45504234486477,-3.79535326353464,-5.80010071665373,-12.9402616090545,2.57698760342101,855.036627184743,3414.13779470518
0.7,4.51473021756003,0.0583748387807814,14.2993549006012,-2.79453116699338,-1.871404635608,-4.10901949970759,-3.20004728288121,-14.2141004781861,2.72715463433286,900.370292201954,3414.13779470518
0.71,4.54873709603065,0.0366060628947453,12.6012787939161,-1.67233241118362,0.264989825770675,-4.5411594956447,2.50393669916132,-12.4627133459006,-3.07525850185704,944.90367017707,3414.13779470518
0.72,4.53648641988859,0.048642059927646,13.216165903859,-2.28599932641861,3.45436261133287,-2.94099541605443,11.6174883767594,-6.70274555197881,-2.26537239550963,990.228748542756,3414.13779470518
0.73,4.51198960437025,0.119694097521291,14.4433578098209,-5.84642543142514,4.12524004315154,1.83160351968043,10.5272787979954,11.4877184965947,-1.12642202397224,1035.19892856641,3414.13779470518
0.74,4.46471269745932,0.125093279287507,16.8095993373417,-6.09080116691495,-1.37802131913494,4.24857211818124,-11.3707536356721,13.79733490547,0.341654121640058,1079.78634878862,3414.13779470518
0.75,4.44026424111689,0.140444787305692,18.0343981167203,-6.84121765087141,-3.81894798847016,-2.26964920870658,-11.5247724629367,-15.4667835717868,2.13864276336115,1124.52685151643,3414.13779470518
0.76,4.49361877408189,0.0752841967824542,15.3691362470668,-3.56943598164145,4.01734752546429,-2.01474471254111,15.3982297342722,-3.44176455593851,-2.01890014006659,1169.32123924525,3414.13779470518
0.77,4.45705448916507,0.114227722120878,17.1998928590338,-5.5256079336322,-1.77399052628726,4.09039610606729,-12.2570518703204,13.2715235314841,0.434836465853132,1214.17161043815,3414.13779470518
0.78,4.44317424455871,0.109413114492126,17.8964875056092,-5.30523030644589,0.222145082248467,-4.43896611381136,6.62470978931003,-17.4511590976152,-3.06697002632624,1259.07387646636,3414.13779470518
0.79,4.52439528319865,0.0680795062835947,13.838043626349,-3.21572286690931,-0.121687672134769,4.52327089706734,-3.79312219079121,13.6910390039335,0.0419421660390912,1303.66860623317,3414.13779470518
0.8,4.45366424461885,0.168110480815483,17.3771775455516,-8.19687448692606,1.31179874227276,-4.25940963013984,13.4746785377731,-13.6962801193506,-2.80510534222836,1348.04038783738,3414.13779470518
0.81,4.40201621397043,0.0741036935224995,19.9622591474649,-3.52202652896737,-3.55878646925019,2.5919639217655,-18.3569294630679,8.59765094832562,0.958142609573011,1392.89621254589,3414.13779470518
0.82,4.45198870577418,0.0997189778569476,17.4663712000003,-4.77088135973926,4.23612173069058,1.37310596592423,14.918176954048,10.2607713263973,-1.2349454378959,1437.27681448228,3414.13779470518
0.83,4.47950369660693,0.157104479508699,16.0933818972465,-7.66234628095864,-3.00502747112321,-3.32572474555422,-4.50244560805254,-17.2463467136223,2.44186576281213,1481.92832449114,3414.13779470518
0.84,4.4406026831588,0.173831486559574,18.0412248087919,-8.45533216682483,-3.3734391617343,2.89293584399551,-19.3929240210732,4.57087875201167,0.901053980071787,1526.12261965983,3414.13779470518
0.85,4.43072341378836,0.0860734325354957,18.5379719227499,-4.082705716445,1.4499915912117,4.18762975807272,1.84098161740705,18.8927413484684,-0.313911396151248,1570.84689370881,3414.13779470518
0.86,4.37507383087401,0.0784418981154975,21.323247344021,-3.71277258088997,4.11055154388358,1.50026336423139,18.5612573594119,11.1330715783823,-1.20291299886741,1615.38345731038,3414.13779470518
0.87,4.38092552569509,0.178100412259554,21.0335704279177,-8.68884659431985,4.26281791143568,-1.02596865082564,22.3210093783075,4.43617858289183,-1.76635153216187,1659.61317596806,3414.13779470518
0.88,4.38097396164842,0.0779786107496072,21.0340959421717,-3.62888823895959,3.94207381245442,-1.91286893788805,20.6101385123635,-5.55195573258047,-2.00477236646086,1703.83285117859,3414.13779470518
0.89,4.38977640970362,0.19228933443328,20.5969501079012,-9.349629672554,4.06182101282507,-1.6759242748704,22.5498960433383,1.77542028711796,-1.91834500503331,1748.13186397216,3414.13779470518
0.9,4.33871818983508,0.109929074989766,23.1528298808506,-5.2698042994176,4.33696961137937,0.16508943729316,22.7725755340552,6.72563546376973,-1.50741773284429,1792.53420014561,3414.13779470518
0.91,4.39265080126158,0.108545020441317,20.4592415548445,-5.19030704728503,3.14172400448193,3.07192665325015,10.5514327471657,18.2807855199554,-0.771925028022391,1836.84051462552,3414.13779470518
0.92,4.34947170607149,0.0928434834430617,22.6212705950778,-4.37999791176537,-1.14484538377503,4.19712438242939,-10.6173463105847,20.4494064061506,0.287633559749631,1880.91667267002,3414.13779470518
0.93,4.3704208302277,0.141997239488624,21.5769408241348,-6.80156645535108,-4.3627608981331,-0.295057274154416,-20.7900588279458,-8.92183476115335,1.67080344963081,1924.87642503888,3414.13779470518
0.94,4.41191277275455,0.188054110786795,19.5054790951241,-9.15577584555983,0.849070965239276,-4.3335224885728,13.4639854087283,-16.8229914990768,-2.90551435057138,1969.2813660326,3414.13779470518
0.95,4.35402383199325,0.181373168689115,22.4030952215916,-8.77305886052734,3.45889879947666,2.6507430752271,11.5777061346485,21.0908026859506,-0.875277783965493,2013.16086905302,3414.13779470518
0.96,4.29326568354148,0.171553029923968,25.4441733641826,-8.32743629686055,-4.25901670057266,0.567747669122626,-26.1050994164414,-5.93935500896841,1.4782101470337,2057.47533955043,3414.13779470518
0.97,4.32770493996244,0.157396750832961,23.7254191910732,-7.54803565803904,1.01950588087861,-4.20884919466141,13.6863012151742,-20.7979209810667,-2.86758747321238,2101.27540306245,3414.13779470518
0.98,4.32361369232462,0.177322187996046,23.9332620495498,-8.57053244520534,-0.392394511706838,4.30942050234077,-11.6413473306652,22.5994267859508,0.131794175059782,2145.39185115409,3414.13779470518
