t,iq,id,vq,vd,ia,ib,va,vb,theta_e,omega,r
0,0,0,0,0,0,0,0,0,0,0,0
0.01,0.000582204387340673,0.000329380739176946,-0.0284140799762779,-0.016480984159844,0.000524438418192016,0.000415232423473572,-0.0259707444715129,-0.0201122651974045,-0.386243359087742,-0.0019119645498681,0
0.02,0.000682831110824651,0.0003847345487559,-0.0333979859544831,-0.0192506790496976,0.000613628838563523,0.000487584502829627,-0.0304142444021771,-0.0236851820160825,-0.386258271440267,-0.00213870147535708,0
0.03,0.00072077770426809,0.000406006814528902,-0.0352722592034109,-0.0203150650347258,0.000647637287113611,0.000514711547134904,-0.0321066855661421,-0.0250198896607205,-0.386273781656361,-0.00214675261020938,0
0.04,0.00070526162104954,0.000397637291116113,-0.0345521003805083,-0.0198962784744306,0.000634046250672278,0.000503482592966243,-0.0314478003412556,-0.0245101079461787,-0.386288348180322,-0.00197966420553936,0
0.05,0.00072217615138628,0.00040765288390863,-0.0354032899801271,-0.0203974258147989,0.000649703665529208,0.0005153682318382,-0.0322330606695808,-0.0251093154259195,-0.386302386885027,-0.00192743550782823,0
0.06,0.000723698761874115,0.000408932127952315,-0.0355067665585973,-0.0204614337185056,0.000651469235965501,0.000516287921416201,-0.0323316760802177,-0.0251806168134818,-0.386315805859124,-0.00182751036151274,0
0.07,0.000737192882498239,0.000417168525823472,-0.0361886826648158,-0.0208735587813208,0.000664189506746293,0.000525675968703067,-0.0329706810533621,-0.0256565859008844,-0.386328313597042,-0.00177559739741534,0
0.08,0.000724321209195125,0.000410145483093687,-0.0355912859188206,-0.0205221536201315,0.000652840405955369,0.000516391262265417,-0.0324203873276067,-0.0252352314848007,-0.386340419124111,-0.00163681694159582,0
0.09,0.00072192835196492,0.000409244916685345,-0.0355001840982275,-0.020477085934249,0.000651110391641823,0.000514506759041718,-0.0323445981476985,-0.0251674609373008,-0.386351704320979,-0.00154023947390953,0
0.1,0.000720994180733499,0.000409127863303898,-0.0354783422940136,-0.0204712340720499,0.000650655415321735,0.00051367864243677,-0.0323312144802005,-0.0251490907708236,-0.386362324819746,-0.00145384958123631,0
0.11,0.000720292901593305,0.000409111168277886,-0.0354664397265376,-0.0204703961256699,0.000650380828746057,0.000513028839048051,-0.0323262047605153,-0.0251380578048346,-0.386372333494584,-0.00137304778426748,0
0.12,0.000719656233404205,0.000409107412488394,-0.0354563986932714,-0.0204702013773369,0.000650142268047002,0.000512434386560051,-0.0323224776624012,-0.0251285254340265,-0.386381767456054,-0.00129696870829081,0
0.13,0.000749787779193959,0.00042654346976935,-0.0369377912446306,-0.0213426440192457,0.000677652589751535,0.000533767751961959,-0.0336890909942559,-0.0261716263106613,-0.386390987119011,-0.0013276178714486,0
0.14,0.000769493684688014,0.000438275492815665,-0.0379873937210519,-0.0219296738774765,0.00069595062501409,0.000547593522532954,-0.0346286198642043,-0.0269223209324739,-0.386399796792033,-0.00132588353189453,0
0.15,0.000724809209370962,0.000412834595862698,-0.0357645853288309,-0.0206567047666023,0.000655550149282403,0.000515785609828245,-0.0326120381665051,-0.025342848738534,-0.386408186187739,-0.00110759913768069,0
0.16,0.000718323810335936,0.000409578024039836,-0.0354665512243633,-0.020493765195018,0.000650093382479998,0.000511000830065499,-0.0323489812276911,-0.025127954177557,-0.386415634625615,-0.00102710618928469,0
0.17,0.000717045244654808,0.00040916013228369,-0.0354199091913187,-0.0204728394602354,0.000649227998294131,0.000509969511797985,-0.0323121950250654,-0.0250924127047993,-0.38642259325947,-0.000968226798062818,0
0.18,0.000716495590509847,0.000409105533823811,-0.0354077088201763,-0.0204701226511948,0.000648973611129835,0.000509476712993265,-0.0323052448107263,-0.0250819242277858,-0.386429144078909,-0.000915032017476882,0
0.19,0.000716066740326289,0.000409097485154736,-0.0354005322983817,-0.0204697136800604,0.000648807672419435,0.000509078513759048,-0.0323023160937911,-0.0250752316066916,-0.386435317798323,-0.000865202874225574,0
0.2,0.000715674366056914,0.000409095453500277,-0.0353943400527055,-0.020469620031819,0.00064866086937157,0.000508712064778968,-0.0323000414474331,-0.0250693433202328,-0.386441137051163,-0.000818275868216645,0
0.21,0.000715306401445646,0.000409094249008713,-0.0353885928577056,-0.0204695456897266,0.000648523858448945,0.00050836813191192,-0.0322979439844718,-0.0250638708017772,-0.386446622314535,-0.000774047768657829,0
0.22,0.000714959662026465,0.000409093204350376,-0.0353831782456544,-0.0204694942178154,0.00064839483175631,0.000508044004316912,-0.0322959851094704,-0.0250587079097425,-0.386451792774858,-0.000732358709074858,0
0.23,0.000714632771419957,0.000409092231061794,-0.0353780695046039,-0.0204694441883069,0.000648273198369206,0.000507738428502949,-0.0322941353691852,-0.0250538373908577,-0.386456666500852,-0.000693062298475262,0
0.24,0.000714324603069531,0.000409091314922483,-0.0353732497715465,-0.0204694097204741,0.000648158529684684,0.000507450355101303,-0.0322924019207585,-0.025049237750739,-0.386461260523037,-0.000656021130728118,0
0.25,0.000714034325079289,0.000409090451375986,-0.0353687145253057,-0.0204693596562284,0.000648050516548141,0.000507179004691767,-0.0322907546094773,-0.0250449160241978,-0.386465590893129,-0.000621105764615849,0
0.26,0.000720008221933245,0.000412660055499863,-0.0356672144416577,-0.0206479758913311,0.000653610565666116,0.000511364243476451,-0.0325688083305828,-0.0252539465898292,-0.38646960056764,-0.000610090615207201,0
0.27,0.000703847182557996,0.000403452005783081,-0.0348924842268815,-0.0201872287556222,0.000638992241088752,0.000499863274499732,-0.0318501313865124,-0.024709892573965,-0.386473644222963,-0.000523235286956791,0
0.28,0.000703295339452764,0.00040327473977989,-0.0348020978275735,-0.0201783606466691,0.000638621857455503,0.000499416633103665,-0.0318079378235258,-0.0246293999724264,-0.38647727069056,-0.000492941657527913,0
0.29,0.000711678620172432,0.00040834360469108,-0.035287485125891,-0.0204319874957356,0.000646478419580465,0.000505268850137614,-0.0322258964568916,-0.0249832807510458,-0.386480578554282,-0.000495650232047879,0
0.3,0.000703751451004621,0.000404120140073126,-0.0349088864531789,-0.0202206697798808,0.000639579787444515,0.00049951665427317,-0.0318875245427216,-0.0247121755069287,-0.386483202515708,-0.00044802962395504,0
0.31,0.000711418791399615,0.000408450812254682,-0.0352872141639904,-0.0204373562820286,0.000646482610230152,0.00050498415565046,-0.0322309070153308,-0.0249808256113163,-0.38648617884435,-0.000450891220554649,0
0.32,0.00071229256883712,0.000409004447166536,-0.0353359309834608,-0.020465054009667,0.000647326226734835,0.000505582928513047,-0.0322749970972612,-0.0250154155763656,-0.386489066287862,-0.00043125394034657,0
0.33,0.000712253944646616,0.000409074816188241,-0.0353400637161863,-0.0204685846597192,0.000647378227761786,0.000505518859315968,-0.032279893477378,-0.0250178244163103,-0.386491799135157,-0.000409713601979141,0
0.34,0.000712100842155307,0.000409083375467216,-0.0353383022113537,-0.0204690053151129,0.000647329747636591,0.000505372155254616,-0.0322796835992109,-0.0250159510813785,-0.386494376651568,-0.000388998394636693,0
0.35,0.000711940500737176,0.000409084051301015,-0.0353358626964974,-0.0204690457565168,0.000647271161518691,0.000505221813746197,-0.0322788622757942,-0.0250135978393435,-0.386496806448366,-0.000369416268548401,0
0.36,0.000711787339392671,0.000409083742426541,-0.0353334630790867,-0.0204690197376568,0.000647214298701783,0.000505078584374116,-0.032277990935576,-0.0250113111080695,-0.386499096826309,-0.000350950398609123,0
0.37,0.000711642597544082,0.00040908333020487,-0.0353311808103953,-0.0204690033923609,0.000647160446868671,0.000504943277705067,-0.0322771694924165,-0.0250091336693446,-0.386501255762746,-0.000333543262108332,0
0.38,0.000711506062975507,0.000409082926115292,-0.0353290223583243,-0.0204689870229171,0.000647109633190567,0.000504815650234742,-0.0322763915921671,-0.0250070749254769,-0.386503290798084,-0.00031713498530765,0
0.39,0.000711377444648641,0.000409082543200401,-0.0353269894761729,-0.0204689706299189,0.000647061763722042,0.000504695422839418,-0.0322756580755352,-0.0250051362701597,-0.38650520904205,-0.000301668363816803,0
0.4,0.000711256160484647,0.000409082181977196,-0.0353250686362301,-0.0204689527597097,0.000647016622990798,0.000504582051813349,-0.0322749626657062,-0.02500330550469,-0.386507017197875,-0.000287089372185601,0
0.41,0.000711141861242005,0.000409081841424942,-0.0353232569281405,-0.0204689363235208,0.000646974081663591,0.000504475209945858,-0.0322743071211892,-0.0250015786316571,-0.386508721582965,-0.000273347071378705,0
0.42,0.000711034139464872,0.000409081520388889,-0.0353215478021241,-0.0204689198673081,0.000646933988147231,0.000504374516394468,-0.0322736877761583,-0.0249999499399312,-0.386510328153219,-0.000260393443850061,0
0.43,0.000710932587699624,0.000409081217755244,-0.0353199338656539,-0.0204689033921405,0.000646896190706106,0.000504279590528237,-0.0322731019861838,-0.024998412400397,-0.386511842522203,-0.000248183227526474,0
0.44,0.000710836914905672,0.000409080932470569,-0.0353184127955582,-0.0204688854436197,0.000646860581373348,0.000504190159730372,-0.0322725476614993,-0.0249969642384377,-0.386513269980932,-0.000236673757899909,0
0.45,0.000710746713633944,0.000409080663541745,-0.0353169757651912,-0.0204688689332121,0.000646827008197376,0.00050410584373883,-0.0322720242969096,-0.0249955960197751,-0.386514615517773,-0.000225824818983629,0
0.46,0.000710661497618633,0.000409080410031673,-0.035315609323725,-0.0204688693499695,0.000646795289416297,0.000504026189456588,-0.0322715412864834,-0.0249942892950948,-0.386515883833746,-0.000215598502790918,0
0.47,0.000710581424477408,0.000409080171057007,-0.035314331667816,-0.0204688513504826,0.000646765485897774,0.000503951340325421,-0.0322710728649745,-0.0249930740985612,-0.38651707936091,-0.000205959076883712,0
0.48,0.000710505891535863,0.00040907994578578,-0.0353131222284282,-0.020468834791851,0.000646737371821795,0.000503880735730495,-0.0322706297757265,-0.0249919237581663,-0.386518206276422,-0.00019687285951351,0
0.49,0.000710434528943812,0.00040907973343187,-0.0353119717130302,-0.0204688351572678,0.000646710809051667,0.00050381403084476,-0.0322702229555699,-0.0249908237030126,-0.386519268518097,-0.000188308101934356,0
0.5,0.00071036749432058,0.000409079533255825,-0.03531089651968,-0.0204688185696784,0.000646685858214703,0.000503751369527881,-0.0322698273013324,-0.0249898017720057,-0.386520269797264,-0.000180234877468292,0
0.51,4.70325552235742,-0.0301369900442049,4.83804016354813,1.51383658725328,-0.474049335768539,4.67940145467472,1.05030215833349,4.95935471742156,0.094553508517528,29.2736419130978,4159.38392585471
0.52,4.67621922414665,-0.0323389172016904,6.19081035088251,1.63080088015598,-1.98187733037472,4.23559137372708,-1.10304556593876,6.30626155426291,0.430732499965491,62.462640185139,4159.38392585471
0.53,4.71007765664641,0.0298319708500134,4.49882912694039,-1.47267649938341,-3.97904543026983,2.52049974052236,-4.59583988627282,1.13423777268579,1.01248200138438,96.4760592371581,4159.38392585471
0.54,4.71053882666014,0.00283745340537189,4.4768684823674,-0.11617115434895,-4.52731531176682,-1.30099967580942,-4.26983511306709,-1.35068695586235,1.85122538761367,132.967112697669,4159.38392585471
0.55,4.66830759006556,-0.0179298884349004,6.58948410297694,0.927305309388955,-0.817593705263828,-4.59618948363489,-2.09130589982005,-6.31724904634799,2.96170822955131,169.242711384035,4159.38392585471
0.56,4.65546717458736,0.00503239971645253,7.23256391937004,-0.211348468172461,4.30803836195978,-1.76471114083586,6.77566962443578,-2.53869063953655,-1.9584976636582,202.537623395264,4159.38392585471
0.57,4.69325960845126,-0.00296926801776209,5.34408389901395,0.189823195129754,1.58240524944081,4.41844861862338,1.98369072593417,4.96590743660735,-0.344537072814345,238.649629533735,4159.38392585471
0.58,4.69762464021651,0.00659970144641964,5.12704540490025,-0.27654148602805,-4.69384349526319,0.188557838351827,-5.1339094954149,-0.0777371873180071,1.53205150621138,272.706609847516,4159.38392585471
0.59,4.66999955953946,-0.00842752669500868,6.50958448105715,0.474500906121696,2.3180213543717,-4.0541021089733,2.80857168057652,-5.89166923214414,-2.62399242634249,308.425998182195,4159.38392585471
0.6,4.63587781109581,0.0277794432665341,8.21695148007117,-1.32049726878144,1.1252578542469,4.49732470901694,0.663742593236359,8.29586948020682,-0.23918038300091,342.121776744825,4159.38392585471
0.61,4.65006230982752,8.35050391556624e-05,7.50906808866362,0.0667507790230467,-3.13688951310575,-3.43263800521097,-5.11472481222799,-5.49819509674455,2.40120030169845,377.443164405233,4159.38392585471
0.62,4.65548654993451,0.0423548539956351,7.2392099918263,-2.04795137305189,3.9106355228523,2.5263172321947,4.91785183070285,5.69341720791613,-0.988132190575959,412.666375103657,4159.38392585471
0.63,4.63464392701716,0.0659157000012345,8.2827852399491,-3.22353281859619,-3.88848946413273,-2.52268089481655,-5.09108333240748,-7.28536654302089,2.16051796613806,447.308255751421,4159.38392585471
0.64,4.59762916361238,0.0391148813688509,10.1349949466842,-1.8770674178172,3.05854568393165,3.43293201204839,5.26530101865412,8.8610445119808,-0.719281052892055,481.772138474492,4159.38392585471
0.65,4.63734756846758,0.0564931921500019,8.15061074206768,-2.73658588949853,-0.991469788482952,-4.53047145560559,1.03488535028745,-8.53524282671981,2.93832617284577,516.345299231484,4159.38392585471
0.66,4.61335919685753,0.0116375535318831,9.35162995445168,-0.490925771515297,-2.46640704586418,3.89872476535516,-5.43371266256629,7.62684453878552,0.566581909189855,551.059628515815,4159.38392585471
0.67,4.62546440852437,0.0350559403397104,8.74795439262957,-1.65665645008511,4.62527505424335,0.0545947440052994,8.7142044122618,1.82588556882751,-1.55141455126782,585.790612515434,4159.38392585471
0.68,4.58185675141414,0.0951957140642217,10.9300396684718,-4.65653395457542,-1.33341320533456,-4.38457326752501,1.51998307290438,-11.7829846423801,2.86713886730085,620.182618355565,4159.38392585471
0.69,4.60161194869211,0.10712932437944,9.94401428125609,-5.23630859677885,-4.34092163610124,1.53059092108771,-11.0783699801356,-1.8899910925067,1.25508744802734,654.301844913503,4159.38392585471
0.7,4.55746492263855,0.0569389498761022,12.1531019017533,-2.71382374243699,0.532370360729528,4.52662240131762,-1.43036507111841,12.3699951860435,-0.104578042011708,688.84549132262,4159.38392585471
0.71,4.60510181227079,0.0879316690590017,9.77301639828551,-4.27714499589608,4.34066688581474,1.54055368818961,7.63879501959829,7.44678652075086,-1.21066041826271,723.651674517355,4159.38392585471
0.72,4.55437465877121,0.115609280840765,12.3111619540937,-5.63750818422803,3.95560286079182,-2.26028760248988,13.5125251137611,-0.870558577659578,-2.0645528221091,757.647184463128,4159.38392585471
0.73,4.58410972498521,0.0914530533679213,10.8262643626909,-4.44404534279415,2.01771479532742,-4.11718989559519,8.90803269445986,-7.58976235294068,-2.66597249300508,792.502532164878,4159.38392585471
0.74,4.55768195881093,0.12174084947148,12.1494989880162,-5.9303062586327,0.452996264583054,-4.53674773999773,7.41263134744321,-11.3062705826407,-3.01536729789682,826.540065882197,4159.38392585471
0.75,4.60602871914277,0.0477681402008845,9.73408729529068,-2.23219443347524,0.0865859776801094,-4.60546254194466,2.51513737727141,-9.66484513247003,-3.11242374099007,860.985930051341,4159.38392585471
0.76,4.53436298155857,0.0885267468796247,13.3193581339972,-4.28431533575097,0.739920365788789,-4.47446113914657,6.64160320455237,-12.3146159449293,-2.95818944566964,895.551414128522,4159.38392585471
0.77,4.55469995357962,0.104089250889817,12.304499226629,-5.06078736012595,2.44403477450758,-3.8448433336466,11.0441477443915,-7.41883215355191,-2.55251123185598,929.776587813597,4159.38392585471
0.78,4.55752280731752,0.0879696802270753,12.1654513786803,-4.21534144864011,4.29123683258008,-1.53754325160846,12.8745663120503,0.113371302706127,-1.89554502338627,963.781734686481,4159.38392585471
0.79,4.53011510071763,0.121951446884969,13.5379288826022,-5.91011135480865,3.84869167256192,2.39256920290715,8.04665201945541,12.3877490261317,-0.987690336190665,997.936664538494,4159.38392585471
0.8,4.53209852101771,0.0875527330645387,13.4408885410031,-4.18251599258604,-0.684274125389323,4.48099892954692,-6.40685428564198,12.5340792626526,0.170851025438672,1032.13593261642,4159.38392585471
0.81,4.50531220757326,0.0886982654621629,14.7823996291543,-4.23508950836465,-4.50593095027624,0.0478721353952194,-14.7434187810859,-4.36885849912808,1.57985741859347,1066.33921195035,4159.38392585471
0.82,4.50575633522886,0.0846136791566996,14.7624004541293,-4.06264581684464,0.355110752476054,-4.49253781070692,5.48265546428396,-14.2959451335391,-3.04393527558181,1100.65322626055,4159.38392585471
0.83,4.54616885876424,0.130603471854894,12.7440221807564,-6.35506653454608,4.17518555594591,1.80347834272522,8.8627676433528,11.1466731225984,-1.13433197418189,1134.85198169658,4159.38392585471
0.84,4.55289481884359,0.128657688818319,12.4100298863512,-6.23378113234385,-3.82487277644107,2.4730047060984,-13.8430832801086,1.1126159652251,1.02509503312651,1168.74471007947,4159.38392585471
0.85,4.53108760286337,0.122207714762952,13.5027197371323,-5.88640145548871,1.18845020705182,-4.37415999887158,9.52713335109113,-11.2341841050095,-2.84933452918426,1202.65284188453,4159.38392585471
0.86,4.48389359157269,0.144501514878259,15.864760829552,-7.03932934575726,-0.728675246335577,4.42664825954429,-9.98513994113092,14.196470482939,0.195363604277265,1236.9886836285,4159.38392585471
0.87,4.50080973437634,0.111684060626463,15.0213658757721,-5.35529414747334,-0.284417587478315,-4.49320244707356,4.77457534392257,-15.2159139871708,3.10318659172379,1270.69447983046,4159.38392585471
0.88,4.4538409582236,0.085918578916226,17.3722133321468,-4.10003540415553,0.188346434129157,4.45068611610659,-3.69934186555028,17.4619287633049,-0.0230047788232381,1304.95210624805,4159.38392585471
0.89,4.49066832441967,0.163407758364759,15.5333228006581,-7.92649868193636,0.91430133155376,-4.39964284579544,11.4083613227302,-13.1894954609423,-2.90032411803704,1338.61069388294,4159.38392585471
0.9,4.47748234600343,0.166539828764776,16.1951516603803,-8.102697855494,-2.94442753315449,3.37726667222758,-16.9944058947608,6.25514333363073,0.754213839175078,1372.65020850778,4159.38392585471
0.91,4.47681609969136,0.0965534495385658,16.2309905118515,-4.6171644700647,4.46466275038034,-0.343498885645658,16.461087925925,3.71427584253087,-1.62601821635729,1406.67244267882,4159.38392585471
0.92,4.47388085938831,0.138547499688103,16.3803304036558,-6.70154541760305,-2.69904106037981,-3.57071179291394,-3.99950048032729,-17.2403576246257,2.52529510244307,1440.41901526418,4159.38392585471
0.93,4.43894803677664,0.198279973824983,18.1296137290213,-9.65053694883041,-2.49750146111243,3.67505932917613,-18.5809764367104,8.75003268694868,0.641528829316872,1474.11304487124,4159.38392585471
0.94,4.50568131933333,0.126296517544563,14.795600932609,-6.03978093131768,3.8467753859169,2.34934758859499,9.11470341479966,13.1267262604036,-0.994500065938639,1507.89962851956,4159.38392585471
0.95,4.46681754664895,0.17901478793508,16.7415099709078,-8.67464775841765,2.94307268172129,-3.36494108112701,17.8131038435426,-6.18231358779166,-2.38291806734546,1541.65603776179,4159.38392585471
0.96,4.45210254817587,0.156770103929875,17.4799547873844,-7.55541839654014,-1.80603586398031,-4.07234925110521,0.490386103466066,-19.0366144044919,2.75936578785825,1575.44841209312,4159.38392585471
0.97,4.42970970297827,0.173187747766681,18.6023464334396,-8.40076413900548,-4.28864046366604,-1.12244599961098,-15.3555150857684,-13.4472408842722,1.86585678197036,1609.27755028262,4159.38392585471
