t,iq,id,vq,vd,ia,ib,va,vb,theta_e,omega,r
0,0,0,0,0,0,0,0,0,0,0,0
0.01,0.000565264021892289,0.000309163346599069,-0.0271140327189729,-0.0154678162119438,0.000489919998879748,-0.000418430142346187,-0.0233692382453042,0.0206954780685592,-1.77716550609015,-0.00210132821303656,0
0.02,0.000682581020775721,0.000369347731621074,-0.0329508439407096,-0.018478915696395,0.000592407388042308,-0.000501386161924866,-0.0284648035742559,0.024839150532949,-1.77718160248791,-0.00224312760926547,0
0.03,0.000723241546952851,0.000392444324797408,-0.0350428330947162,-0.0196344585858267,0.000627463656924538,-0.000532334709128883,-0.030275185802279,0.0263993416565672,-1.7771972563662,-0.00207912944461973,0
0.04,0.000704985329712155,0.000385318135684519,-0.0343218748995922,-0.0192779328500622,0.000611048403384513,-0.00052162652302005,-0.0296422503912824,0.0259030265284828,-1.77721059613138,-0.00172186284879246,0
0.05,0.000717278906059126,0.000394991420363572,-0.0350279295319072,-0.0197619081104329,0.000621092270083212,-0.00053362125452524,-0.0302338179266302,0.026521785630625,-1.7772221917651,-0.00152709421408948,0
0.06,0.000715502836277822,0.000396535521713507,-0.0350512284588005,-0.0198391612631719,0.000619032066588293,-0.000534774746260178,-0.0302405217124222,0.026602477002296,-1.77723220831955,-0.0013078867204575,0
0.07,0.000723758855455436,0.000403757853066224,-0.0355308511212356,-0.020200490930155,0.000625627898200532,-0.000543541183127823,-0.0306356735527155,0.027054698689694,-1.77724050924144,-0.00116621845322309,0
0.08,0.000710334757217061,0.00039793312207788,-0.0349743522546192,-0.0199090790411574,0.000613678872452659,-0.000535092962449053,-0.0301505293088615,0.0266556246652132,-1.7772478606702,-0.00095550451784984,0
0.09,0.000705334883328969,0.000397000144408677,-0.0348027885591705,-0.0198624020303721,0.000608973186336754,-0.000533158579246421,-0.0299920157687798,0.0265749524183153,-1.77725393114172,-0.000806524142192291,0
0.1,0.000702317115676596,0.000396849606280765,-0.0347145469972683,-0.019854871354761,0.000606047654287739,-0.000532395700311169,-0.0299070567004412,0.0265496449930362,-1.77725902411412,-0.000686372768741198,0
0.11,0.00070000021750183,0.0003968243905753,-0.034650848659518,-0.0198536143678613,0.000603782850184869,-0.000531898647564274,-0.0298448550630749,0.0265354845924589,-1.77726331251459,-0.000586123923798948,0
0.12,0.000698090366471767,0.000396819391895484,-0.0345991831978082,-0.0198533578019776,0.000601912665857889,-0.000531504404708782,-0.0297942436481046,0.0265247495634967,-1.77726692640257,-0.000501817773569441,0
0.13,0.000725708907326137,0.000412948716440244,-0.0359425800774152,-0.0206603347558674,0.000625636104870085,-0.000552955264795561,-0.0309435780488062,0.0275900973608892,-1.77727032481338,-0.000543471553942648,0
0.14,0.000741799537657421,0.000423076344441907,-0.0368531327412024,-0.0211670329761738,0.000639306983729165,-0.000566168462429874,-0.0317308263921249,0.0282728020247011,-1.7772733602032,-0.000545410280774295,0
0.15,0.000702238094797537,0.000401014618962445,-0.0348928405333951,-0.0200632521242914,0.000605107372342665,-0.000536466340363517,-0.03003839058295,0.0267906606390727,-1.77727601660969,-0.000326562006065563,0
0.16,0.000694094087988018,0.000397486499472616,-0.0345260182872879,-0.0198867310567056,0.000597858752269945,-0.000531344551658467,-0.0297155036287224,0.0265427363884597,-1.77727775233856,-0.000256358601586914,0
0.17,0.000692005229640413,0.000396921987844129,-0.0344418026283086,-0.0198584945663604,0.000595929274048055,-0.000530364594044864,-0.0296388295798545,0.0264978745537425,-1.77727912001234,-0.000218837116344568,0
0.18,0.000691149644650062,0.000396831417255605,-0.0344134535357567,-0.0198539657242684,0.00059510983047202,-0.000530101211747872,-0.0296119811173381,0.0264876634217615,-1.7772802547643,-0.000191313251916134,0
0.19,0.000690599945372878,0.000396816678209436,-0.0343976325108721,-0.0198532263668596,0.000594574324694657,-0.000529974653231723,-0.0295966225074398,0.0264837243543819,-1.77728120783516,-0.000168890660407999,0
0.2,0.000690169165067365,0.000396814104980634,-0.0343858275117097,-0.0198530948803568,0.000594152797406775,-0.000529884292704614,-0.0295850739752531,0.0264811991396217,-1.77728201054145,-0.0001501377383092,0
0.21,0.000689812250399736,0.000396813511022127,-0.0343761651974433,-0.0198530606769521,0.000593803227874125,-0.000529810937880227,-0.0295756060125837,0.026479204688077,-1.77728268702954,-0.000134358590930984,0
0.22,0.000689512422733613,0.000396813262174204,-0.034368064639217,-0.0198530573043512,0.000593509518306313,-0.000529749561416637,-0.0295676631258904,0.026477557452475,-1.77728325722651,-0.000121063442105178,0
0.23,0.000689260107253341,0.000396813092648588,-0.0343612528930319,-0.019853040264588,0.000593262342882608,-0.000529697950218484,-0.0295609868487102,0.0264761584195409,-1.77728373784823,-0.00010985779765501,0
0.24,0.000689047241835996,0.000396812956162714,-0.0343554980795537,-0.0198530395424516,0.000593053812749718,-0.000529654414541603,-0.0295553437065577,0.0264749898159679,-1.77728414296947,-0.00010041260979053,0
0.25,0.000688868093386974,0.000396812842125014,-0.0343506574650773,-0.0198530237487427,0.000592878312471537,-0.000529617775724001,-0.0295506001188142,0.0264739920085572,-1.77728448445093,-9.24511787825247e-05,0
0.26,0.000694340275993062,0.000399994323479514,-0.0346118036183786,-0.0200122005910074,0.000597581859630214,-0.00053385372408821,-0.0297735581819419,0.0266833347878117,-1.7772846902043,-0.000110596601284739,0
0.27,0.000680970658082366,0.000392197018365217,-0.0339841254535712,-0.0196220997029392,0.000586094642887597,-0.000523481239360263,-0.0292391816106875,0.0261728454382283,-1.77728516096422,-4.56706126260131e-05,0
0.28,0.00068044421681174,0.000392016168103575,-0.0338489412371598,-0.0196130540164289,0.000585616360416251,-0.000523196413080189,-0.0291087185676305,0.0261362815656424,-1.7772853582855,-3.93320320735879e-05,0
0.29,0.000686875830537306,0.000396045588691935,-0.0342661363504444,-0.0198146522826897,0.000591085190814481,-0.000528458902941812,-0.029475717269834,0.0264191339165377,-1.77728540380539,-6.48114826971782e-05,0
0.3,0.000677824024922686,0.000391495210551845,-0.0338322268230459,-0.0195869822672589,0.000583158885285342,-0.000522149043052059,-0.02909771688812,0.0261073230730912,-1.77728488669969,-3.85358192050037e-05,0
0.31,0.000686560980144024,0.000395962406321202,-0.0342465454316107,-0.0198104832917042,0.000590794313302556,-0.000528312678293225,-0.0294574087695795,0.0264110240398241,-1.77728496847395,-7.27265132331532e-05,0
0.32,0.000688127799942857,0.000396676659130653,-0.034322649860211,-0.0198462214082377,0.000592181311890539,-0.000529333103821076,-0.0295245644269376,0.0264616116858184,-1.77728515320326,-7.52601929677705e-05,0
0.33,0.000688349752820061,0.000396790819717989,-0.034335034134831,-0.0198519361708858,0.000592375049989798,-0.00052949045031001,-0.0295355092508957,0.0264697493766599,-1.77728533085835,-7.2414577424065e-05,0
0.34,0.000688328872128733,0.000396809032318934,-0.0343356726781861,-0.0198528336654748,0.000592350797343401,-0.000529504086124497,-0.0295359461469138,0.0264707632685413,-1.77728548476447,-6.90720049682828e-05,0
0.35,0.000688271654179457,0.00039681190922837,-0.0343343403829379,-0.0198529794269677,0.000592294135942461,-0.000529495248118964,-0.029534608814318,0.0264706366346609,-1.7772856152821,-6.60756243624358e-05,0
0.36,0.000688215891269416,0.000396812339473919,-0.0343328586207586,-0.0198530029613005,0.000592239411077784,-0.000529484301675471,-0.0295331507884043,0.0264703591241936,-1.7772857254462,-6.35160385587255e-05,0
0.37,0.00068816752070873,0.000396812383168202,-0.0343315416450849,-0.0198530075572291,0.000592192009927393,-0.000529474482267259,-0.0295318583886221,0.0264700963524873,-1.77728581833324,-6.13521076879971e-05,0
0.38,0.000688126484307865,0.000396812368994613,-0.0343304154091065,-0.0198530077650908,0.000592151806723852,-0.000529466101263052,-0.029530753962393,0.0264698679614233,-1.77728589663425,-5.95268859244505e-05,0
0.39,0.000688091792542028,0.000396812348891205,-0.0343294574398492,-0.0198530079532382,0.000592117821102941,-0.000529459007977542,-0.0295298145579642,0.0264696736866551,-1.7772859626363,-5.79881529715554e-05,0
0.4,0.000688062572296306,0.000396812330640892,-0.0343286473738546,-0.0198530081243597,0.000592089195879122,-0.00052945303216327,-0.0295290201927914,0.026469509412871,-1.77728601827025,-5.66910919970697e-05,0
0.41,0.000688038008663448,0.000396812315048437,-0.0343279641721089,-0.0198530082809735,0.000592065132428732,-0.00052944800849735,-0.029528350231158,0.0264693708771491,-1.777286065165,-5.55977747900197e-05,0
0.42,0.000688017170320882,0.000396812301871812,-0.0343273779237557,-0.0198530084259704,0.000592044718536315,-0.000529443746611871,-0.0295277753606855,0.0264692519903925,-1.77728610469306,-5.46762024673282e-05,0
0.43,0.000687999708022642,0.000396812290759632,-0.0343268851919244,-0.0198530085604477,0.000592027611834221,-0.000529440175244585,-0.0295272921866522,0.0264691520832239,-1.7772861380117,-5.38993973294842e-05,0
0.44,0.000687984981484459,0.000396812281392003,-0.0343264657909298,-0.0198530086863937,0.000592013185188969,-0.000529437163385901,-0.0295268809259531,0.0264690670478294,-1.77728616609642,-5.32446185040668e-05,0
0.45,0.000687972525045048,0.000396812273495465,-0.0343261063815873,-0.0198530088052687,0.000592000982452173,-0.000529434615782875,-0.0295265285007084,0.0264689941750528,-1.77728618976943,-5.2692697229727e-05,0
0.46,0.000687962047666104,0.000396812266839548,-0.0343258008537701,-0.019853008917977,0.000591990718448468,-0.000529432472950183,-0.0295262289120615,0.0264689322335168,-1.77728620972368,-5.22274758803073e-05,0
0.47,0.000687953200101662,0.000396812261229012,-0.0343255387978215,-0.0198530090256087,0.000591982051081788,-0.000529430663438375,-0.0295259719558063,0.0264688791072949,-1.77728622654332,-5.1835334984513e-05,0
0.48,0.00068794574952108,0.000396812256499881,-0.0343253145657015,-0.0198530091288908,0.000591974752240392,-0.000529429139642478,-0.0295257520906975,0.0264688336536548,-1.77728624072094,-5.15047945169506e-05,0
0.49,0.0006879394630919,0.000396812252513506,-0.0343251215369094,-0.0198530077733573,0.000591968593846806,-0.000529427853935784,-0.0295255631241013,0.0264687931039044,-1.77728625267128,-5.12261778220028e-05,0
0.5,0.000687934166194767,0.000396812249153457,-0.0343249552149026,-0.0198530078699317,0.000591963404829681,-0.000529426770610219,-0.0295254000489153,0.026468759395562,-1.77728626274445,-5.09913283236703e-05,0
0.51,4.67663955651118,-0.0194827841156541,6.16876996155647,0.985368220445572,-0.494466642227641,4.65046662821336,0.353605260627782,6.23695732614244,0.101762300988905,31.4659700887795,2868.80048048583
0.52,4.70070013670053,-0.00777985129599257,4.96661531214,0.41335508789486,-2.10976857335368,4.20065695673328,-1.852075083222,4.62687237489649,0.463788785082341,67.4632136967004,2868.80048048583
0.53,4.66647514687922,-0.0114269720610412,6.67887052086213,0.606241118036125,-4.15826338730052,2.11777394307513,-5.66758696350565,3.58514961176513,1.09729334757009,106.153495157026,2868.80048048583
0.54,4.69870103492597,0.0491477509658007,5.0686998759785,-2.41419113345692,-4.25617665612134,-1.99127275603499,-3.52248581707056,-4.37174232202027,2.01885819191201,144.255497581269,2868.80048048583
0.55,4.62031346921418,0.0288054056573546,8.98930526436028,-1.37686411744087,0.277605062781538,-4.61205612870389,1.96986467868687,-8.87823164157218,-3.07523958210056,181.003904214304,2868.80048048583
0.56,4.67068294152739,0.0441457853407039,6.47218520916443,-2.13464826892798,4.66587029464708,-0.216523403280768,6.5465700829286,1.89428740244669,-1.6077174542118,218.283746679925,2868.80048048583
0.57,4.60441058183924,0.0207107539776236,9.78734960912636,-0.958835389249051,-0.580361533806974,4.56773535042922,-2.22792593993317,9.57851364675727,0.130877565561073,256.003125869704,2868.80048048583
0.58,4.60248294178984,0.0724062881769778,9.88536187961256,-3.53806020604548,-3.91170198057736,-2.42624803249403,-6.40567961856254,-8.31898540309047,2.1417060725932,293.224903196296,2868.80048048583
0.59,4.61015957492353,0.0441117527146575,9.50324465087363,-2.11003864786132,4.40793712037785,-1.35115043417886,9.71125860962873,-0.674817165414838,-1.85866202779692,330.176695470346,2868.80048048583
0.6,4.57086859622558,0.0946549828539471,11.469563940282,-4.62061283114246,-2.85632757765969,3.56976078454019,-10.8969484790917,5.84443955906437,0.695534933328233,366.889205206589,2868.80048048583
0.61,4.57999973049017,0.0618469193910758,11.0149541446587,-2.95361219193315,1.63435618950756,-4.27891369608532,6.81357913438023,-9.14484440375059,-2.76323480411821,403.484021608092,2868.80048048583
0.62,4.57517754022748,0.090524660871532,11.2580524513687,-4.40904262133081,-1.4039084792223,4.35539725177803,-7.8340297631047,9.20930939350341,0.331605467711704,440.871986303055,2868.80048048583
0.63,4.55171143599168,0.105791285611075,12.4334405188151,-5.13064107690338,2.30661957465398,-3.92540124451906,10.9083195152269,-7.86908421283204,-2.5870926022602,477.109000014302,2868.80048048583
0.64,4.54561938212246,0.0788762383430133,12.740216940347,-3.79750607746769,-3.89560980362393,2.34373660764422,-12.9300311858262,3.0900604571871,1.04652562518977,514.152776490818,2868.80048048583
0.65,4.48409476266074,0.0592308387421363,15.8187520730291,-2.8191236543955,4.37384141921307,0.990012814238168,14.7223668055716,6.43679197806928,-1.33499032562237,550.793552426779,2868.80048048583
0.66,4.51416695039294,0.0988677672964782,14.3175318366861,-4.791519278746,-1.4579222560599,-4.27339920750628,0.242512490858123,-15.0960777218751,2.83471091174959,587.18301120339,2868.80048048583
0.67,4.47933644547718,0.091104626403081,16.0615669088078,-4.39574143457199,-3.69116689303854,2.53929951216244,-15.8323021747258,5.16087998057453,0.988546663356589,623.599977295104,2868.80048048583
0.68,4.50778414842288,0.112490210808625,14.64173316894,-5.4539307373149,2.60468229279671,3.68081541643854,3.62763008332413,15.1975659451252,-0.590883821515847,660.042878334887,2868.80048048583
0.69,4.49152235833513,0.10408699159034,15.457424523731,-5.00294082581899,4.21070762812996,-1.5666998652106,16.2436344280248,-0.325162086003392,-1.90383036912988,696.22794629775,2868.80048048583
0.7,4.40939957280069,0.124879177089239,19.5663068959595,-6.00426744137436,0.712253156061758,-4.3532855228167,9.60033498442341,-18.0755404135333,-2.95110322536835,732.263306940479,2868.80048048583
0.71,4.42719649308454,0.108208023206927,18.6792969794535,-5.20605911537375,-2.55795901983531,-3.61505510573623,-6.09158047176512,-18.4095582379208,2.5502309504158,768.670401813499,2868.80048048583
0.72,4.36362423009792,0.134271145749922,21.8607719475812,-6.45748978258599,-3.96561436360521,-1.82569106949854,-16.6872780284441,-15.5282734532131,2.03300982572345,804.628413412403,2868.80048048583
0.73,4.4192784117655,0.170560086358233,19.0810226647354,-8.26368972994413,-4.35806147136193,-0.752603903514855,-16.9442321055308,-12.0526757294317,1.78037745698186,840.593059372766,2868.80048048583
0.74,4.40122835166866,0.123231232424406,19.9865850971056,-5.90259765707421,-4.32125797217361,-0.84423129419782,-18.2073266198246,-10.1389102128468,1.79172512386745,876.637228019953,2868.80048048583
0.75,4.36876077952547,0.115744577375914,21.6131081180162,-5.52284447791322,-3.89818751661354,-1.9757534363453,-16.3863853651548,-15.136532902647,2.06638764016182,912.547098872799,2868.80048048583
0.76,4.37660388146653,0.141593044857668,21.2242021771759,-6.79184035541205,-2.36334242062133,-3.68636985780207,-5.03796872465956,-21.7074808441789,2.60383841481619,948.301629915261,2868.80048048583
0.77,4.31944137228519,0.216521315637756,24.0856172847421,-10.5155728801637,3.95206518332822,1.75659785820755,16.7453451230978,20.2555584888061,-1.10246046848308,984.050813683617,2868.80048048583
0.78,4.32965409057383,0.134043896166587,23.5783302613031,-6.45666061715962,0.309783885773056,4.32063725094315,-5.49368982205738,23.8211145074131,-0.0406265662441148,1019.99743303344,2868.80048048583
0.79,4.35007500975259,0.218156598764454,22.5606954291821,-10.5921474756087,-4.1092164244654,1.44398243374435,-24.6393531788586,-3.75244471256141,1.28298211478806,1055.48968658305,2868.80048048583
0.8,4.26366235751536,0.151916910446599,26.8848814133744,-7.33774848357599,-1.29980206666334,-4.06354648479266,-0.209726667548889,-27.8674616020969,2.86762420118182,1091.23385618867,2868.80048048583
0.81,4.26779416799676,0.212513935648461,26.6819210606809,-10.2753660350734,4.26786584105598,-0.211069647224504,26.6784422172453,10.2843949508103,-1.57045791396949,1126.56386443933,2868.80048048583
0.82,4.25801838161615,0.182962487052481,27.1743931708203,-8.79712478300721,-2.01270401553901,3.7567563609692,-21.4184291215177,18.8967706928101,0.534783946306507,1162.0004609017,2868.80048048583
0.83,4.29543059135309,0.195975549434021,25.307542485432,-9.44529047592336,-1.21909121543446,-4.12346298510832,3.10882762171859,-26.8331960385816,2.89972638962413,1197.42449530417,2868.80048048583
0.84,4.23143483565193,0.199011032572717,28.5111127086939,-9.58555028616965,3.05686898125116,2.93260945079955,12.6706325262768,27.2804214329726,-0.759144549449754,1232.79189442386,2868.80048048583
0.85,4.2566354264519,0.247873073438644,27.2549458321017,-12.0032535019859,-3.75152490167162,-2.02643705216792,-16.8775894691302,-24.5368527047631,2.12422268817455,1268.10950010217,2868.80048048583
0.86,4.17476090873511,0.185535485475614,31.3526063855095,-8.98550657726951,3.64793720574654,2.03853040310995,21.9358769635547,24.1359184091809,-1.01679585491508,1303.52553359667,2868.80048048583
0.87,4.24329671657343,0.219447588254462,27.9298350444418,-10.6070273569018,-3.07654703073197,-2.93062836889426,-11.4983619058656,-27.5748506513006,2.38357880159921,1338.62675058088,2868.80048048583
0.88,4.13190294030078,0.137438043592215,33.5035878862318,-6.56593166081221,-4.12452320310886,0.28252339887047,-33.7135904725772,-5.38476343698283,1.53565511148008,1373.8271741861,2868.80048048583
0.89,4.15975320853227,0.223139521661081,32.1152929873508,-10.7520506204917,3.22585752356886,2.63575060270425,16.505972322798,29.5728171449394,-0.83214219177007,1408.76030195386,2868.80048048583
0.9,4.17007579908237,0.181810067501305,31.6034244352531,-8.72762743429675,0.643438885238117,-4.12414518072543,14.7837566029152,-29.264115523494,-2.94325171281819,1443.84992488297,2868.80048048583
0.91,4.1754313200974,0.187348096420925,31.3399477378489,-9.02328582865284,-4.14408727309905,0.5439362931643,-31.9970956132636,-6.30855638576176,1.48512548706385,1478.85454783073,2868.80048048583
0.92,4.13454570526826,0.224978478648086,33.3886222182624,-10.9060557518468,0.691902319176504,4.08244469472952,-7.05350158018476,34.4091595531563,-0.113526297414622,1513.74626065273,2868.80048048583
0.93,4.12335437709323,0.185037129303714,33.9526307968736,-8.88253801293386,4.11757723391644,0.286090511985176,32.7191106623919,12.6941095411288,-1.45658220577174,1548.5705981244,2868.80048048583
0.94,4.10664449093364,0.270562222266292,34.7926492206647,-13.1038066347196,2.08551263203943,-3.54800929432791,30.4003837267499,-21.4022161791414,-2.5444046222613,1583.27953096641,2868.80048048583
0.95,4.11984591652149,0.348698294946274,34.1372919597858,-16.9622368918419,-1.3034703544621,-3.9237336698374,8.49930626762064,-37.1595744821143,2.90529849117799,1617.89855468851,2868.80048048583
0.96,4.10832918918528,0.177677647756051,34.7178826990613,-8.49630190358979,3.26649562785193,-2.49798806771532,33.3283390879263,-12.9127974809075,-2.18043712437717,1652.58982609974,2868.80048048583
0.97,4.00348354762912,0.291789652408136,39.964957745815,-14.1096687506524,2.13951017328224,-3.39639778821788,35.0631232238401,-23.8087796761556,-2.50669707818169,1687.06913690485,2868.80048048583
0.98,4.05913368735259,0.273030821571854,37.1873682350667,-13.196864985363,1.93072950625221,-3.5809769190845,30.974832889743,-24.4462129816633,-2.57994565635755,1721.52053369785,2868.80048048583
