t,iq,id,vq,vd,ia,ib,va,vb,theta_e,omega,r
0,0,0,0,0,0,0,0,0,0,0,0
0.01,0.0004948378982679,0.000273519220930383,-0.0229719681384672,-0.0136851806123637,0.000101708957821882,-0.000556176768374357,-0.0039574025099489,0.0264449324809502,-2.45577126960938,-0.00389921793647521,0
0.02,0.000588996488817352,0.000322932967562405,-0.0276307526268302,-0.0161575436566917,0.000123079432371825,-0.000660343863986681,-0.00499354729927097,0.031616280507247,-2.45580116817591,-0.00419283268322227,0
0.03,0.000622488515696916,0.000341870602461351,-0.0293581609663061,-0.0171050568043023,0.000129612644291395,-0.000698260713087618,-0.005353201338324,0.0335533577907385,-2.45583071891914,-0.00397294103885317,0
0.04,0.000607366013249215,0.000335187801592693,-0.0288560415503624,-0.0167706924731692,0.000125190524748662,-0.000682328124072241,-0.00529315144833144,0.0329531456424251,-2.45585660875193,-0.00339954863175962,0
0.05,0.000619548426074859,0.000343621606193249,-0.0295729366044187,-0.0171926642063033,0.000126361368236673,-0.0006971003264323,-0.00541974823884826,0.0337753254750738,-2.45587986594174,-0.00310509829249217,0
0.06,0.000619030959085766,0.00034482795690418,-0.0296963068078888,-0.017253019671377,0.000125085555807516,-0.000697466308790381,-0.00545045298024267,0.0339091416600207,-2.45590060212329,-0.00274512758176406,0
0.07,0.00062792244823028,0.000351441668429606,-0.0302256051409655,-0.0175839365460116,0.000125584196134233,-0.00070853825371776,-0.00552886990981518,0.0345284466507264,-2.45591844400648,-0.00251534910823289,0
0.08,0.000616280023807158,0.000345945020344594,-0.0298128467501156,-0.0173089174369315,0.000122455331235771,-0.000696048645352399,-0.00547982333227513,0.0340349231001253,-2.45593468353711,-0.00213721757781812,0
0.09,0.000612696380525987,0.000345156025418726,-0.0297491169481203,-0.0172694397971303,0.000120787256041392,-0.000692777002628183,-0.0054695530238497,0.0339606757856634,-2.45594862656339,-0.00186746663257991,0
0.1,0.000610644971807327,0.000345041745374948,-0.0297420844889139,-0.017263724158639,0.000119568424809467,-0.000691118281796643,-0.00546911200146695,0.0339516800097827,-2.45596076848562,-0.00164171762730416,0
0.11,0.000609029716869087,0.000345024295820222,-0.0297439156358792,-0.0172628445943776,0.000118551898855602,-0.000689858252116775,-0.0054705922511817,0.0339525984464406,-2.45597137042054,-0.00144610641289227,0
0.12,0.000607647361328122,0.000345020855111866,-0.0297468126029121,-0.0172626704991906,0.000117672938576023,-0.000688787184635455,-0.00547224674455832,0.0339547812297925,-2.45598063236684,-0.00127546555671532,0
0.13,0.000632274344473253,0.00035939808424662,-0.0309250624868494,-0.0179820279425093,0.000122130726480431,-0.000716953216945558,-0.00566113719296685,0.0353222924570749,-2.45598938885854,-0.00133620276884622,0
0.14,0.000647266413658382,0.000368724382248731,-0.0318467788821433,-0.018448648041987,0.000124398079456379,-0.000734463476384263,-0.00588324331203148,0.0363312178143904,-2.4559973197039,-0.0013285931673244,0
0.15,0.00061101114032148,0.00034841430998618,-0.0300676727747814,-0.0174324602868736,0.000117159562130687,-0.000693542199149732,-0.00554315934651608,0.0343107709357264,-2.45600442463881,-0.000896329563892024,0
0.16,0.000604459699114922,0.000345503635388829,-0.0298079942446475,-0.0172868306953776,0.00011526103744678,-0.000686628854016266,-0.00549129429268036,0.0340175943207447,-2.4560096955809,-0.000749857032841138,0
0.17,0.000602853184174057,0.000345086123829432,-0.0297666613002976,-0.0172659394766565,0.000114564038563872,-0.000685121504257717,-0.00548114501128613,0.0339723982130119,-2.45601414735408,-0.000659771017435964,0
0.18,0.000602124178272381,0.000345025905885181,-0.0297609439748373,-0.0172629370313556,0.000114146456296719,-0.000684519530990155,-0.00547971804574837,0.0339660929657954,-2.45601801176083,-0.000587270970088112,0
0.19,0.000601597960599656,0.000345016932965262,-0.0297609336944249,-0.017262479146721,0.000113817937014255,-0.000684106912290937,-0.00547995142382805,0.0339658135931913,-2.45602138401314,-0.000524944410065191,0
0.2,0.000601156212614373,0.000345015346150689,-0.0297617305948062,-0.0172624035352659,0.00011353747372402,-0.000683764303766074,-0.00548041442651877,0.0339663987129308,-2.4560243297119,-0.000470655757146227,0
0.21,0.000600773254423484,0.000345014855592186,-0.0297625569498661,-0.0172623801629327,0.000113293638667098,-0.000683467852387697,-0.0054808682774347,0.0339670376690262,-2.45602690329021,-0.000423250488535037,0
0.22,0.00060043919067717,0.000345014555271233,-0.0297632977003792,-0.0172623654020927,0.000113080835461255,-0.000683209330806779,-0.00548127230282006,0.0339676140348289,-2.45602915183628,-0.000381836460347672,0
0.23,0.000600147385692465,0.000345014311198335,-0.029763942643932,-0.0172623505374714,0.000112894938167062,-0.000682983522803748,-0.00548162539578493,0.0339681146195973,-2.4560311164125,-0.000345653300711733,0
0.24,0.000599892484364571,0.000345014100528401,-0.0297645032704174,-0.0172623355814226,0.000112732549243019,-0.000682786273076494,-0.0054819336036714,0.0339685485210257,-2.45603283288393,-0.000314039795054655,0
0.25,0.000599669607231296,0.000345013916797702,-0.0297649793603787,-0.0172623362973771,0.000112590562796545,-0.000682613804277489,-0.00548218352191351,0.0339689257204224,-2.4560343325838,-0.000286418745957926,0
0.26,0.000604585750042321,0.000347907300308236,-0.0299960083448389,-0.0174070962293683,0.000113462530289608,-0.0006882511699825,-0.00551635571750352,0.0342394120183174,-2.45603549437648,-0.000308593403385546,0
0.27,0.000591955433001114,0.000340632911958731,-0.0294345022036517,-0.0170431408624163,0.000111096029353633,-0.00067386919178048,-0.00544253695229531,0.0335743557191473,-2.45603705491088,-0.000173687687043445,0
0.28,0.000591509017865768,0.000340486136397633,-0.0292423257928579,-0.0170357888938245,0.000110926350211769,-0.000673430822077672,-0.00532652729885966,0.0334209489384293,-2.45603804458835,-0.000152895521779227,0
0.29,0.000597776345442842,0.000344364677876508,-0.0297098071626074,-0.0172298500790694,0.000111891520414513,-0.000680737745537384,-0.00547225265433657,0.0339056754286599,-2.45603868361215,-0.000195604990320763,0
0.3,0.000590406164061549,0.000340602398708396,-0.0293724389344569,-0.0170416065981875,0.000110138017640441,-0.000672650763500659,-0.00540439305139048,0.0335253495157302,-2.45603822035028,-0.00014043900431439,0
0.31,0.000597581350746334,0.00034438132420982,-0.0297018040870619,-0.0172306845434475,0.000111755098481022,-0.000680597359080844,-0.00546653572474909,0.0339000094842472,-2.45603880852522,-0.000191793504805519,0
0.32,0.000598666595783707,0.000344922718092034,-0.0297559634283473,-0.0172577615347593,0.000112022610999281,-0.000681780249778587,-0.00547984064113454,0.0339590788933906,-2.45603951568681,-0.000188960300804793,0
0.33,0.000598765145895781,0.000345000225532525,-0.029764988349025,-0.0172616448330971,0.000112024564179697,-0.000681905677185223,-0.00548252632568275,0.0339685268866605,-2.45604016521412,-0.000178667584797962,0
0.34,0.000598711944743914,0.000345011272541402,-0.0297665899686149,-0.0172622008946008,0.000111981940837588,-0.000681871553803151,-0.00548309042777798,0.0339701218344299,-2.45604073790324,-0.000168393643706912,0
0.35,0.000598642794134769,0.000345012804047025,-0.0297669631121212,-0.0172622797490684,0.000111936634333649,-0.000681819052109817,-0.00548324859967004,0.033970463344613,-2.45604123911888,-0.000159207247625124,0
0.36,0.000598578474683184,0.000345012978588857,-0.0297671071414865,-0.0172622916576175,0.000111895479931357,-0.000681769423866848,-0.00548331568555885,0.0339705847747414,-2.4560416771756,-0.00015114658749484,0
0.37,0.000598521945066172,0.000345012964363534,-0.0297672139881721,-0.0172622790885635,0.000111859441128824,-0.000681725699775983,-0.00548338005694582,0.0339706616229383,-2.45604205993351,-0.00014409826165878,0
0.38,0.000598472235723838,0.000345012928043342,-0.029767286486239,-0.0172622793151846,0.000111827770320704,-0.000681687235639944,-0.00548341441938609,0.0339707197188188,-2.45604239435725,-0.00013793913762721,0
0.39,0.000598428812808872,0.00034501289288529,-0.0297673449838394,-0.0172622795232895,0.000111800107357109,-0.000681653633637973,-0.00548344136715687,0.0339707667340618,-2.4560426865472,-0.000132557691570273,0
0.4,0.000598390919621683,0.000345012861675655,-0.0297673930027255,-0.0172622797150793,0.000111775967371657,-0.000681624310397919,-0.00548346294699466,0.0339708054253838,-2.45604294183711,-0.000127855837945351,0
0.41,0.00059835774125502,0.000345012834336408,-0.0297674260730838,-0.0172622798929644,0.000111754831325772,-0.00068159863560016,-0.00548347616892408,0.0339708323598995,-2.45604316488649,-0.000123747772475713,0
0.42,0.000598328812047596,0.000345012810438626,-0.0297674525491119,-0.0172622800583212,0.000111736401961874,-0.000681576248977076,-0.00548348618259299,0.0339708540275462,-2.45604335976725,-0.000120158509669426,0
0.43,0.000598303491715143,0.000345012789557182,-0.0297674680408984,-0.0172622802130382,0.000111720271817954,-0.000681556655034255,-0.00548349008645635,0.0339708670509172,-2.45604353003662,-0.000117022531034932,0
0.44,0.000598281431011695,0.000345012771311998,-0.0297674793115247,-0.0172622803581527,0.000111706217959852,-0.000681539583539278,-0.00548349205581245,0.0339708766828199,-2.45604367880311,-0.0001142825918752,0
0.45,0.000598262106068305,0.000345012755370574,-0.0297674812779894,-0.0172622804952102,0.000111693907132126,-0.000681524629074577,-0.00548348877920362,0.0339708790045108,-2.45604380878154,-0.00011188867678844,0
0.46,0.00059824522584667,0.000345012741442367,-0.0297674778044304,-0.0172622806250544,0.000111683153684565,-0.00068151156643815,-0.00548348262171993,0.0339708770206582,-2.45604392234563,-0.000109797086755984,0
0.47,0.000598230441099108,0.000345012729272729,-0.0297674675600654,-0.0172622792935278,0.000111673735293085,-0.000681500125358419,-0.00548347379608668,0.0339708687918772,-2.45604402156726,-0.000107969641460875,0
0.48,0.000598217577206068,0.000345012718639948,-0.0297674559099116,-0.0172622794115295,0.000111665540342267,-0.000681490170730067,-0.00548346338408698,0.0339708603238956,-2.45604410825836,-0.000106372982339819,0
0.49,0.000598206284919871,0.000345012709349869,-0.0297674377376314,-0.0172622795248978,0.000111658346795211,-0.000681481432264689,-0.00548344921844135,0.0339708467443519,-2.45604418400158,-0.000104977963644248,0
0.5,0.000598196612467971,0.000345012701233037,-0.0297674261403941,-0.0172622653715567,0.00011165218437331,-0.000681473947341306,-0.00548345058385749,0.0339708291696899,-2.45604425017906,-0.000103759120413792,0
0.51,4.69075523882854,-0.0215070981776497,5.46303014943319,1.08602451457512,-1.0589001867877,4.56972402452165,-0.14970329630811,5.56792031039855,0.223117167529212,69.1988087521481,3300.52991490717
0.52,4.72317562862203,0.019143362105048,3.84289510913877,-0.935527687119662,-4.0146199873437,2.48828873813758,-3.76417685619585,1.214095329243,1.01999321981625,148.524420114525,3300.52991490717
0.53,4.69143072076259,0.0422332018456113,5.43115942228419,-2.07830407732145,-3.15447660763838,-3.47283503537317,-2.06445763362841,-5.43643772952755,2.41319688966109,233.138409875563,3300.52991490717
0.54,4.66742848660204,0.0138076374999323,6.63241506825158,-0.649915314211212,4.495377590339,-1.25565108556296,6.56614289987808,-1.1388972612126,-1.84021652440209,318.466759722286,3300.52991490717
0.55,4.62265469031605,0.00871913366561616,8.87232034944481,-0.376131335322002,-3.25515777470435,3.28221880303167,-6.52608951466215,6.02243296444222,0.783144926974682,398.255003245257,3300.52991490717
0.56,4.66678785041935,0.0291159743088749,6.66704286017011,-1.39142487087161,3.56888468643468,-3.00712797794069,6.01508133244156,-3.19442017191514,-2.26473736024144,482.156635111102,3300.52991490717
0.57,4.61534504904317,0.0292912430641672,9.24065708592588,-1.39742162681313,-4.6152434449262,0.0423773844554473,-9.24458216322814,-1.37121523112946,1.56796094254334,565.327246687327,3300.52991490717
0.58,4.60923470758395,0.0570926685870958,9.54770209262385,-2.78011062250735,1.32394555702314,4.41536774509684,-0.0438922913900188,9.94412911167331,-0.278932713008384,646.932941945595,3300.52991490717
0.59,4.62019092201439,0.0489407981223097,9.00152843637428,-2.36212407039468,4.61736145922837,0.16891569618442,8.88016704870085,2.78384221930057,-1.52363748892327,728.62436146084,3300.52991490717
0.6,4.5718720699564,0.0385757915905016,11.4191210440159,-1.83541664179549,3.75976307169043,-2.60147726503562,10.4764527648513,-4.89989970639257,-2.16764538431967,810.809976208449,3300.52991490717
0.61,4.5993986255301,0.0756667858236288,10.0446092266037,-3.67526894387249,3.64014430683017,-2.81239090534316,10.2474290229627,-3.06463288899451,-2.21215792110536,892.206666495026,3300.52991490717
0.62,4.57016351336177,0.0699710484134033,11.5082925130012,-3.36328925218685,4.54558523094088,-0.478482387065007,11.7630008599736,2.32041417142184,-1.66036399945092,972.589387253769,3300.52991490717
0.63,4.5187636764572,0.0589256988996563,14.0802836625429,-2.8279288838705,2.26872935823378,3.90839666624921,4.44523905691667,13.6561861263225,-0.512900202512207,1054.80629728715,3300.52991490717
0.64,4.55635980666208,0.0588485173578084,12.2025637086875,-2.78559470607436,-4.27587157188868,1.57505559789968,-12.4329538037724,1.44352299751257,1.23077558234788,1135.06880699176,3300.52991490717
0.65,4.53574538992029,0.0639303226945822,13.2354739385866,-3.05308739941669,1.81692571915217,-4.15642325316207,8.25168873955437,-10.7892884840935,-2.71539322602209,1216.82049876614,3300.52991490717
0.66,4.49031578743266,0.0500422006469319,15.5091895474908,-2.35782971759349,-0.906475527638178,4.39815213589817,-5.6036224786783,14.6524310786168,0.214401586961494,1297.59999373715,3300.52991490717
0.67,4.45825659386821,0.08226742213979,17.1145249003203,-3.94029252988998,2.42999133763485,-3.73871125985071,12.8535209634434,-11.9674502976663,-2.54679885366602,1377.83510950925,3300.52991490717
0.68,4.46214365457032,0.113937283341444,16.9226373480076,-5.5190095616017,-4.46143323867203,0.139000559098809,-16.9533721359519,-5.42386343607231,1.56517902553709,1458.30102409059,3300.52991490717
0.69,4.42706322182961,0.0872201216206563,18.679197562657,-4.1951509226203,0.161973702617424,4.42495882911381,-3.87909082910568,18.7473829423704,-0.0168892042141313,1538.9288086848,3300.52991490717
0.7,4.49810029758121,0.0980387467090236,15.1299576645123,-4.71249015457648,3.86213199293106,2.307911253089,10.3105962047391,12.0339016237351,-1.01037011717594,1619.02658422102,3300.52991490717
0.71,4.44716825046625,0.0916047700490894,17.6792096163072,-4.35031119175171,4.40857957051281,0.591711967352281,16.802565180273,7.01095310817916,-1.4167798695584,1698.55618668523,3300.52991490717
0.72,4.42696154889592,0.0887795679233108,18.6923358315095,-4.24738483370271,4.21146980846922,1.36725726161388,16.267301865827,10.1399500378238,-1.23682865093754,1779.07714305256,3300.52991490717
0.73,4.47988351275082,0.159725073052313,16.0490775823996,-7.73351409235011,2.17798110882603,3.91806925364715,0.403882529756269,17.8105870303204,-0.471708576252674,1858.20929686021,3300.52991490717
0.74,4.41168674067941,0.125335943699319,19.4618250558545,-6.03911766969567,-3.31397288348896,2.91483665480064,-18.8306684263759,7.7871370444476,0.877792071099517,1938.28535707396,3300.52991490717
0.75,4.40542164303691,0.0947532252341972,19.778117702506,-4.51983190789169,-1.52308148904808,-4.13484471345048,-2.16176193339563,-20.1724962677676,2.81016739806746,2017.89943546612,3300.52991490717
0.76,4.38132904378008,0.142919465744493,20.9858383006837,-6.92724750717711,3.66790117791952,2.40061890198677,13.1947609325647,17.7282388053805,-0.958659888393497,2097.19472988634,3300.52991490717
0.77,4.35846744890027,0.109523735109499,22.1320639916747,-5.24900581138394,-3.73719260004142,-2.24535641310489,-15.8634949030547,-16.3012222854694,2.13693756962337,2176.43265008869,3300.52991490717
0.78,4.38101266593982,0.15809301101374,21.008025181055,-7.659831632915,-4.0737436394616,-1.61953022176269,-16.1446887087714,-15.4712368332114,1.98526200088024,2255.49421109228,3300.52991490717
0.79,4.38241754356369,0.127057283410887,20.9410750478634,-6.06495202872948,0.313331088790295,4.37304821699922,-5.16881844222459,21.1800751458147,-0.0425438722781864,2334.15922619106,3300.52991490717
0.8,4.3200828978774,0.19703673374585,24.0611983983671,-9.53359937241799,4.32224368322425,0.141948095464854,23.240536540725,11.3889528341538,-1.49238893430877,2412.87836793525,3300.52991490717
0.81,4.34636693039958,0.211286701794474,22.7504592288782,-10.2892220270525,2.89622973693858,-3.24767622691964,23.2862462943357,-9.01122736181748,-2.36476065646554,2491.83794755127,3300.52991490717
0.82,4.2899477586571,0.228909704630945,25.5750065524821,-11.1284493738388,1.77793602338438,-3.91088160414419,21.6807454842365,-17.5461853652967,-2.66160052138021,2570.09656277491,3300.52991490717
0.83,4.3348446549447,0.182647963447709,23.3338634541679,-8.79741018921882,2.84614086870654,-3.27470924152551,22.425815871873,-10.9062547290981,-2.38398826430344,2648.21652932173,3300.52991490717
0.84,4.28761045364706,0.16165381763569,25.6993441410793,-7.77234031859293,4.2906567358835,-0.000365783153847637,25.3890136545987,8.73290037480411,-1.53319688412114,2726.54566413545,3300.52991490717
0.85,4.03446212655187,0.123545179219027,25.803468997755,-5.89240437199578,0.571020671348676,3.99575818272105,-2.98908418268722,26.2983805081231,-0.111332734430094,2803.5751275822,3300.52991490717
0.86,3.46663637038326,0.152544115978535,25.3096455949458,-7.38240555008607,-3.37886469450797,-0.79000684047117,-22.3727157822561,-13.9477475018043,1.84445384636188,2871.40694112956,3300.52991490717
0.87,3.00431833680216,0.130562083107314,23.5352102228615,-6.29879780308579,2.64833812640263,-1.42452809541729,23.9316460863833,-4.56697816882633,-2.02086765921764,2929.73031975598,3300.52991490717
0.88,2.54854131981295,0.0853723788150587,24.8857724316885,-4.04374360323632,-1.75975180677079,1.84543352099863,-20.5985988194195,14.5379248356535,0.795122397271202,2980.05412334041,3300.52991490717
0.89,2.14169270349382,0.179306957156135,26.8041251148864,-8.76708861950289,-0.0932795771980399,2.14716034370072,-12.0900148978916,25.4785106669417,0.126943209098757,3023.56306062813,3300.52991490717
0.9,1.85537744895066,0.092932096233011,25.2606773903896,-4.55358589893359,0.706982947942761,-1.71791646010599,14.8889377562795,-20.9082878124906,-2.70113578345922,3061.06560832595,3300.52991490717
0.91,1.59669152134957,0.104872921627787,24.4479181637569,-5.11250993866487,-1.29498531742392,0.939912321281524,-23.4097749428695,8.70751959738818,1.00854508533883,3093.16653040832,3300.52991490717
0.92,1.26619468585682,0.0578200189568661,29.2136698312252,-2.82772640935955,1.24714772480744,0.226306627370598,27.8451415842075,9.27807263441426,-1.3456574909342,3120.96872900433,3300.52991490717
0.93,1.14203512190219,0.0419149299836761,25.2663733347273,-2.03411301461661,-0.451228775364701,-1.04994936701565,-7.22110773352535,-24.2977949688212,2.7723806193407,3144.84507984059,3300.52991490717
0.94,0.937125389635504,0.099730865704917,26.732789758841,-4.88821938564471,-0.580858187970666,0.742128025977446,-22.1208570604526,15.7862098036106,0.770121312677852,3165.5188928299,3300.52991490717
0.95,0.849397615127733,0.0557395096669824,23.5878439026162,-2.76038859609777,0.77932400943342,0.342399313438585,19.6543533716963,13.3308858938987,-1.09130214815231,3183.31220630388,3300.52991490717
0.96,0.652351618217566,0.0526083009454896,26.9266247539408,-2.55720115826341,0.148867499057867,-0.637313686377206,10.6480509979356,-24.8636563752945,-2.83165125155909,3198.65133121734,3300.52991490717
0.97,0.572686511216946,0.0518338397530581,25.3244371265299,-2.58050478330766,-0.568160125845926,-0.0886039416286007,-23.9425507912374,-8.6452520102804,1.81576314742346,3211.87012950503,3300.52991490717
