t,iq,id,vq,vd,ia,ib,va,vb,theta_e,omega,r
0,0,0,0,0,0,0,0,0,0,0,0
0.01,0.00144558673508196,0.000813479419131158,-0.0707943801876186,-0.0407389305966346,0.000608477163384402,0.00154312193803165,-0.03069096848174,-0.0756939177606717,0.136969961181445,-0.00259402868588964,0
0.02,0.0015966339913211,0.000901080524248677,-0.0785273804686626,-0.0451259822670021,0.000674665188860982,0.00170470322823692,-0.033982612200106,-0.0839528786099029,0.13695137972485,-0.0026127000212078,0
0.03,0.00164517062624008,0.000929746921800887,-0.0810098817947878,-0.0465615682355115,0.000696468088378356,0.00175668663395382,-0.0350673799664924,-0.0866075022572602,0.136933555958895,-0.00244174578148887,0
0.04,0.00161225322775127,0.000913573291015448,-0.079532534292185,-0.0457516033399803,0.000684965658774248,0.0017218590751717,-0.0344679665767328,-0.0850328906904952,0.136918234994731,-0.00214849478689251,0
0.05,0.00163927831376844,0.000929932461946646,-0.0809482356469557,-0.0465708825344324,0.000697508213951528,0.00175085409593255,-0.0350875918774085,-0.0865466628509464,0.136903864287657,-0.00198692659292004,0
0.06,0.00163708086487274,0.00093019223730207,-0.0809392644772593,-0.0465838993893333,0.000698088085626962,0.00174870362874193,-0.0351028310273435,-0.0865390979286301,0.136890925255441,-0.00178945133675704,0
0.07,0.00168141508275357,0.000956433398579542,-0.0831701983725531,-0.0478980469064757,0.000718054269580685,0.00179619586692726,-0.0361012591329274,-0.0889280826499819,0.136879499713616,-0.00170577987574572,0
0.08,0.00163329069508011,0.000930612418472426,-0.080920749401178,-0.0466049385911541,0.000699059816678314,0.00174499092855982,-0.0351280970991277,-0.0865228569739104,0.136868999898162,-0.0014546955161466,0
0.09,0.00163048768838157,0.000930183123972798,-0.0808545969476787,-0.0465834391290109,0.000699033072565303,0.00174214910657716,-0.035116623023495,-0.0864540654688001,0.136859765566657,-0.00131134067018454,0
0.1,0.00162871977162733,0.000930170716282024,-0.0808311111564765,-0.04658281983701,0.000699276339712413,0.0017403902598661,-0.0351199267364298,-0.0864304250873834,0.136851516413317,-0.00118472289019802,0
0.11,0.00162715395221198,0.000930165711689352,-0.080810798763086,-0.0465825468636272,0.000699497816191135,0.00173883324115496,-0.0351230643973009,-0.0864100064597444,0.136844144952917,-0.00107160343979728,0
0.12,0.0016257541838227,0.000930161337384106,-0.0807926165655799,-0.0465823543294947,0.000699695880490719,0.00173744135285353,-0.0351259231120947,-0.0863917365950854,0.136837557757089,-0.000970519476721222,0
0.13,0.00170355456723588,0.000974490071169412,-0.0846057614002476,-0.0488023153756367,0.000733009261554985,0.00182055664147881,-0.036805566460962,-0.0904718250375577,0.136831054733038,-0.00102593597337604,0
0.14,0.00181110159415185,0.00103766448211663,-0.0901613362604148,-0.0519660768918384,0.000780934309555386,0.00193571128165979,-0.0391825000730838,-0.0964068015848199,0.136825366888529,-0.00115183072227223,0
0.15,0.00162550590186376,0.000931912247479699,-0.0809113741038435,-0.0466700387341105,0.000701494502247567,0.00173742203776544,-0.0351980924655036,-0.0865207331314602,0.136820169871782,-0.000710446438263961,0
0.16,0.00162126398953798,0.000930175988918844,-0.0807365655029425,-0.0465830686695619,0.000700360053999207,0.0017329801178594,-0.0351361274025101,-0.0863355537831236,0.136816122293772,-0.00064170437450247,0
0.17,0.00162043586115252,0.000930145172458847,-0.0807236049080193,-0.0465815297292647,0.000700448719851476,0.00173215299925152,-0.0351366818144855,-0.0863223777031887,0.13681251628117,-0.000586246676649157,0
0.18,0.00161975045990421,0.000930142563747911,-0.0807146615759361,-0.046581390214825,0.000700545193813202,0.00173147138950681,-0.035138041465837,-0.0863133856919586,0.136809294119938,-0.000536798689644441,0
0.19,0.00161913842174418,0.000930140640894844,-0.0807066867500254,-0.0465813124095542,0.000700631744234938,0.00173086279051311,-0.0351393005207907,-0.0863053735921048,0.136806414774034,-0.00049261357329657,0
0.2,0.00161859169257801,0.000930138929024319,-0.080699566630197,-0.0465812344185337,0.000700709063445514,0.00173031913327408,-0.0351404163469099,-0.0862982189458266,0.136803841767445,-0.000453129430985527,0
0.21,0.00161810328748641,0.000930137399158547,-0.0806932084067308,-0.0465811562591972,0.000700778132686335,0.00172983347147533,-0.0351414044439596,-0.0862918286694742,0.136801542508068,-0.000417846081192567,0
0.22,0.00161766692004646,0.000930136031873531,-0.0806875270292621,-0.0465810808575424,0.000700839841180224,0.00172939955447448,-0.0351422818326916,-0.0862861178843183,0.136799487871373,-0.000386316593092472,0
0.23,0.00161727700231385,0.000930134809907107,-0.0806824478441761,-0.0465810024069592,0.00070089497949767,0.00172901182602351,-0.0351430551952338,-0.0862810109288833,0.136797651831403,-0.000358141586307923,0
0.24,0.00161692831701725,0.000930133717829215,-0.0806778930384219,-0.0465809652908948,0.000700944284541952,0.0017286650992552,-0.0351437811248971,-0.0862764359532539,0.136796011131378,-0.000332964171296563,0
0.25,0.00161661676820328,0.000930132741844364,-0.0806738213658543,-0.0465809251353493,0.000700988337529013,0.00172835530008596,-0.0351444230851211,-0.0862723453155691,0.136794544988593,-0.00031046542865873,0
0.26,0.00163219542262318,0.000938893461236515,-0.0814371127566217,-0.0470196273572478,0.000707544999748144,0.00174498220693397,-0.0354750490016938,-0.0870882861771696,0.13679327366867,-0.000322021469007066,0
0.27,0.00157151898579185,0.000904761246693971,-0.0785116454648925,-0.0453102970471468,0.000682008206427606,0.00168021714149954,-0.0341807390937317,-0.0839570042766647,0.136791902227004,-0.000182611761886427,0
0.28,0.00155636244478779,0.000895499346393054,-0.0775016337834197,-0.0448464601376643,0.000674901473399543,0.00166393844241286,-0.033859056478593,-0.0828931391633702,0.136790811049488,-0.000136611810248627,0
0.29,0.00161458041643745,0.000929562059949757,-0.0806086927766114,-0.0465523405992597,0.000700708370426201,0.00172625702722857,-0.0351253710571177,-0.0862037706514246,0.136790090412455,-0.000239970589898644,0
0.3,0.0016094643313491,0.00092690817140161,-0.0803612137616124,-0.0464194330639177,0.000698776931672017,0.00172082683378053,-0.0350274527394729,-0.0859404793900935,0.136790084585197,-0.000229855120035027,0
0.31,0.00161538242162472,0.000930076416214892,-0.0806536594325352,-0.0465780866717196,0.000701109976044587,0.00172712110449269,-0.0351448156468319,-0.0862517992334525,0.136789269043782,-0.000229280000194708,0
0.32,0.00161533525621693,0.000930127864780545,-0.0806569786782389,-0.0465806501875945,0.000701168668312952,0.0017270808705428,-0.035146967153668,-0.0862554107363701,0.136788520574557,-0.000218013225163682,0
0.33,0.00161519497582563,0.00093012827069384,-0.0806551955019428,-0.0465806944924909,0.000701189355064831,0.00172694148662311,-0.0351473119236492,-0.0862536267376688,0.136787851375667,-0.000207748010750811,0
0.34,0.00161506806171353,0.000930127886378191,-0.0806535236753375,-0.0465806565846523,0.00070120731321035,0.00172681528626712,-0.0351475539223651,-0.0862519443397073,0.13678725336744,-0.000198571317700995,0
0.35,0.0016149544403598,0.000930127530691639,-0.0806520158531615,-0.0465806571300763,0.000701223377101096,0.00172670230300284,-0.0351478061618926,-0.0862504318937266,0.136786718982609,-0.000190370883976978,0
0.36,0.00161485313761327,0.000930127212636457,-0.080650676544452,-0.046580616215386,0.000701237700220749,0.00172660156826507,-0.0351479894448285,-0.086249082731755,0.136786241452115,-0.000183042908560299,0
0.37,0.00161476233366255,0.000930126928408556,-0.0806494623329075,-0.0465806166695877,0.000701250537428018,0.00172651127448476,-0.0351481922689159,-0.086247864925072,0.136785814726927,-0.000176494570170436,0
0.38,0.00161468119218351,0.000930126674413831,-0.0806483739594818,-0.0465806170839948,0.000701262008561186,0.0017264305888729,-0.035148373977718,-0.0862467733712783,0.136785433402155,-0.000170642921784007,0
0.39,0.00161460910968706,0.000930126447437179,-0.0806474192794662,-0.0465805789676577,0.000701272201087146,0.00172635890975456,-0.0351484957855578,-0.0862458104339732,0.136785092647469,-0.000165413841242939,0
0.4,0.00161454426635303,0.000930126244604535,-0.0806465412535718,-0.0465805793165137,0.000701281367776426,0.00172629443089098,-0.0351486421195226,-0.0862449299540547,0.136784788146325,-0.000160741092387471,0
0.41,0.00161448640793828,0.000930126063348753,-0.0806457575260452,-0.0465805796364599,0.000701289547425653,0.00172623689736074,-0.0351487727719309,-0.0862441440263942,0.136784516041752,-0.000156565486046443,0
0.42,0.00161443460312024,0.000930125901374774,-0.0806450486397545,-0.0465805799313204,0.000701296870715307,0.0017261853838117,-0.0351488906971075,-0.0862434332549979,0.136784272887164,-0.00015283413029499,0
0.43,0.00161438883048608,0.000930125756631293,-0.0806444377947002,-0.046580541712548,0.000701303343858773,0.00172613986659241,-0.0351489548682601,-0.0862428152667033,0.136784055602351,-0.000149499760480281,0
0.44,0.00161434750304698,0.000930125627285842,-0.0806438672781894,-0.046580541964998,0.00070130918619707,0.00172609877135797,-0.0351490496582241,-0.086242243288651,0.136783861435009,-0.000146520140524422,0
0.45,0.00161431059938524,0.000930125511700514,-0.0806433553755284,-0.0465805392886371,0.00070131440327872,0.00172606207494328,-0.0351491317724931,-0.0862417297036878,0.136783687925639,-0.000143857527924605,0
0.46,0.00161427753743396,0.000930125408411632,-0.0806428903033488,-0.0465805395066639,0.000701319076820881,0.00172602919897778,-0.0351492087762284,-0.0862412635553013,0.136783532876434,-0.000141478195672143,0
0.47,0.00161424820077296,0.00093012531611075,-0.0806424816492385,-0.0465805397091754,0.000701323224795554,0.00172600002657336,-0.0351492766487951,-0.0862408538757143,0.136783394323377,-0.000139352005040848,0
0.48,0.00161422165807967,0.000930125233629476,-0.0806420967145173,-0.0465805399000547,0.00070132697606996,0.00172597363371644,-0.0351493400041419,-0.0862404682105065,0.136783270511379,-0.000137452023818208,0
0.49,0.00161419814218475,0.000930125159923189,-0.0806417594379801,-0.046580540078346,0.000701330300570256,0.00172595024982091,-0.0351493957123807,-0.0862401302196253,0.136783159872072,-0.000135754185162808,0
0.5,0.00161417718742689,0.000930125094058517,-0.0806414575883349,-0.0465805402459666,0.000701333263288424,0.00172592941246505,-0.0351494455641106,-0.086239827737032,0.136783061004144,-0.000134236982745917,0
0.51,4.69143660910554,-0.0227699362966921,5.42944075281798,1.15025849534606,-0.536875427829401,4.66067170075813,0.548189839029878,5.52280810773476,0.10983375013123,33.6141754586664,3541.56015332368
0.52,4.58208360708239,-0.0457618222034524,10.8985829513225,2.31473115822309,-2.21646015031923,4.01059705389502,-3.13909852040763,10.6903297966377,0.494889398757763,71.5832722956295,3541.56015332368
0.53,4.56530035686941,0.0440550508216744,11.7394864432,-2.1693164929796,-4.17681908101826,1.84339104922874,-11.6419620087378,2.64314142336252,1.16481829111797,111.89367070981,3541.56015332368
0.54,4.58537111641566,-0.0845904437726239,10.7378977834666,4.27324432691192,-3.82059100135062,-2.53690130254121,-11.3512194138673,-2.17091771007193,2.13850994681069,152.738613039836,3541.56015332368
0.55,4.50273419236775,0.0243346006289875,14.8717387449785,-1.15620576462633,1.10935742403899,-4.36400429486899,4.86081040323162,-14.1024092726344,-2.88725469367334,190.637874176157,3541.56015332368
0.56,4.52191588629564,0.0627504854979881,13.9148045012305,-3.08353110557888,4.41527884771078,0.978250276320354,12.8335593564648,6.19916951136446,-1.33888221370944,230.886848079638,3541.56015332368
0.57,4.50060331784797,-0.0326585065067972,14.9827196684792,1.69216063467147,-2.16417628781893,3.94624350464004,-5.61938450005231,13.9917051898022,0.494368606281999,270.335263231786,3541.56015332368
0.58,4.40503306294441,0.0291647916595741,19.7636842969171,-1.37762604580219,-2.2374529416287,-3.79459763409812,-8.73413540576272,-17.7824618437404,2.61544506956179,308.825894067953,3541.56015332368
0.59,4.34195364142259,0.0405263804224644,22.9202634803198,-1.92023365601501,4.147462820458,1.28559556808958,21.242718597956,8.81888212127976,-1.26088318991755,347.538276972114,3541.56015332368
0.6,4.35178250235912,0.0668999343532315,22.4315276374014,-3.24926160016421,-4.29986473317404,0.673535318644541,-22.6654701512123,-0.0871545656193495,1.43078966406113,386.536472649227,3541.56015332368
0.61,4.39839385507503,0.160337614454401,20.10382061757,-7.94447577313302,4.14605700686044,-1.47708765848008,21.5628748402238,1.52339336947967,-1.87660238843075,425.54983383282,3541.56015332368
0.62,4.35362993273145,0.153932614340359,22.3449416024441,-7.59629594130683,-4.24802494291003,0.965439239593619,-23.3713542936528,-3.28327972081423,1.38266700124355,463.93899739097,3541.56015332368
0.63,4.32901288095592,0.0281795816396186,23.5789078746842,-1.25430736914921,4.23860181016475,0.880568740741891,22.7911436074829,6.17267823576106,-1.35945086994322,502.02776562735,3541.56015332368
0.64,4.41880284077862,0.0754561005540955,19.0925653664372,-3.65826513869423,-2.83013960919412,-3.39438093932525,-9.12506548028259,-17.1651430543767,2.46367006003017,540.930271221775,3541.56015332368
0.65,4.31600490788724,0.0233488762734788,24.2356648926189,-0.990308179219864,-1.19060946516699,4.1486012867453,-7.76184796033013,22.9804673433303,0.284889008216734,579.000034570515,3541.56015332368
0.66,4.32349976931704,0.136898675328887,23.8642378550007,-6.67709012997403,4.31399896954022,-0.317497076202661,24.1224772561354,5.6737529053595,-1.61260752601934,617.203401174615,3541.56015332368
0.67,4.22631071688275,0.0812371107865062,28.7272325136582,-3.90660026601554,-0.456107507682297,-4.20241212701024,1.34091295713651,-28.9606174998669,3.05270053431299,655.469378350747,3541.56015332368
0.68,4.29217659074173,0.138713712570213,25.4374057533785,-6.78282667297398,-4.267866795504,-0.476795968943424,-24.2052989088324,-10.3523839704533,1.7143591891405,693.684360373867,3541.56015332368
0.69,4.21868839191811,0.0549567876222496,29.1154297418638,-2.57379698562923,-2.52696696999913,3.37857809279936,-19.7815187156476,21.5179970554679,0.655206375009805,731.649122505772,3541.56015332368
0.7,4.179370752357,0.190720289164526,31.0850014197842,-9.33854507080822,0.713176672229807,4.12248628239602,-5.36778874903684,32.0105073570104,-0.125699174643708,769.464216750176,3541.56015332368
0.71,4.21308417444379,0.189933796066165,29.4031575268953,-9.26856678554054,2.63153103489319,3.29563309854583,9.79746331662175,29.23117711227,-0.628768324572996,807.344791586413,3541.56015332368
0.72,4.20114431804037,0.158545578590225,30.0040393092163,-7.77044014047781,3.27208001143401,2.63974291935169,17.5214829554762,25.5659881461035,-0.854233709609057,845.37618816987,3541.56015332368
0.73,4.17145676056935,0.161442499660974,31.4923398995798,-7.82436195383916,3.11355952097794,2.78080245528591,17.2255277998841,27.500350985956,-0.803109352854739,882.833347791704,3541.56015332368
0.74,4.14622062939959,0.13385213531375,32.7581473862947,-6.50725793739743,2.01622920535569,3.62544917124176,9.20328708909062,32.1051418436643,-0.475267359778324,920.768331053318,3541.56015332368
0.75,4.09396243858081,0.0840771030140611,35.3750527848152,-4.04262750651899,-0.442741477777546,4.07082023572856,-8.55520857859695,34.5621990455125,0.12886792690261,958.476500159508,3541.56015332368
0.76,4.06143992324577,0.220819017264875,37.0053935444132,-10.7686770591512,-3.31871761061358,2.35163107428094,-37.050387597226,10.6128382573422,1.00864045099912,995.774704757722,3541.56015332368
0.77,4.01152263700462,0.115595775256162,39.50535639663,-5.49265845076369,-3.39180531848316,-2.14507177781232,-29.6981124298605,-26.624511244056,2.1635270807066,1033.33175043947,3541.56015332368
0.78,4.00851353184794,0.17962609011272,39.6600551884157,-8.6879606342252,1.07035004385447,-3.86714326743631,20.5408864225637,-35.0210311456611,-2.8267906442884,1070.78736994026,3541.56015332368
0.79,4.04740372903851,0.0974040259983084,37.7198584463512,-4.61364309409156,3.69055530719436,1.66456180860161,32.003657579824,20.4899810962773,-1.12302262457827,1108.20086634747,3541.56015332368
0.8,4.01141165760094,-0.0196566853393769,39.5237497108979,1.18620827288644,-3.0381817231795,2.61940101720857,-29.0285373605242,26.849169446838,0.854384400166332,1145.64954423094,3541.56015332368
0.81,3.94920231478701,0.140522097336412,42.6385649366568,-6.74828873473669,-0.28437276660544,-3.94145626800198,5.1896762271742,-42.8562000340905,3.10513568751473,1182.73419769085,3541.56015332368
0.82,3.97414730639657,0.179290604527785,41.3956141337143,-8.77368244611588,2.56285786361594,3.04265533781153,18.2558508793075,38.17457638069,-0.654928762427492,1219.90983581762,3541.56015332368
0.83,3.95640170202682,0.131616978078565,42.2871911025492,-6.27809559927492,-3.40357787863594,-2.02140918192714,-32.2367455039272,-28.0786975305512,2.13997830861332,1256.86913402554,3541.56015332368
0.84,3.92955179431796,0.025641691503848,43.6338569452109,-1.05579464247174,3.47192425468972,1.84059141861194,37.9167496114539,21.6182393627351,-1.07680646186434,1294.04311447722,3541.56015332368
0.85,3.79071652409719,0.142190399605192,48,-6.91453074090809,-3.01404133490076,-2.30332470731181,-32.6177804282711,-35.8872001596678,2.26081506280961,1330.95109381424,3541.56015332368
0.86,3.89050300176579,0.248023468145643,45.5945610170431,-12.0445540875008,1.79255368203957,3.46183196364382,7.32034094276437,46.5869926694704,-0.414125040573961,1367.73559990432,3541.56015332368
0.87,3.83751100837326,0.283955319070257,48,-13.8378691965006,0.948153932713237,-3.72935992933032,28.3509247989738,-41.1304228879596,-2.81876697613377,1404.58551317474,3541.56015332368
0.88,3.81164932487767,0.242963546731671,48,-11.9256959835129,-3.64340190773495,1.14600366473854,-49.4591522640133,-0.120341249484936,1.32970827439757,1441.45633177467,3541.56015332368
0.89,3.9012708360945,0.152557940205333,45.0679423377,-7.39454533101589,2.12285728452219,3.27668506439546,16.6497833679324,42.5274433866841,-0.535789772105713,1478.18827379788,3541.56015332368
0.9,3.84759654273301,0.163243379122489,47.7554711277751,-7.83443711436506,2.84021183568666,-2.60073918048384,41.5969470368826,-24.7317088925429,-2.26980792880301,1514.66007598937,3541.56015332368
0.91,3.6781138048319,0.281068585319288,48,-13.672805752151,-1.87617294990157,-3.17608182718991,-8.92537074549769,-49.1048202745053,2.68429339371521,1551.18145999332,3541.56015332368
0.92,3.8976325748616,0.176004563100018,45.2610383917395,-8.47896082612024,-3.90150856756803,-0.0273530994144298,-44.757670080773,-10.8261415993915,1.6229332459315,1587.69875501271,3541.56015332368
0.93,3.72993606030765,0.139180223863696,48,-6.73113372739701,-2.65521664336531,2.62328395822754,-39.9289252243137,27.4770648302775,0.828744733233087,1624.16618298559,3541.56015332368
0.94,3.7500476606652,0.311114051682643,48,-15.1404420333372,-0.816110296292919,3.67336540446218,-28.7067616080023,41.3419257285648,0.301391980625943,1660.43617916523,3541.56015332368
0.95,3.74262569165386,0.311268388504747,48,-15.1782751965903,0.158757736397517,3.75219016824092,-17.1183886070803,47.3428010307841,0.0406920223076504,1696.75802548611,3541.56015332368
0.96,3.82354053115938,0.220042613099334,48,-10.6155508436345,0.0448689946667558,3.82960412031266,-12.800636760199,47.464024463242,0.0457702145257714,1733.069048596,3541.56015332368
0.97,3.7503281177169,0.148803339596414,48,-7.03200477897706,-1.02731662376274,3.609947919147,-21.6400195831458,43.4184136473527,0.316906679487536,1769.3148401186,3541.56015332368
0.98,3.65023669304779,0.274605092187192,48,-13.2931240229584,-2.18991285939458,2.93324351873244,-41.5456644859252,27.4711650410515,0.716399275204661,1805.43745197673,3541.56015332368
0.99,3.66885372063518,0.0107684564960258,48,-0.245326027780258,-3.66316718166472,0.2044744048737,-47.9459949238996,2.28948806882764,1.51797026351485,1841.70905394768,3541.56015332368
