t,iq,id,vq,vd,ia,ib,va,vb,theta_e,omega,r
0,0,0,0,0,0,0,0,0,0,0,0
0.01,0.001245753666889,0.000714008011425345,-0.0616711527609243,-0.0357885268687645,-0.00113937256650968,0.00087380764109277,0.0563458520827868,-0.0436954767837845,1.43699949266085,-0.001359327609841,0
0.02,0.00141463771229126,0.000811207990009789,-0.0701531993318161,-0.040660553506225,-0.00129377093990616,0.000992680721655613,0.0641016721274583,-0.0496560934668238,1.43698942213829,-0.00150510085534791,0
0.03,0.00144120473941362,0.000826419217878556,-0.0714736250987817,-0.0414229937483869,-0.00131806069413147,0.00101131391326973,0.0653080542041251,-0.050588551589378,1.43697904292789,-0.00148978306010446,0
0.04,0.00142853557466484,0.000819342342012325,-0.0708673895523618,-0.0410682630070166,-0.00130643929256528,0.00100262262907775,0.0647540815287805,-0.0501567348792137,1.43696938229612,-0.00143354833039325,0
0.05,0.00144086186409267,0.000826427310382936,-0.0714879631334076,-0.0414233734131891,-0.00131770015882549,0.001011301785905,0.0653212305917023,-0.0505921097788737,1.43695961656766,-0.0014049133803347,0
0.06,0.00144070551475678,0.00082643730781769,-0.0714954797115674,-0.0414238945052928,-0.0013175342927221,0.00101130331330656,0.0653281310954808,-0.050594248119173,1.43695014266395,-0.00136353630416005,0
0.07,0.00147425926183501,0.00084567487121987,-0.0731567527190884,-0.0423881238904208,-0.0013482112869991,0.00103485877516078,0.0668453992441526,-0.0517721557909399,1.43694100744652,-0.00136147078078065,0
0.08,0.00144042755405817,0.00082646750581254,-0.0715107713862539,-0.0414253913526929,-0.00131723651823085,0.00101131994526612,0.0653421721530675,-0.0505989526699884,1.43693207689827,-0.00128465665491103,0
0.09,0.00144019553375276,0.000826426820212089,-0.0715131804358617,-0.0414233515917188,-0.00131700330119703,0.00101125999092389,0.0653443964578351,-0.050597815019075,1.43692347116831,-0.00124697011848854,0
0.1,0.00144003604097846,0.000826423439370246,-0.0715187130980783,-0.0414231772874229,-0.00131683725875167,0.00101124632727188,0.0653494811758682,-0.0505989253822189,1.43691513685287,-0.00121054527829118,0
0.11,0.00143988139183347,0.000826420234878895,-0.0715240611468313,-0.0414230402535512,-0.00131667625908733,0.00101123313628529,0.0653543912397396,-0.0506000309532121,1.43690706530872,-0.0011752690155774,0
0.12,0.00143973202717885,0.000826417131413542,-0.0715292603702354,-0.04142286891619,-0.00131652074076613,0.00101122041331794,0.0653591712534872,-0.0506010661095013,1.4368992482506,-0.00114110497033748,0
0.13,0.00150034561532436,0.000861151695404401,-0.0745165869763082,-0.043163871091651,-0.00137194645354566,0.00105374671364821,0.0680869212649066,-0.052725825312467,1.43689131318957,-0.00117463319952612,0
0.14,0.00165535783116738,0.000950502684695613,-0.0823374680991178,-0.0476424653878819,-0.00151363340373342,0.0011630042226592,0.0752394350656683,-0.0582090248347098,1.43688375403441,-0.0013157578531139,0
0.15,0.00143972681068747,0.000826648886662983,-0.0715656325957667,-0.0414344977305683,-0.00131646151652958,0.00101147948408759,0.0653925086875043,-0.0506189409072474,1.43687639452868,-0.00104170897682781,0
0.16,0.00143916434983689,0.000826405804542356,-0.0715490070014379,-0.0414223129927699,-0.00131592962110244,0.0010111724936567,0.0653773121891803,-0.0506050932958458,1.43686954392965,-0.0010112845258141,0
0.17,0.00143903670899483,0.000826402703698975,-0.0715533726387422,-0.0414221528018919,-0.00131579682923587,0.00101116110619845,0.0653813244017322,-0.050605951213246,1.43686290987636,-0.000982289766764827,0
0.18,0.00143891384119364,0.000826400151391042,-0.0715576366325947,-0.041422015907823,-0.00131566890611479,0.00101115062284532,0.0653852433468079,-0.0506068050245134,1.43685648498778,-0.000954210118874647,0
0.19,0.00143879453646554,0.000826397680338744,-0.0715617498956972,-0.0414219133322403,-0.0013155447083144,0.00101114042776378,0.0653890185714644,-0.0506076595240151,1.43685026266828,-0.000927015789868332,0
0.2,0.00143867946848178,0.000826395287111701,-0.071565756521806,-0.0414217764643097,-0.00131542489745474,0.00101113061606681,0.0653927026145945,-0.0506084530168318,1.43684423653102,-0.000900678864867067,0
0.21,0.00143856773074276,0.000826392969260723,-0.0715696212106863,-0.0414216739076758,-0.0013153085692133,0.00101112107253879,0.0653962510179901,-0.0506092491778625,1.43683840039087,-0.00087517231098736,0
0.22,0.0014384597640845,0.000826390724413652,-0.0715733757793357,-0.0414215370634543,-0.00131519615472133,0.00101111186171125,0.065399704172865,-0.0506099846596584,1.43683274825709,-0.000850469947661205,0
0.23,0.00143835501125794,0.000826388550273635,-0.0715770016637092,-0.0414214345237357,-0.00131508709614931,0.00101110291463122,0.0654030342273907,-0.0506107253358566,1.43682727432847,-0.000826546419758495,0
0.24,0.00143825351805746,0.000826386444615526,-0.0715805103848389,-0.041421331990626,-0.00131498143348436,0.00101109424270953,0.0654062568964056,-0.050611439118376,1.43682197298622,-0.000803377171563725,0
0.25,0.00143815528448305,0.000826384405284737,-0.0715839107421754,-0.0414212294634899,-0.00131487916150035,0.00101108585107125,0.0654093806258176,-0.0506121275343938,1.43681683878922,-0.000780938421571473,0
0.26,0.00144652687836557,0.000831191717405342,-0.0720026962080667,-0.0416621834721677,-0.00132252852640036,0.00101697491501736,0.065791973910132,-0.0509071896877859,1.43681187489985,-0.000768747615844566,0
0.27,0.00139539216292767,0.00080200005995958,-0.0695010631075228,-0.040198993854138,-0.00127574685332363,0.000981220337523628,0.0635079805697019,-0.0491232458609898,1.4368069944297,-0.000690124294273351,0
0.28,0.00134846599084974,0.000774853794988334,-0.0670278672544594,-0.0388383523713266,-0.00123286324455125,0.000948054403671409,0.0612384946076041,-0.0474446981421023,1.43680226987548,-0.000616903569498512,0
0.29,0.00143761328689324,0.000826276874697002,-0.0715876761431233,-0.0414158397815893,-0.00131433721090896,0.0010109318138881,0.0654128723492183,-0.0506085298285956,1.43679787177288,-0.000697843040075773,0
0.3,0.00143667224804627,0.000825790905740277,-0.0715478129786983,-0.0413914906521723,-0.001313465552896,0.0010103296539572,0.0653764203070521,-0.0505793308405649,1.43679393307494,-0.000679657492373475,0
0.31,0.00143763366146727,0.000826372484186118,-0.0716017941325543,-0.0414206247327461,-0.00131433635178569,0.00101104004944335,0.0654258101076381,-0.050615693692875,1.43678968428546,-0.000662258649076708,0
0.32,0.0014375569189918,0.000826371980886818,-0.0716046144115527,-0.0414206117963604,-0.00131425620300636,0.00101103470711708,0.0654283984850725,-0.0506163269932786,1.43678556811572,-0.000644271475346864,0
0.33,0.00143748052569368,0.000826370399336021,-0.0716072434324269,-0.0414205435708522,-0.00131417667561567,0.00101102817167234,0.065430811271425,-0.0506168714764047,1.43678158172116,-0.000626849139286108,0
0.34,0.00143740697214494,0.000826368865491329,-0.0716098103647962,-0.0414204410744574,-0.00131410008328017,0.00101102189716512,0.0654331734638304,-0.0506173654958152,1.43677772101276,-0.000609976103800695,0
0.35,0.00143733535187177,0.000826367379969955,-0.0716122763717264,-0.0414203728495763,-0.00131402552355899,0.00101101576835096,0.0654354372149914,-0.0506178720475422,1.436773982028,-0.000593635054662164,0
0.36,0.00143726605990373,0.000826365941255057,-0.0716146674418912,-0.0414203046238283,-0.00131395338425617,0.00101100984160359,0.0654376326658645,-0.0506183608884245,1.43677036092926,-0.000577809219001186,0
0.37,0.00143719886341018,0.00082636454787166,-0.0716169779211955,-0.0414202363977663,-0.00131388343106236,0.00101100408928275,0.0654397540251172,-0.0506188315051227,1.43676685399947,-0.000562482352766164,0
0.38,0.00143713399522176,0.000826363198393176,-0.0716192253022527,-0.0414201681701856,-0.00131381589126576,0.00101099854586356,0.0654418184466851,-0.0506192864680292,1.43676345763876,-0.000547638724059706,0
0.39,0.00143707098967719,0.000826361891436369,-0.0716213919719754,-0.0414200999425276,-0.00131375030003732,0.00101099315237144,0.0654438082990665,-0.0506197236516296,1.43676016836159,-0.000533263096991899,0
0.4,0.0014370100796071,0.000826360625662994,-0.0716234950609444,-0.0414200317133859,-0.00131368688487967,0.00101098794307038,0.0654457403886907,-0.0506201455633932,1.43675698279128,-0.00051934071604165,0
0.41,0.00143695086998715,0.000826359399775567,-0.0716255201250141,-0.0414199977422366,-0.00131362525117541,0.00101098286821716,0.065447595657212,-0.0506205844379119,1.43675389765848,-0.000505857290910419,0
0.42,0.00143689380162074,0.000826358212517744,-0.0716274943299376,-0.0414199295096102,-0.00131356583273583,0.0010109779896717,0.0654494100235291,-0.0506209762068877,1.43675090979625,-0.000492798981855621,0
0.43,0.00143683847948284,0.000826357062673277,-0.0716294029142839,-0.0414198612759626,-0.00131350823513739,0.00101097325749934,0.0654511641250527,-0.05062135305039,1.43674801613772,-0.000480152385485398,0
0.44,0.00143678501998879,0.000826355949063466,-0.0716312565522835,-0.0414197930409131,-0.00131345257090242,0.00101096869002289,0.0654528683901441,-0.0506217165879784,1.43674521371302,-0.000467904520999468,0
0.45,0.00143673291170119,0.000826354870547237,-0.0716330342756537,-0.041419759058865,-0.00131339833042245,0.00101096422156575,0.0654544973149775,-0.0506220981516472,1.43674249964527,-0.00045604281686597,0
0.46,0.00143668282824952,0.000826353826019214,-0.0716347743473832,-0.0414196908201957,-0.00131334617861195,0.00101095994475005,0.0654560978348178,-0.050622435141742,1.43673987114905,-0.000444555097918134,0
0.47,0.00143663386317463,0.000826352814408897,-0.0716364357768622,-0.0414196568325511,-0.00131329521455667,0.00101095574093237,0.0654576200340595,-0.0506227901484647,1.43673732552609,-0.000433429572857383,0
0.48,0.00143658703935001,0.000826351834678966,-0.0716380739713521,-0.0414195885897324,-0.00131324644944726,0.00101095174925408,0.0654591278470225,-0.0506231028560555,1.43673486016397,-0.000422654822149572,0
0.49,0.0014365411010725,0.000826350885825613,-0.0716396302622559,-0.0414195545962014,-0.00131319863642009,0.00101094780423115,0.0654605538472755,-0.050623433477673,1.4367324725315,-0.000412219786305245,0
0.5,0.00143649679260918,0.000826349966875561,-0.0716411458316314,-0.0414195205986346,-0.00131315251071496,0.001010944007616,0.0654619433016873,-0.0506237537313905,1.43673016017874,-0.000402113754527819,0
0.51,4.49704588224338,-0.0295176743783447,15.149681300637,1.48493164433633,-0.449824247501987,4.47458949027306,0.0620603327900755,15.222155366909,0.0936283002608365,28.743890426037,3662.06355893968
0.52,4.5481893721111,0.0757950399583371,12.59470848417,-3.78722994210763,-1.79715194330983,4.1787577514525,-8.62173483668733,9.93153970144974,0.422819180168542,61.0806041082342,3662.06355893968
0.53,4.48595430565727,0.102988580645874,15.7087897348545,-5.14283533310296,-3.69568311003734,2.54486129884777,-15.9578574228581,4.308319471559,0.990713838592247,94.0705247118053,3662.06355893968
0.54,4.4596557620483,0.0258571266968108,17.0261650397553,-1.27098515004387,-4.34138584405221,-1.02057192790842,-16.2534612787023,-5.22787678454085,1.80748181307244,129.364085314427,3662.06355893968
0.55,4.50346355535891,0.0310251959000372,14.8381278731314,-1.52915342259121,-1.156273838108,-4.35260581359414,-2.23018228787487,-14.7490554250796,2.88882786784811,164.970063192999,3662.06355893968
0.56,4.4896269999887,0.0345788161365881,15.5324129760501,-1.69501329209951,3.93456143491309,-2.16267718544576,14.4739195405054,-5.8851147868108,-2.06567788072351,197.365149369634,3662.06355893968
0.57,4.51480352274818,0.0561723359922167,14.2761046794703,-2.77890145308249,2.1944883797695,3.94598871404961,4.33760584724349,13.8821696293878,-0.495097288361915,231.984987068175,3662.06355893968
0.58,4.50990708674125,0.0362286300430852,14.5235061686984,-1.76742944817461,-4.37342568536138,1.10169061868342,-14.5295335434603,1.7171759653448,1.33205786944819,265.66433798706,3662.06355893968
0.59,4.4164599963876,0.0656155348049008,19.1984736344148,-3.24478387078512,1.0698915376507,-4.28541204503874,8.062661552433,-17.7229653543177,-2.88207904019586,299.884039591171,3662.06355893968
0.6,4.45545415172916,0.117735876154539,17.2515170836804,-5.83595248621341,2.46861749153733,3.71091108963425,4.22967700188624,17.7139215186692,-0.56058987899073,332.887599624072,3662.06355893968
0.61,4.37846307548789,0.0518504569085798,21.1038147453258,-2.54075479350698,-3.99097223160558,-1.80160151527626,-18.0579108261089,-11.2133085359343,2.00667144435974,367.474651305496,3662.06355893968
0.62,4.40437634416007,0.0413372529234073,19.8109862244519,-2.01391908638328,4.38317471150871,0.433611805497249,19.4785181366646,4.13743597793964,-1.46280551258113,401.170582730192,3662.06355893968
0.63,4.34614719402162,0.021667902092902,22.7251945903896,-0.998630550697787,-4.34499681692828,-0.102311245551078,-22.6874626371522,-1.64644199280776,1.59932438685292,434.319883677371,3662.06355893968
0.64,4.41767224126221,0.10142269707267,19.1518619844038,-4.98926478584721,4.3524427540668,0.763122969954129,17.8090162725092,8.63281645689578,-1.37427406756741,467.842732478536,3662.06355893968
0.65,4.34495076321709,0.0659778357388165,22.790858528187,-3.20906292529448,-3.59721590417494,-2.43782442935097,-16.8298058950487,-15.6996481121494,2.1815806483892,501.525544971931,3662.06355893968
0.66,4.33464151541679,0.0938064746574008,23.3093473335691,-4.59751315654059,1.36954816989142,4.11366679888022,2.49022176278575,23.6275600922668,-0.29974650870669,535.106012177179,3662.06355893968
0.67,4.40037032554222,0.133607556731617,20.0259196849246,-6.5823706370587,2.3985479849027,-3.69162261685123,16.8235392452209,-12.7017160137981,-2.53505569064889,568.695514305086,3662.06355893968
0.68,4.37539639819847,0.0959913625785236,21.2776748475391,-4.69129680820893,-4.31636643820522,-0.722695478187995,-20.0274601186042,-8.58187356339088,1.75862439858794,602.434298347619,3662.06355893968
0.69,4.28027032688242,0.0383809829990642,26.037047089369,-1.83566091791606,-0.0276675653080266,4.28035298507916,-2.23719042272563,26.0056234524775,0.0154304740167507,636.353587539231,3662.06355893968
0.7,4.36340557193367,-0.0143026506978288,21.8834304601088,0.825557564298605,4.34497144187517,0.40091884501482,21.870494404572,1.11693710385723,-1.48206280333657,669.663917985236,3662.06355893968
0.71,4.39201480112513,0.0495670759923508,20.4561444752488,-2.34589164167614,1.69258244916873,-4.05307482796588,10.2497248529846,-17.8577768724119,-2.73471741840334,702.744790377481,3662.06355893968
0.72,4.36056365302433,0.0480157466708855,22.0319358350428,-2.30284233210509,-2.503841057813,-3.57037824903961,-10.5507457466292,-19.4779630258393,2.54101789876679,736.646938372761,3662.06355893968
0.73,4.36037981955113,0.0259413296829059,22.0442828768976,-1.15905234591361,-4.27169316776701,-0.875341421267783,-21.32940302415,-5.68773914052244,1.77886427424176,769.737036858875,3662.06355893968
0.74,4.29838336194331,0.125827207358414,25.1474678842969,-6.19634064789795,-4.05536905349804,1.43035444987357,-25.8393451212613,1.76579220773116,1.26097732497982,803.396604077475,3662.06355893968
0.75,4.27375437795873,0.128529234561782,26.3823193827643,-6.28348040259178,-3.49621284585906,2.46129884079697,-25.4805025355025,9.28724353735748,0.987462553310213,836.258138161552,3662.06355893968
0.76,4.34226955498619,-0.0402185046188048,22.9599385763429,2.15210410869036,-3.57525215373849,2.46464895136448,-17.5441579310714,14.9663908145453,0.957982736221407,869.884753781973,3662.06355893968
0.77,4.27590376601169,0.105365041258174,26.2816520004249,-5.15875204752778,-3.89975227249465,1.75681160665709,-26.223418827867,5.44704135633111,1.17216898736543,903.201851096218,3662.06355893968
0.78,4.24414108677503,-0.00587569076113303,27.8732219920512,0.475528172729588,-4.23620537386785,-0.259484332103194,-27.8518268280812,-1.1909549109017,1.63058942115712,936.158552910603,3662.06355893968
0.79,4.36564642768545,0.111247038776576,21.8014592222911,-5.38841086699726,-3.2362316845155,-2.93224301846509,-12.0593538337638,-18.9449354975118,2.33243017800137,969.312153526294,3662.06355893968
0.8,4.2387610162329,0.0826685248691952,28.1491916835025,-3.96164151436996,0.493866193750222,-4.21070364908414,7.74854500804353,-27.3501672057278,-3.00533728291909,1002.5904409973,3662.06355893968
0.81,4.28892712371149,0.0480574839113008,25.6444296339431,-2.22089273168011,4.14840291204951,-1.08993516943311,25.4143571151001,-4.08406515644007,-1.81652097295169,1035.78864523026,3662.06355893968
0.82,4.21954673081872,0.0795544220341726,29.1170794888132,-3.79258232228206,1.65776143770165,3.88107337411926,7.41540306832884,28.4112617805576,-0.384830246050801,1068.87967293131,3662.06355893968
0.83,4.21318094587447,0.175890361264809,29.4390519303657,-8.6081454517234,-3.99858097251948,1.3390971988884,-30.6716355187689,-0.0933877967957795,1.2893660468714,1101.93506487271,3662.06355893968
0.84,4.15623244293785,0.133210812024329,32.2902127985608,-6.47770593762588,0.134371014922952,-4.15619509533875,8.54102410294386,-31.8067512340325,-3.07723372656939,1135.09821106199,3662.06355893968
0.85,4.20081558282904,-0.00707316811394731,30.0648027747485,0.509908766584937,3.33412801234717,2.55548273090004,24.2022471194641,17.8438674956735,-0.918526217669812,1168.31808841197,3662.06355893968
0.86,4.13390651370078,0.165890165380902,33.4140246621614,-8.12479750162828,-0.0214101183929474,4.13717829176097,-9.62902710728445,33.0119859374315,0.0452826399138264,1201.16127583127,3662.06355893968
0.87,4.2181952972488,0.126470648423221,29.2034459968327,-6.10500437267963,-1.96380041762196,-3.73532519473102,-7.32250455088146,-28.9221932706128,2.68754089389289,1233.98734161927,3662.06355893968
0.88,4.23313050496551,0.122514099328288,28.4605566681906,-5.96383609047788,2.85731315358058,3.12572633462675,14.0703616244376,25.4478987449834,-0.711632230920327,1267.16681420997,3662.06355893968
0.89,4.21933166187908,0.0914435259134031,29.1543495196877,-4.34003855775982,-2.87540815404543,-3.08919885067566,-16.1563572005757,-24.6532787394773,2.41369149033237,1299.84722974156,3662.06355893968
0.9,4.1263173269277,0.0827280476845464,33.8090886571799,-3.96070774786726,2.06183492294206,3.57521682739858,12.8298325585501,31.5299393943698,-0.503066289094471,1332.90127088347,3662.06355893968
0.91,4.118799576238,0.0930930830155297,34.1888575718128,-4.43263082554431,-0.247365584970566,-4.11241857532716,3.14840763363795,-34.3309441681075,3.10411231013857,1365.70192429531,3662.06355893968
0.92,4.15853362834647,0.150734623984507,32.2062022491617,-7.31212379342436,-2.46209469954423,3.35472987816194,-25.7177409448504,20.7196626028957,0.669359754421209,1398.43195622805,3662.06355893968
0.93,4.13432040467257,0.101720885520972,33.4209476444941,-4.89159520583459,4.13466928051112,0.0863845347313815,33.1639400618323,6.40628790244013,-1.52530758143603,1431.35921807489,3662.06355893968
0.94,4.194504097038,0.164444730821342,30.4158367713598,-8.05157031433419,-1.54659406760304,-3.90242917675882,-2.49434734631662,-31.3644566722364,2.80345114190352,1464.20339401707,3662.06355893968
0.95,4.09226684472076,0.1590071527649,35.531809904108,-7.78543787048484,-3.5533210283749,2.03613380511693,-35.0972894334941,9.55525155704393,1.08928525147206,1496.91878669034,3662.06355893968
0.96,4.12493626645538,0.133843542272105,33.9024569376942,-6.50842116992224,1.67266189648747,3.7729584514232,6.6955215158614,33.8660024828432,-0.384856449699876,1529.61443113358,3662.06355893968
0.97,4.03810155132221,0.135118411422011,38.2484007310889,-6.57638890892546,4.02685004704375,-0.330151211598282,38.5215756798663,4.71987888697709,-1.61915242474589,1562.28950670418,3662.06355893968
0.98,4.16417346464136,0.187923936318024,31.9490426764296,-9.21939635436895,1.93438285650612,-3.69240016979738,24.052397819857,-22.9612882085176,-2.61392415407951,1594.98961441504,3662.06355893968
0.99,4.12995924680711,0.0569678110675116,33.6640132169344,-2.64802669155953,-0.988576919117763,-4.01030228122183,-5.0261557548782,-33.39184914851,2.91369493807596,1627.66005910617,3662.06355893968
