t,iq,id,vq,vd,ia,ib,va,vb,theta_e,omega,r
0,0,0,0,0,0,0,0,0,0,0,0
0.01,0.000629379968124784,0.000349958079666882,-0.0309147474516032,-0.0175168110897495,-0.000705535723622108,0.000144253750363426,0.034753938345464,-0.00739757056269579,1.87658187593014,-0.0019194306639543,0
0.02,0.00070272049528234,0.000390910528275899,-0.034628186632126,-0.0195666352661621,-0.000787800216858017,0.000161238810232715,0.0389120831840835,-0.00823494428295244,1.87656795026651,-0.00191690197590914,0
0.03,0.000729978087096767,0.00040726565922863,-0.036015591883797,-0.0203852837190014,-0.000818714610028216,0.000168640778445582,0.0404814571733417,-0.0085985042982668,1.87655476012741,-0.00177285185109201,0
0.04,0.000710471147774226,0.000398237712130862,-0.0351141627204446,-0.0199333904958299,-0.000797393002353332,0.000165912407555275,0.0394857153293109,-0.00843935810057405,1.87654354939428,-0.00150720271488679,0
0.05,0.000725259057512599,0.000407672923672405,-0.0358801917362114,-0.0204056690466136,-0.000814333403526746,0.000170467067494623,0.0403582882433457,-0.00865956455800416,1.87653338304233,-0.00137529737461381,0
0.06,0.000724017918613252,0.000408203316877153,-0.0358595061359043,-0.0204322208372,-0.000813307927052891,0.000171353757401183,0.0403464757407945,-0.00869147421031375,1.87652438831873,-0.00121051923399333,0
0.07,0.000740439721560954,0.000418634838183415,-0.0366942674779369,-0.0209543585032965,-0.000832106618040162,0.000176365204107502,0.0412996156334485,-0.00893846488813739,1.87651668076336,-0.00112800219189267,0
0.08,0.000721407421473258,0.000408818150048125,-0.0357973078849383,-0.0204629799415219,-0.000811001000326372,0.00017273773483258,0.0402962913063496,-0.00874012052834557,1.87650968045429,-0.000939128428803985,0
0.09,0.000718720072743454,0.000408261354706572,-0.0356927134612213,-0.0204351123018884,-0.000808269643568857,0.000173020403410334,0.0401881070293114,-0.00874526514270749,1.87650370982985,-0.000823495795896151,0
0.1,0.000717277728624524,0.000408228197542828,-0.0356453887485522,-0.0204334585325384,-0.000806883294442617,0.000173427075162014,0.0401424333244502,-0.00875813983837014,1.87649851407145,-0.000725877967822355,0
0.11,0.000716078926640763,0.000408224852693577,-0.0356069817443263,-0.0204332857986487,-0.000805738280255608,0.000173788328913121,0.0401057153301964,-0.00876971580630172,1.8764939857778,-0.000640995534754325,0
0.12,0.000715037672610039,0.000408223380623511,-0.0355736811135798,-0.0204332129374045,-0.000804744171443026,0.000174103475748609,0.0400739020272952,-0.00877982660550441,1.87649003876045,-0.000567021702726996,0
0.13,0.000748498730890314,0.000427363700835206,-0.0372220628926599,-0.0213912618955528,-0.000842413594737196,0.00018228938076018,0.0419341564025911,-0.00919753109656511,1.87648620859315,-0.000610925242003221,0
0.14,0.000777485835464739,0.000444844344800035,-0.0387306118738149,-0.0222662465695494,-0.000875317025602653,0.000190238850235697,0.0436360638764217,-0.00957809802564731,1.87648285186852,-0.000648268922825652,0
0.15,0.000716514834217598,0.000410289883349624,-0.0356908167815653,-0.0205366585153104,-0.000806772982674054,0.000175637838918982,0.0402166493764785,-0.00884363378024705,1.87647984299459,-0.000389919532299769,0
0.16,0.000712047852914826,0.000408336077224804,-0.0354825878172816,-0.0204388665393072,-0.000801924716841063,0.000175120659327609,0.0399886245195668,-0.0088131272914792,1.87647767952533,-0.000336296660560989,0
0.17,0.000711306147007024,0.000408225038264281,-0.0354546294618956,-0.0204333068956622,-0.000801183653193301,0.000175239466136163,0.0399602727548441,-0.00881631342064771,1.87647582348532,-0.000300665119569328,0
0.18,0.000710863750727791,0.00040821823506856,-0.0354402006106222,-0.020432960042787,-0.000800759434484626,0.000175367407533825,0.0399463941514291,-0.00882038943187602,1.87647420760717,-0.000270326399438844,0
0.19,0.000710491125515526,0.000408217391078214,-0.0354282539095509,-0.0204329253486057,-0.000800403581870541,0.000175479867631106,0.0399349783934954,-0.0088240078248128,1.87647279926404,-0.000243928453063224,0
0.2,0.000710167531427643,0.000408216942790591,-0.0354178974246388,-0.0204328910576029,-0.000800094638002229,0.000175577804165021,0.0399250808426752,-0.0088271407975605,1.87647157170045,-0.000220921898398337,0
0.21,0.000709885302732367,0.00040821656820858,-0.0354088594643805,-0.0204328735968801,-0.000799825191626463,0.000175663235866547,0.0399164471439305,-0.00882988671502261,1.87647050170458,-0.000200868604629505,0
0.22,0.000709639337411358,0.000408216242561108,-0.0354009812205833,-0.0204328574953031,-0.000799590366302442,0.000175737690916512,0.0399089210187644,-0.00883227942954052,1.87646956905087,-0.000183389315759296,0
0.23,0.000709424978848248,0.000408215958715937,-0.0353941137535642,-0.0204328398540841,-0.00079938571608768,0.000175802578135805,0.0399023594054944,-0.00883436170742624,1.87646875611036,-0.000168153626933147,0
0.24,0.000709238015841741,0.000408215711270274,-0.0353881196061571,-0.0204328405031726,-0.000799207220709309,0.000175859172092694,0.0398966370519983,-0.0088361944426822,1.87646804751707,-0.000154873554318402,0
0.25,0.000709075171058271,0.000408215495558031,-0.0353828986223875,-0.0204328227185876,-0.000799051751028764,0.000175908465409917,0.0398916472762668,-0.00883777329180262,1.87646742987705,-0.000143298079702931,0
0.26,0.000716348878286447,0.000412327672640058,-0.035739681526697,-0.0206386622847196,-0.000807225691309426,0.000177641516366632,0.0402938312023174,-0.0089267230029606,1.87646694272497,-0.000159010495375696,0
0.27,0.000694171470054555,0.000399767707621254,-0.0346612695717872,-0.0200099810034503,-0.000782296490867297,0.000172338185760347,0.0390762121769606,-0.00865173913081634,1.87646628726241,-7.28776800003423e-05,0
0.28,0.000692914556815882,0.000398942821025294,-0.0345259055613708,-0.0199686817194677,-0.000780849535725851,0.000171930102226726,0.0389346910585791,-0.0086531056054517,1.87646587706691,-6.13344449588779e-05,0
0.29,0.000707588147765361,0.000407690789146398,-0.0353181752208056,-0.0204065571286921,-0.000797475445230794,0.0001758569892463,0.0398220042776097,-0.00883227321181474,1.87646565821248,-0.000106671772457637,0
0.3,0.000702416852881891,0.000405033029436429,-0.0350647263651146,-0.0202735366146382,-0.000791744110105894,0.000174878398493288,0.0395402763958366,-0.00878167777057929,1.87646595539375,-9.46237995155055e-05,0
0.31,0.000708200979486649,0.000408035022158593,-0.0353480589798573,-0.0204237865576575,-0.000798163459448338,0.00017600084845044,0.0398556876398883,-0.00883971118011659,1.8764656541335,-0.000108655646478041,0
0.32,0.000708499537162614,0.000408204602024693,-0.0353639597543064,-0.0204322805243807,-0.000798499155523477,0.000176072967550587,0.0398734047305422,-0.00884303862513115,1.87646534680092,-0.00010416987396516,0
0.33,0.000708452622386266,0.00040821409862463,-0.0353628544222887,-0.0204327609303699,-0.000798457225582487,0.000176096358273001,0.0398724928096973,-0.00884384018796535,1.87646507601986,-9.91775322448151e-05,0
0.34,0.000708392048496736,0.000408214558205729,-0.035360930260641,-0.0204327705018144,-0.000798399556241686,0.000176115213702789,0.0398706586319797,-0.00884443777353166,1.87646483980799,-9.47559159147502e-05,0
0.35,0.000708337798958698,0.000408214516893013,-0.035359179957277,-0.0204327722072091,-0.000798347772688791,0.000176131664043394,0.0398689881541849,-0.00884497432920324,1.87646463390373,-9.08973100941345e-05,0
0.36,0.000708290476130469,0.00040821445590327,-0.0353576503740703,-0.0204327724357695,-0.000798302593492931,0.000176145990042319,0.0398675279544397,-0.00884544200076521,1.87646445442813,-8.75336917955435e-05,0
0.37,0.000708249206898963,0.000408214401328386,-0.0353563138642998,-0.0204327726453301,-0.000798263193269811,0.000176158482042699,0.0398662520763333,-0.00884585063365182,1.87646429798953,-8.46018003863816e-05,0
0.38,0.000708213234564589,0.00040821435367737,-0.0353551466694981,-0.020432772838266,-0.000798228850029738,0.000176169370609289,0.0398651378373073,-0.00884620749781465,1.87646416163114,-8.20462382365327e-05,0
0.39,0.000708181802427757,0.000408214312137233,-0.0353541232081103,-0.0204327730169576,-0.000798198841451528,0.000176178884742012,0.0398641608195639,-0.00884652039667027,1.8764640427753,-7.98187017853302e-05,0
0.4,0.000708154697910416,0.000408214275927996,-0.0353532435426552,-0.0204327562988022,-0.000798172964181393,0.000176187089464295,0.0398633159824019,-0.00884677330102415,1.87646393917559,-7.78770865207169e-05,0
0.41,0.00070813089097715,0.000408214244366038,-0.0353524654838542,-0.0204327564541,-0.00079815023537991,0.000176194295658007,0.0398625732373686,-0.00884701118994944,1.87646384887378,-7.61846922956893e-05,0
0.42,0.000708110052634585,0.000408214216854666,-0.0353517807033004,-0.0204327566000039,-0.000798130340823986,0.000176200603122155,0.03986191954647,-0.0088472205375473,1.8764637701629,-7.47095297006026e-05,0
0.43,0.000708092008259738,0.000408214192874348,-0.0353511875594692,-0.0204327567370764,-0.000798113113567009,0.000176206065099188,0.0398613533312936,-0.00884740189768042,1.87646370155531,-7.34237154094043e-05,0
0.44,0.000708076175776001,0.000408214171971802,-0.0353506631038846,-0.0204327568671536,-0.000798097998149129,0.000176210857357154,0.0398608526961973,-0.00884756222971166,1.87646364175399,-7.23029451304261e-05,0
0.45,0.000708062438768053,0.000408214153752161,-0.035350206906683,-0.0204327569906064,-0.000798084883233535,0.000176215015455182,0.039860417221362,-0.00884770170843392,1.87646358962861,-7.13260342140543e-05,0
0.46,0.000708050447989929,0.000408214137870912,-0.0353498061907586,-0.0204327571085328,-0.000798073435486021,0.000176218644949877,0.0398600347135685,-0.0088478242191855,1.87646354419417,-7.04745172209797e-05,0
0.47,0.000708039970610985,0.000408214124028208,-0.035349453394801,-0.0204327572216729,-0.000798063432626983,0.00017622181630706,0.0398596979546259,-0.00884793207235623,1.87646350459144,-6.97322988903338e-05,0
0.48,0.000708030890215901,0.000408214111962078,-0.0353491462658994,-0.0204327573303982,-0.00079805476342678,0.00017622456490721,0.0398594047895484,-0.00884802597610455,1.87646347007216,-6.90853499100605e-05,0
0.49,0.000708022973974032,0.000408214101444759,-0.0353488762511351,-0.0204327574354437,-0.000798047205663846,0.000176226961119778,0.0398591470563257,-0.00884810853097672,1.87646343998375,-6.85214417359762e-05,0
0.5,0.000708016047262398,0.000408214092277257,-0.0353486373441528,-0.0204327575373628,-0.000798040592649542,0.000176229057758311,0.0398589190221545,-0.00884818156766787,1.8764634137574,-6.80299154510695e-05,0
0.51,4.66520691371373,0.0135742927407838,6.74080308246146,-0.665761254438082,-0.587462727528117,4.62809111329401,-1.5284958892653,6.59889116147039,0.129168593952554,39.9063638327091,3745.03705961169
0.52,4.63569920800071,-0.0427985740427848,8.21751901305686,2.17406987342354,-2.61121324585534,3.83054881833767,-2.75809493539307,8.04034270860626,0.589093274188421,85.9361902409387,3745.03705961169
0.53,4.63281903817325,0.0366361022109452,8.36307775350339,-1.79452492967255,-4.55991037769431,0.819494839423333,-8.54609257668275,-0.354529131563939,1.40088500304163,136.019318866723,3745.03705961169
0.54,4.57348219692174,0.0359348892653322,11.3315202572435,-1.73419403199993,-2.51188237577294,-3.82210382539616,-4.69211978704215,-10.459196536302,2.56803040575046,181.92588636914,3745.03705961169
0.55,4.60321374840242,0.0472961113267214,9.84670102794017,-2.29564290791639,3.68611717324219,-2.7575993038795,9.30091115351089,-3.96491477951312,-2.20280871984475,230.325730848235,3745.03705961169
0.56,4.5513828015214,0.0375801559817746,12.440203514384,-1.80058711646368,1.5718564646572,4.27150616628652,2.50475357538622,12.3177508892597,-0.344351008962428,277.674019609567,3745.03705961169
0.57,4.53743662712737,0.0451635003334268,13.1395447566424,-2.16601692484912,-4.36138732239016,-1.25246617162053,-11.9738455550334,-5.82806042819974,1.86039590809501,324.657178174973,3745.03705961169
0.58,4.51037457191385,0.0867917160934115,14.4948422003952,-4.226597651337,4.27932724727582,-1.42771491960834,15.0957559201569,-0.287630526359203,-1.87357417173108,371.194563976708,3745.03705961169
0.59,4.49925596250582,0.091327414561535,15.0530574176797,-4.4222596370776,-3.78253683934798,2.4380442924135,-15.1353387435949,4.13188081075958,1.01855558532661,417.694744095012,3745.03705961169
0.6,4.50528223374526,0.0741691626413938,14.7541477995269,-3.57562024097761,4.00824216991088,-2.05841292692591,14.8146641321739,-3.31597105669722,-2.02875994057047,464.944406025001,3745.03705961169
0.61,4.44596695063194,0.0735570353013435,17.7223762765308,-3.53999670548424,-4.44323169647212,0.172408976040328,-17.7967165782033,-3.14500820299167,1.54855633191144,511.45863814503,3745.03705961169
0.62,4.43675325345117,0.123999613577427,18.1857083354266,-6.01118450523239,3.31540269181476,2.95097616515016,9.12054781815823,16.8425038018057,-0.815547568605894,557.613834828241,3745.03705961169
0.63,4.43790183764922,0.11719124254727,18.1309886318924,-5.65447951439439,1.20894196559915,-4.27167014547628,10.7944405294635,-15.6264500448564,-2.83939060057865,604.022865429981,3745.03705961169
0.64,4.43102171872444,0.11784730364854,18.4778534201419,-5.7041393883761,-4.37463014556902,-0.714459619757246,-17.0818581416908,-9.06523003599062,1.75927562153977,650.494544792431,3745.03705961169
0.65,4.4004643765771,0.130477290234785,20.0086423867501,-6.33763315550869,-1.64994893981137,4.08151681961577,-13.8481336102433,15.7715110147223,0.4138060161082,696.836263534699,3745.03705961169
0.66,4.38265415588551,0.113231824770631,20.9022405468917,-5.4146603217729,2.54706850532151,3.56832186404767,7.2133763880242,20.3516438492079,-0.594097244826628,742.47920869488,3745.03705961169
0.67,4.35307006256812,0.106387712247918,22.3846349723743,-5.09983771863305,4.1829897662366,1.20960073185496,19.8093120985439,11.6047999459412,-1.26486862287073,788.666251317899,3745.03705961169
0.68,4.33193116396955,0.149087458164838,23.444858992027,-7.24654983493275,4.32583150505204,-0.273927854465016,23.6440511008797,6.56755245165079,-1.59963327921019,834.558462494879,3745.03705961169
0.69,4.32396479149347,0.120956056601822,23.8465435452717,-5.82919935251597,4.31887679872898,-0.242084867565757,24.0005371359093,5.15862591546912,-1.59882434975432,880.248910832198,3745.03705961169
0.7,4.31419916274358,0.111847918773732,24.3382583264328,-5.3590390988948,4.14538056611719,1.2002684428116,21.5713768792545,12.4798164233622,-1.26304021555357,925.922303758404,3745.03705961169
0.71,4.28522712331961,0.13299896479816,25.7904353468728,-6.37679184513703,2.50540998382713,3.47904886944849,9.12719761845236,24.9500359368709,-0.593090052516231,971.300591895413,3745.03705961169
0.72,4.2681261416365,0.162708492111526,26.6491585495891,-7.80593941134701,-1.55169710374382,3.97939831036793,-17.7794784722048,21.3307404173218,0.409900876777091,1016.56426167257,3745.03705961169
0.73,4.2817342917502,0.183498914310018,25.9724834982834,-8.8855082020342,-4.24841175508349,-0.563842137456007,-24.0317104333527,-13.266463308829,1.74557355908245,1062.07152944642,3745.03705961169
0.74,4.24230941308164,0.157218695352006,27.9475691311755,-7.5952625548103,-4.23442687675345,0.302549004158467,-28.1915033274146,-6.63278024351099,1.53651047266322,1107.3779073139,3745.03705961169
0.75,4.14100856171168,0.161863705512911,33.0165130220298,-7.80815812827801,1.43968535498943,-3.8860594238844,19.8807422831113,-27.4920634322447,-2.74772746211191,1152.45490147185,3745.03705961169
0.76,4.13362755836636,0.174579493832252,33.3895606480162,-8.45127938634455,1.837796378025,3.70673161476128,5.83276575574537,33.9450398021892,-0.418072833184925,1197.55188930113,3745.03705961169
0.77,4.16507906207303,0.151062824446669,31.8210249700799,-7.25678569720044,-3.35576659150259,-2.47174718642584,-20.4076035399292,-25.4709302256241,2.24189779494974,1242.64542536473,3745.03705961169
0.78,4.2134947177893,0.165070992493842,29.4044121454298,-7.8817822099164,3.74041426003494,1.94681466316866,21.6216818497473,21.4299980963872,-1.05174174889268,1287.39038553623,3745.03705961169
0.79,4.05831827144913,0.213080162805706,37.1675329890865,-10.3556544603688,-3.25205326498973,-2.43710892449,-21.8967131958104,-31.7678932102495,2.26637368394405,1332.23562666706,3745.03705961169
0.8,4.12497919862821,0.196161143798478,33.8388747061825,-9.39645635882344,1.6778822630423,3.77341273846631,3.50700896584602,34.9437222058193,-0.370884894793914,1376.77080150942,3745.03705961169
0.81,4.12645899059751,0.207618940150918,33.7694074247226,-10.0003045413261,1.64715345915744,-3.78914962852855,23.9612275657446,-25.8115970501397,-2.6812608691123,1421.39756685967,3745.03705961169
0.82,4.10243756028657,0.212319859504411,34.9750463880755,-10.2391542140154,-4.10788465729768,0.0189024106488512,-34.4540904838207,-11.8747546416387,1.61790329171826,1465.90833784449,3745.03705961169
0.83,4.08511636074686,0.198994598583839,35.8457890521269,-9.53863964586738,3.77512287296008,-1.57360154586886,36.9555330220734,-3.19293252633667,-1.91705683826601,1510.22697666053,3745.03705961169
0.84,4.08882522460462,0.265687431711186,35.6650876058796,-12.8161019953393,-0.708534590151991,-4.03572301617572,8.86367539652828,-36.8467936563683,3.03268583132989,1554.45848483996,3745.03705961169
0.85,4.01575828099086,0.293126106458968,39.3233366607363,-14.308970025449,-3.73994635858917,-1.49165636810562,-29.1133870226567,-30.0579793963568,2.02317076703506,1598.73100602069,3745.03705961169
0.86,4.02351064619255,0.279505078093337,38.9406215062685,-13.4954878804783,-3.84894200520387,1.20515826731677,-41.0089240774762,-4.09491665780729,1.33670856778046,1642.5913010348,3745.03705961169
0.87,4.02037888457353,0.188786727446675,39.1021251758444,-9.01381263364894,-3.2161166841711,2.4198512924932,-37.3893946629049,14.5690829568464,0.972675011303748,1686.60582619322,3745.03705961169
0.88,3.99705617518878,0.178241719866032,40.2732123237572,-8.51522944513144,-3.09753405009588,2.5324910635207,-37.3743201840317,17.2511145773003,0.929989367091426,1730.42796063878,3745.03705961169
0.89,3.92677680452559,0.16633122013431,43.7921850342635,-7.91776839782968,-3.61160162683403,1.55034700515766,-43.7487419588655,8.15439166912191,1.20764863884915,1774.05157525203,3745.03705961169
0.9,3.99269868859033,0.14910210253314,40.5010904173129,-6.99633782963368,-3.91871104631986,-0.779472892602062,-37.7803348116839,-16.1843557034188,1.80447044594622,1817.48439208996,3745.03705961169
0.91,3.9234653308335,0.324808237317051,43.9677152851513,-15.7128453720695,-2.71284106283853,2.8529938592746,-43.2775925479356,17.5243681865442,0.842820280677074,1860.70275230213,3745.03705961169
0.92,3.89858906715898,0.449122561076284,45.2164712676689,-22.0687382428878,-3.63099041522039,-1.48883054576971,-28.9437719555002,-41.1560025575981,2.07461860849682,1903.96537475656,3745.03705961169
0.93,3.86703510122031,0.365895763642289,46.7991233304834,-17.7483390979242,1.46060983246571,-3.5992303484531,37.3483746790525,-33.3205701342251,-2.6617479038236,1946.69919386823,3745.03705961169
0.94,3.87735356341073,0.224886478511769,46.288125548516,-10.73592042192,2.9406491918129,2.53712966058132,25.7650220518773,39.9251072981308,-0.800995070413809,1989.46650138631,3745.03705961169
0.95,3.91268661344984,0.404366042739314,44.5263469429903,-19.741310574246,-3.75575003920011,1.1691749546747,-47.5482663111408,-10.5582804509641,1.37198446401936,2032.01870017907,3745.03705961169
0.96,3.87294166996251,0.19531706775217,46.5184479431329,-9.26131270635638,2.38983162847182,-3.05393692198169,37.4738120428283,-29.0766456638598,-2.42719981317204,2074.32244347582,3745.03705961169
0.97,3.85584986562785,0.414783052927115,47.3778597492595,-20.1820467642473,3.87386724023931,-0.181040802744811,46.0718199556545,23.007911943254,-1.51033588830803,2116.41705174039,3745.03705961169
0.98,3.90746803208512,0.564002263902963,44.8017720454247,-27.6765145646995,-3.91839581414402,0.482264677488899,-44.2139242562643,-28.6062430025605,1.5916846570812,2158.48192342004,3745.03705961169
