t,iq,id,vq,vd,ia,ib,va,vb,theta_e,omega,r
0,0,0,0,0,0,0,0,0,0,0,0
0.01,0.00039796701356677,0.000221625106701307,-0.0190187764516187,-0.011084864111112,0.000128314167650319,0.000437070825139159,-0.00661337908895814,-0.0209964589182128,0.222565810514572,-0.00214087937608634,0
0.02,0.000531994548519498,0.000291577737439566,-0.0255126693087092,-0.0145836353525382,0.000166967581657918,0.000583230317542005,-0.00859294083488135,-0.0281023145516447,0.222547813911767,-0.00268203050955333,0
0.03,0.000590528277706551,0.000321969597427516,-0.0283769282090759,-0.0161037255369754,0.000183703539157963,0.000647024789432013,-0.00944398001583698,-0.0312312547332596,0.222527870622795,-0.00277066664875025,0
0.04,0.000591751385421894,0.00032245971381552,-0.0285259303675733,-0.0161282344032721,0.000183924024590564,0.000648322390760282,-0.00943560007514364,-0.0313818116036101,0.222508761633146,-0.00254404013380798,0
0.05,0.000605411775371012,0.000331059650543993,-0.029257558795793,-0.0165583707675481,0.000189309288183251,0.000663540430858393,-0.00969425479140607,-0.0321901508726532,0.222490859209534,-0.00240279137348859,0
0.06,0.000607838942479807,0.000333590320077921,-0.0294517508945018,-0.016684947930287,0.000191253092619785,0.000666463004380609,-0.00977540090368245,-0.0324073241005866,0.222474216313814,-0.00221314615984201,0
0.07,0.000612854412212463,0.000337918165413216,-0.0297606451694502,-0.0169014124191608,0.000194377744688484,0.000672306856617078,-0.00991886706722663,-0.0327562180168463,0.222459194120905,-0.00205800988601402,0
0.08,0.000606780816437433,0.000335606769893347,-0.029540170546855,-0.0167857997834383,0.000193472653613049,0.00066587025425277,-0.00985520233924578,-0.0325155307070249,0.222445173404378,-0.00185214027561314,0
0.09,0.00060331347435657,0.000334924667927804,-0.0294364015420034,-0.0167516789313397,0.000193580677448174,0.000662335415665999,-0.00984522479153971,-0.0324066664679476,0.222432534744181,-0.00167796498413622,0
0.1,0.000600830513656036,0.000334722501580072,-0.0293734856535422,-0.0167415680291935,0.00019393878902602,0.000659866808769253,-0.00984961242100111,-0.0323429574199859,0.222421094550508,-0.00152402892813767,0
0.11,0.000598792745617146,0.000334661787973146,-0.02932653016291,-0.0167385364068083,0.000194335908391343,0.00065786383031963,-0.00985734841246252,-0.0322963876418624,0.222410723714299,-0.00138569252353036,0
0.12,0.000597013770610955,0.000334642837648596,-0.0292872179869815,-0.0167375838377213,0.000194716005808015,0.000656122662442616,-0.00986539428118625,-0.032257740866627,0.22240131724972,-0.00126061296904341,0
0.13,0.000614935603143775,0.000345597510879152,-0.0301772126303119,-0.0172855023576105,0.000201453785846002,0.000676017609022115,-0.0102038035149008,-0.0332465809929279,0.222392477206798,-0.00125433612172674,0
0.14,0.000624635161989658,0.000351861458252826,-0.0307447335654536,-0.017598802040328,0.000205429798504824,0.000686858187171063,-0.0103844940122573,-0.0338691416982299,0.222384175658339,-0.00120794760415384,0
0.15,0.000602400726168896,0.000339705065893261,-0.0296603587039179,-0.0169907801989068,0.000198481778244509,0.000662488603967839,-0.0100308608044383,-0.0326772906119009,0.222376505244994,-0.000987923254254234,0
0.16,0.000594450750084885,0.000336124436552995,-0.0293150896912314,-0.0168116898915931,0.000196746901082015,0.000653943413484053,-0.00993253780404793,-0.0323009611836427,0.222370037019122,-0.000863713802929166,0
0.17,0.000591203411808011,0.000335069336267563,-0.0291886752852618,-0.0167589255374968,0.000196437668310864,0.000650542217468481,-0.00990913595863281,-0.0321659660920226,0.222364327814263,-0.00077548797699562,0
0.18,0.00058954383266353,0.00033475803518729,-0.02913460437672,-0.0167433428586771,0.000196503356819653,0.00064885383832776,-0.00990602621015901,-0.0321097391299719,0.22235919964021,-0.000703380298518838,0
0.19,0.000588455313690466,0.000334665828576329,-0.0291052009398734,-0.0167387424942026,0.000196656475927651,0.000647770872687977,-0.00990817220755411,-0.0320799991512326,0.222354563710216,-0.000640533693629191,0
0.2,0.000587603339704617,0.000334638191807151,-0.0290849123893025,-0.0167373545406502,0.000196820120214796,0.000646932952110659,-0.00991142726633466,-0.0320598623711485,0.222350363056702,-0.000584349668685413,0
0.21,0.000586874200060367,0.000334629614604609,-0.0290685684816659,-0.0167369303732989,0.000196975007748358,0.000646219120724123,-0.00991473981237014,-0.0320437895128987,0.222346553646533,-0.00053364602113957,0
0.22,0.000586226900748911,0.000334626690621328,-0.0290544087776323,-0.0167367853501575,0.000197117128464728,0.000645586430235081,-0.00991783152703504,-0.0320299121303252,0.222343098012115,-0.000487731488775211,0
0.23,0.000585644328464856,0.000334625468135889,-0.0290417822488155,-0.0167367230992709,0.000197246424536432,0.000645017310927241,-0.0099206555322812,-0.0320175515943849,0.222339962965052,-0.000446102618239751,0
0.24,0.000585117228114032,0.000334624780046238,-0.0290303930812943,-0.0167366854457492,0.000197363818812553,0.000644502472517032,-0.00992322129661513,-0.0320064062534802,0.22233711865502,-0.000408342773387054,0
0.25,0.00058463954607449,0.000334624279596177,-0.0290200839594976,-0.0167366534879777,0.000197470326238946,0.000644035928799419,-0.00992554595678598,-0.0319963182327695,0.222334538084989,-0.000374086970034284,0
0.26,0.000587246487281445,0.000336402081665146,-0.0291540780810446,-0.0168255789699291,0.000198630967765198,0.000646970274446748,-0.00998280788493811,-0.0321466004915198,0.222332298363219,-0.000361514946112604,0
0.27,0.000580722119879685,0.000332703577818447,-0.0288565966718775,-0.0166405997265553,0.000196463657846027,0.000639790498801373,-0.00986805261336709,-0.0318156293095495,0.222329950841181,-0.000295770031621992,0
0.28,0.000579740335100016,0.000332391284190844,-0.0287519948878341,-0.0166249683807182,0.000196376777570903,0.000638763636393608,-0.00987593257533846,-0.0317101362257762,0.222328009046869,-0.000266459012177941,0
0.29,0.000581928808932193,0.000333965598493424,-0.0289307709395333,-0.0167037091243508,0.000197430839721123,0.000641245057033053,-0.00991336757110931,-0.0319018580817284,0.222326360182664,-0.000258732845944065,0
0.3,0.000572732585939638,0.000329243075038199,-0.0285000712446208,-0.0164675149753944,0.000194852890622908,0.000631233687689125,-0.00977798463613577,-0.031429669531651,0.222325443594167,-0.000195305192166561,0
0.31,0.000579407111606389,0.000333038240239473,-0.028821809182652,-0.0166573309166591,0.000197083726907168,0.000638580515698878,-0.00989222594251483,-0.031785330322816,0.22232418669705,-0.000217845611632906,0
0.32,0.000581406844308867,0.000334155717375625,-0.0289226103050704,-0.0167132207616088,0.000197733599912096,0.000640777173071745,-0.00992455540899332,-0.031895961108251,0.222322883412445,-0.000213271648235257,0
0.33,0.00058190512616871,0.000334484657033929,-0.0289520551522011,-0.0167296832578563,0.000197945366796619,0.000641335476499062,-0.0099341597008377,-0.031928298897413,0.222321648107752,-0.000201002979194127,0
0.34,0.000581930555062801,0.000334581393762595,-0.0289586661923185,-0.0167345172753712,0.000198034845559688,0.000641381384132694,-0.00993745338519066,-0.0319358017950856,0.22232051018975,-0.000187237826870603,0
0.35,0.000581815058192136,0.000334609761292599,-0.0289581333129543,-0.016735931222492,0.000198088646870058,0.00064127477907103,-0.00993898317770022,-0.0319355834806287,0.222319472213974,-0.00017389439418053,0
0.36,0.000581665232301568,0.000334618005906701,-0.0289555256447818,-0.0167363523438254,0.000198130329006204,0.000641130271530917,-0.0099399990364241,-0.0319331234660528,0.222318528672894,-0.000161510894943332,0
0.37,0.000581514867110956,0.000334620334635845,-0.0289524783712841,-0.0167364613376269,0.000198166303790856,0.00064098395070762,-0.00994080459898149,-0.0319301667059604,0.22231767202972,-0.000150185626337314,0
0.38,0.000581373538965347,0.000334620930378941,-0.0289494801831808,-0.0167364983228849,0.000198198544632285,0.000640846078058065,-0.00994152656747003,-0.0319272427324471,0.222316894623369,-0.000139881237562627,0
0.39,0.000581243953742669,0.000334621024111002,-0.0289466945074073,-0.0167364952174349,0.000198227660270322,0.000640719562869169,-0.00994216027150768,-0.0319245179165487,0.222316189235606,-0.000130522788954482,0
0.4,0.000581125792195756,0.000334620977571555,-0.0289441371112474,-0.0167364986543984,0.00019825407823487,0.000640604172207245,-0.00994274793289377,-0.031922017853925,0.222315549230185,-0.000122028970478019,0
0.41,0.000581018500491739,0.00033462089659019,-0.0289418111478823,-0.0167364852882797,0.000198278027782667,0.000640499388014623,-0.00994326627942182,-0.0319197404128072,0.222314968558601,-0.000114321690013958,0
0.42,0.000580921060867652,0.000334620811697357,-0.0289396943200601,-0.0167364857392563,0.000198299766654157,0.000640404223225849,-0.00994375027019917,-0.0319176705416101,0.222314441724276,-0.000107328694140534,0
0.43,0.00058083258522332,0.000334620731307124,-0.028937768423165,-0.0167364861561309,0.000198319502097388,0.000640317812469374,-0.00994419056874301,-0.0319157873802231,0.222313963736334,-0.000100983973845584,0
0.44,0.000580752258651492,0.000334620657374295,-0.0289360165437974,-0.0167364865419824,0.000198337418619683,0.000640239360431468,-0.0099445910522939,-0.0319140743872592,0.222313530066587,-9.52274928185028e-05,0
0.45,0.000580679600503274,0.000334620589999644,-0.0289344362612604,-0.0167364715995632,0.000198353624947137,0.000640168397503877,-0.00994493746537773,-0.0319125257879982,0.222313136606007,-9.00047333546217e-05,0
0.46,0.000580613534808331,0.000334620528781139,-0.0289329934358694,-0.0167364719327012,0.000198368360327784,0.000640103873371549,-0.00994526730533593,-0.0319111149936754,0.222312779626598,-8.52662170209345e-05,0
0.47,0.000580553580917766,0.000334620473209722,-0.0289316818380487,-0.0167364722424284,0.00019838173242033,0.000640045318434131,-0.00994556713147924,-0.0319098325212291,0.22231245574571,-8.09670479141407e-05,0
0.48,0.000580499156754971,0.000334620422780418,-0.0289304885157709,-0.0167364725309636,0.000198393871047277,0.000639992164222231,-0.00994583989987859,-0.0319086657074036,0.22231216189455,-7.70664911801569e-05,0
0.49,0.000580449796658661,0.000334620377021968,-0.0289294048803845,-0.0167364728000929,0.000198404880211552,0.000639943955880235,-0.00994608759498504,-0.0319076061476625,0.222311895289095,-7.35275883094452e-05,0
0.5,0.000580405194605017,0.000334620335503522,-0.028928428918709,-0.0167364592136906,0.000198414828591337,0.000639900394320903,-0.00994629724584386,-0.0319066488026187,0.222311653402575,-7.03168073605279e-05,0
0.51,4.7776250192674,-0.008716491829248,1.11928374831253,0.442091709427983,-0.454107604270831,4.7560028475289,0.335812702742686,1.15562581204218,0.0933679205876458,29.0287250731246,1282.0302704625
0.52,4.7252128949013,-0.0174697696021459,3.74041478165378,0.886927051967208,-1.97450419249904,4.29293318009903,-0.743259050610811,3.77159227886717,0.427394500417306,62.1417016920579,1282.0302704625
0.53,4.72467744924544,0.0426770383441695,3.76780694276888,-2.11417745499239,-3.96881674985022,2.56376518720389,-4.31432398523428,0.229617115232427,1.00628682392903,96.0499425718163,1282.0302704625
0.54,4.7332015941154,0.0304358821031459,3.34223222418012,-1.49655482237435,-4.56800405333266,-1.23994461255022,-2.81849945306053,-2.33800201236385,1.8422811775306,132.643984168515,1282.0302704625
0.55,4.73997147542299,-0.00252962207050356,3.00443147301274,0.158453891414357,-0.905095162194308,-4.65275603639218,-0.730790558414329,-2.91850325877261,2.94892965299663,168.48872313355,1282.0302704625
0.56,4.75157446186233,0.0018748854512407,2.42495023844796,-0.0510005940880679,4.36307931105911,-1.88175511351125,2.24724078448358,-0.912630032433611,-1.97758850249389,201.670649406522,1282.0302704625
0.57,4.72166553983984,-0.00863379795534314,3.92126141805799,0.475163403108478,1.69440294833083,4.40717581465341,1.85706174952762,3.48617168636962,-0.368870993425555,237.842756971855,1282.0302704625
0.58,4.70733009141916,0.0486611392865393,4.6388397193168,-2.37783491107041,-4.69184853445731,0.384554060917014,-4.79674020065461,-2.04064113778987,1.49935390489104,271.443874520778,1282.0302704625
0.59,4.700390757892,0.0143614963825738,4.98673183565448,-0.662261383048077,2.14790449328026,-4.18095513216793,2.88042836410381,-4.12422319709699,-2.66396185833673,307.227223547494,1282.0302704625
0.6,4.74274671285244,0.0381603471131533,2.86990541256087,-1.83569651365181,1.39141319334499,4.53421127868452,-0.939366141105836,3.27471067733067,-0.28970165414129,340.942281278719,1282.0302704625
0.61,4.6998189397784,0.0110686418989208,5.01728565554942,-0.476617418008037,-3.38266498602633,-3.26282058560454,-3.27124146359905,-3.83396645777724,2.34051760449157,375.608751966032,1282.0302704625
0.62,4.69294959658329,0.0730608434264701,5.36180192736427,-3.57609103056558,4.12933011399889,2.23108641978193,2.92835461425945,5.74126172720981,-1.05986211164581,410.675864760943,1282.0302704625
0.63,4.69689638360292,0.0117258977616802,5.16559309050371,-0.50473515437677,-4.11590786250363,-2.26280259907075,-4.27612084140242,-2.94158122485972,2.07595943991287,445.427468697345,1282.0302704625
0.64,4.63822826610728,0.0651028400463738,8.10013582249205,-3.17122911200302,3.42961364946077,3.12332355732335,3.74375217258183,7.85195606800772,-0.818069833311463,479.989741720864,1282.0302704625
0.65,4.6394909206435,0.0262579250793016,8.03819341073303,-1.22184519989035,-1.47206976473338,-4.39983818897022,-1.34633669647917,-8.01828139320145,2.82438585817164,514.453634116605,1282.0302704625
0.66,4.68504908475599,0.0421956438124754,5.76149109281574,-2.00977409373371,-1.94270799130377,4.26349047840548,-4.25737261319615,4.37135561958138,0.436558156581311,548.834337405856,1282.0302704625
0.67,4.67793326611126,0.0726852557569793,6.1185446886504,-3.52350531750754,4.63046921102447,-0.66865362808347,6.51792888159747,2.71445794293327,-1.69867133976293,583.027471005651,1282.0302704625
0.68,4.63430562616742,0.037546602215333,8.30125329276763,-1.75259741082009,-2.00967932762852,-4.1760492554767,-1.95367566716276,-8.25624341348018,2.70116757815483,617.155748471796,1282.0302704625
0.69,4.62548921702782,0.0908071805510833,8.74347511783473,-4.42654149269629,-4.01324486413061,2.30157817625418,-9.79498290706867,0.317705166765629,1.06972278316115,651.84227617918,1282.0302704625
0.7,4.63336844091722,0.0581945822852732,8.35093508356307,-2.78609516925979,1.4659135161724,4.39574649880974,-0.11168772563996,8.8027250845405,-0.309327411477236,686.249050363584,1282.0302704625
0.71,4.55601767850529,0.0593657071133185,9.08153137885286,-2.82442946884654,4.5235127315369,0.546492398535743,8.62575111904681,4.00599945604596,-1.43753805118794,720.092488747367,1282.0302704625
0.72,4.31048937768178,0.0986705594326123,8.76771386256033,-4.81248340437665,3.09277245662288,-3.00413266783627,9.70056839762184,-2.43552369239012,-2.31877022005693,753.314954674043,1282.0302704625
0.73,4.06492251312092,0.0877990730428952,9.47434288442608,-4.25059971480954,0.621672478096943,-4.01806259842742,5.83608177371013,-8.58899997425675,-2.96649448085432,783.996914839235,1282.0302704625
0.74,3.8955144062227,0.0532650217060044,6.69895593805698,-2.53616428932588,-1.01950213529713,-3.76011769067812,0.792160269546263,-7.11903238297405,2.89049516306657,813.459580136827,1282.0302704625
0.75,3.64320144753966,0.0837028264681865,8.84500979650261,-4.07821481061401,-1.72020435994033,-3.21260329181119,-0.356506663778307,-9.73339289972517,2.67295603274184,841.358237372475,1282.0302704625
0.76,3.47297533296863,0.075567098916661,7.50720498859646,-3.6472451313637,-1.69680800398322,-3.03118964228003,-0.30305570346533,-8.34078419752369,2.65302482156921,867.342002138783,1282.0302704625
0.77,3.26095142978303,0.0423195108420582,8.66161336399627,-1.99012935659006,-1.07062420058603,-3.08048031798962,-0.84895227416616,-8.84666270180504,2.82007811046753,892.05321979655,1282.0302704625
0.78,3.11314516748374,0.0397514458427857,7.11345576319224,-1.87187493935429,0.0292083800798737,-3.11326193594549,2.0289649007178,-7.07025247888155,-3.1194427988327,915.546657417721,1282.0302704625
0.79,2.90175235980907,0.0511950123515557,9.26022261678012,-2.45696084615371,1.42965651594919,-2.5256424793211,6.81961717138008,-6.72913078693499,-2.60886461211853,937.740611295134,1282.0302704625
0.8,2.73797555148968,0.0426369654182743,9.49576685541212,-2.03766935125026,2.53746064742096,-1.02937917900321,9.59029774947108,-1.53227727055449,-1.94061241893318,958.705242803219,1282.0302704625
0.81,2.61164126223344,0.0772643091661887,8.28631384153856,-3.77494960973714,2.38780412739144,1.06067492912939,5.83620252560703,6.98941926891113,-1.12319587168112,978.504104531829,1282.0302704625
0.82,2.46226839460448,0.0786051165273157,8.64345971389885,-3.84603362704899,0.481320998120352,2.41604522064071,-2.37655295217251,9.15714838537108,-0.164731018112294,997.180879033272,1282.0302704625
0.83,2.31300036147485,0.0196168026596746,9.38281115755921,-0.896975670438697,-1.83815868903618,1.40411115124486,-8.04278396347655,4.9148078994627,0.92695933131148,1014.8196435241,1282.0302704625
0.84,2.20655247357425,0.0340577806536296,8.35462876015927,-1.61701548011991,-1.87180711720442,-1.16891910200945,-6.13962907248526,-5.89232684389806,2.14446022902052,1031.47360626409,1282.0302704625
0.85,2.08205321553444,0.0911215793869299,8.56573425512586,-4.46839946947513,0.607299285096893,-1.99359883448704,7.06542130817576,-6.58925025220761,-2.80216116894039,1047.23737420211,1282.0302704625
0.86,1.99572103349621,0.052232350865222,7.21385265197321,-2.51942654348824,1.99544442006219,-0.0619049954266637,7.22597957078702,2.4844314108026,-1.57564334490873,1062.12841080106,1282.0302704625
0.87,1.83344766464926,0.015135583678609,9.94241195838468,-0.682932639945577,0.0521679154406127,1.83276783404219,-0.481957782260008,9.95417848127372,-0.0202012524292595,1076.30273597907,1282.0302704625
0.88,1.75108574625553,-0.00451653615908554,8.94238773461878,0.275315550500895,-1.7470903108761,-0.118309490240712,-8.94137562517318,-0.306429401603129,1.63583184301749,1089.69322623338,1282.0302704625
0.89,1.63223201323125,0.0512569250306243,10.0268749898155,-2.50730636026033,0.34681780315513,-1.59578382896782,4.86814658597602,-9.11734369556394,-2.89619420773887,1102.25303279609,1282.0302704625
0.9,1.54004504124236,0.044991653795305,10.1059617325859,-2.17986975861093,1.36227241626245,0.719706080186133,7.7197866956169,6.87656804512058,-1.05554959549204,1114.06023808758,1282.0302704625
0.91,1.4319932567044,0.029904865352495,11.2282061275679,-1.43178485458553,-1.0749297177427,0.946586018348162,-9.50334245714705,6.1489107047639,0.869682259010522,1125.30914741761,1282.0302704625
0.92,1.40207270610764,0.03584371519349,8.61591469506397,-1.75598019780591,-0.40394448114562,-1.34310144861915,-0.575856897167922,-8.77415758473085,2.87500257690084,1135.98809294363,1282.0302704625
0.93,1.31422376118868,0.0273195956991238,9.14707881781221,-1.31084234090949,1.28202315663864,0.290425688644069,8.56098139026255,3.47806787995405,-1.32723478633021,1145.95502066178,1282.0302704625
0.94,1.19988666492115,0.0138393314338277,11.2487005674191,-0.631287070977624,-0.871981305456892,0.824359229149422,-8.69105482729118,7.1691947811771,0.824997563602495,1155.4023359443,1282.0302704625
0.95,1.13308261040054,0.00275179945916615,11.1161297414443,-0.111374184690374,-0.112374678555135,-1.12749975876361,-0.964732531803346,-11.0747476621239,3.0446821651706,1164.3942735401,1282.0302704625
0.96,1.07422142325007,0.0333120517614714,10.7939183261929,-1.61564921613796,0.896103916068928,0.593345709150995,7.87751258843735,7.55405789236098,-0.954934057331551,1172.79707516745,1282.0302704625
0.97,0.99723208165217,0.0368363488768585,11.5903610213015,-1.82969327652726,-0.974047682962449,0.216932829674029,-11.7300352898997,0.300862407061227,1.38858179885273,1180.78690385293,1282.0302704625
