t,iq,id,vq,vd,ia,ib,va,vb,theta_e,omega,r
0,0,0,0,0,0,0,0,0,0,0,0
0.01,0.000506039773373352,0.000283862072553293,-0.0248753799839133,-0.0142008256491719,-3.69807776498483e-05,0.000579039161503276,0.00161055788138126,-0.0285981482227954,0.574988963878392,-0.00216395775637489,0
0.02,0.000623179905494039,0.000346563457639844,-0.0306750575373427,-0.0173375871631094,-4.80533503985249e-05,0.000711442408279349,0.00213159632231573,-0.0351711157155469,0.574971639121413,-0.00250781889607751,0
0.03,0.000667879531761359,0.000370939430654392,-0.0328914572805096,-0.0185570586523625,-5.18910706816498e-05,0.000762211549993497,0.00231282042621786,-0.0376943397546486,0.57495337270521,-0.00251620915131812,0
0.04,0.000657040376715891,0.000365364690247032,-0.0323869309747613,-0.0182781700684163,-5.06623888597272e-05,0.000750084485820961,0.00227187516522444,-0.0371193127933094,0.574936285372629,-0.00228743243119777,0
0.05,0.00067176816333037,0.00037450938264274,-0.0331326287500313,-0.0187356448104488,-5.09842493691907e-05,0.000767417975596067,0.00229283450458287,-0.0379939256235163,0.574920176240508,-0.00218386147059683,0
0.06,0.000673396954737377,0.000376245913546844,-0.0332354875460227,-0.0188225158280146,-5.04009403884694e-05,0.000769729947006241,0.00227528424394093,-0.0381275204560559,0.574905061119252,-0.00203189822534192,0
0.07,0.000682654647031863,0.000382509354229384,-0.0337097951824654,-0.0191358595661174,-5.0167533596348e-05,0.000780905878938068,0.00226968594662821,-0.0386959938272893,0.57489126973269,-0.00192816923434234,0
0.08,0.000673146262775161,0.000377763105531352,-0.0332642801945941,-0.0188984282265551,-4.89706256288039e-05,0.000770345852727449,0.00222620481203298,-0.0381930221170517,0.574878182832012,-0.00174752956582889,0
0.09,0.000670085127870669,0.00037685897104956,-0.0331326636560778,-0.0188531972164873,-4.80558269737727e-05,0.000767285735660354,0.00219214665751872,-0.038057994419865,0.574866241343395,-0.00160793385354071,0
0.1,0.000668438520800016,0.000376685483196787,-0.0330688363377715,-0.0188445085596954,-4.72977197143604e-05,0.000765809986256599,0.00216431697724159,-0.0379997259412851,0.574855256662506,-0.0014847770972743,0
0.11,0.000667162463521751,0.00037665103764343,-0.0330218310782191,-0.0188427847064439,-4.66250783173168e-05,0.000764720771891406,0.0021398221117116,-0.037959360170873,0.57484513372875,-0.00137236708972931,0
0.12,0.00066603564661673,0.000376643141257156,-0.0329809220689646,-0.0188423964531508,-4.6011921823416e-05,0.000763771197067773,0.00211755160117592,-0.037924834868898,0.574835801139121,-0.00126895715158264,0
0.13,0.00069092032365168,0.000391258531227034,-0.0342129100474261,-0.019573567469867,-4.72681263596186e-05,0.000792603214807592,0.00217336924636744,-0.0393563746238097,0.574826853743347,-0.00128650222825399,0
0.14,0.000705255452825662,0.00040004182001021,-0.0349670099604228,-0.0200129701828579,-4.76834499035851e-05,0.000809410279217347,0.00221424073453437,-0.0402281978105134,0.574818403034579,-0.00126187124373406,0
0.15,0.000671526279042287,0.000381086844064794,-0.033288377797285,-0.019064700388789,-4.52481460241455e-05,0.000770796556456385,0.00209716981704957,-0.0383037958438524,0.574810504994514,-0.00102706143607177,0
0.16,0.000663963771466974,0.000377481897143133,-0.032928452497668,-0.0188843544059665,-4.41570498921809e-05,0.000762489755627081,0.00205259423171449,-0.0379036763670921,0.57480373867359,-0.000921772141754053,0
0.17,0.000661840683262598,0.000376795588983201,-0.0328338663536808,-0.018850029861461,-4.35741453988002e-05,0.000760334991797342,0.00202974729013701,-0.037805641529374,0.574797606208244,-0.00084760750166729,0
0.18,0.000660882656474369,0.000376664282529848,-0.0327955552290185,-0.0188434496769909,-4.31592280395467e-05,0.000759459774048221,0.0020142289029357,-0.0377699208423247,0.574791973775059,-0.000783947007997197,0
0.19,0.000660205074930237,0.00037663856416085,-0.03277029488916,-0.0188421633739387,-4.28085018391979e-05,0.000758877316268624,0.00200137959637253,-0.0377480307757097,0.574786784996703,-0.000726222830141569,0
0.2,0.000659622780476756,0.000376632980055996,-0.0327490788453657,-0.0188418808389988,-4.24929932540413e-05,0.000758385759171451,0.00198990202977366,-0.0377300798923473,0.574782001699047,-0.000673199677799712,0
0.21,0.00065909455607479,0.0003766312780078,-0.0327299385364405,-0.0188418045394794,-4.22039089858409e-05,0.000757941675518326,0.00197939407971198,-0.0377139824730871,0.574777591530489,-0.000624351862996684,0
0.22,0.000658609468682328,0.000376630363756641,-0.032712383783745,-0.0188417502837889,-4.19378791245422e-05,0.000757534208756287,0.00196974271294764,-0.0376992270506501,0.574773525246635,-0.000579321053087926,0
0.23,0.000658162444018588,0.000376629645139339,-0.0326962068710797,-0.0188417174854587,-4.16926209015575e-05,0.000757158779699915,0.00196083445536334,-0.0376856390392539,0.574769776004845,-0.000537802891886442,0
0.24,0.000657750343950666,0.0003766290060211,-0.0326812922209637,-0.0188416846158218,-4.1466506350905e-05,0.000756812692807614,0.00195262358647028,-0.0376731097936403,0.574766319080248,-0.000499522118045481,0
0.25,0.00065737049093001,0.000376628421048263,-0.0326675437160456,-0.0188416545892504,-4.12580832901495e-05,0.000756493688308166,0.00194505452693787,-0.0376615602834987,0.574763131680146,-0.000464226036894668,0
0.26,0.000661845220000558,0.000379399537522503,-0.0328909511241561,-0.0189802958710111,-4.13626814632239e-05,0.000761756019268669,0.0019500342930681,-0.0379244467785438,0.574760284165187,-0.000454329219459547,0
0.27,0.000650413506579784,0.000372886783220259,-0.0323357291938531,-0.0186544768607622,-4.06121209931454e-05,0.000748620690517034,0.00192155475387254,-0.037281315920643,0.574757346727973,-0.000371999921520799,0
0.28,0.000649685841527178,0.000372675005059912,-0.0322658427976447,-0.0186438888515422,-4.0392420034677e-05,0.000747894915399901,0.00189235604405195,-0.0372169073346177,0.574754846217849,-0.000342379726851234,0
0.29,0.000654742277280275,0.000375875108254433,-0.0325547770340257,-0.0188039708667042,-4.04536677048489e-05,0.000753878668906786,0.00191498601940355,-0.0375464466579259,0.574752658696984,-0.000342050803996909,0
0.3,0.000645850855390182,0.000371229459450877,-0.0321216591034198,-0.0185715590167659,-3.9518190153988e-05,0.000743890416405114,0.0018745472100084,-0.0370565764828185,0.5747512119825,-0.000286847039382243,0
0.31,0.000653648312729745,0.00037559978143807,-0.0325062183847551,-0.0187901951844182,-4.00875656999647e-05,0.00075281093219149,0.00190002687082571,-0.0374982075123074,0.574749361342302,-0.00030238694975723,0
0.32,0.00065508197234981,0.000376430460120664,-0.0325791831498078,-0.0188317531770646,-4.01683431726317e-05,0.000754465894531448,0.00190474261943789,-0.0375820443561058,0.574747528822002,-0.000289518989125755,0
0.33,0.000655217903436521,0.000376588150196957,-0.0325884331836612,-0.0188396422607533,-4.01085897428606e-05,0.000754665778263037,0.00190308511037777,-0.0375941001347521,0.574745813179936,-0.000272050478844434,0
0.34,0.000655098817773032,0.000376617901154338,-0.0325850011141764,-0.0188411287214976,-4.00176836344166e-05,0.000754582062809645,0.00189991206447108,-0.0375920305817363,0.574744225943948,-0.00025478925489821,0
0.35,0.000654938752197246,0.000376623344422753,-0.0325793749650695,-0.0188413989416057,-3.99249950995162e-05,0.000754450732294806,0.00189657172218902,-0.037587458053105,0.574742761355291,-0.000238635906979721,0
0.36,0.000654780602060299,0.000376624182561489,-0.0325736679200822,-0.0188414534254954,-3.98372994163161e-05,0.000754318501231258,0.00189337277438082,-0.0375827001223986,0.57474141072827,-0.000223692955303826,0
0.37,0.000654632876116696,0.00037662416042668,-0.0325683102639933,-0.0188414486144849,-3.97560722957949e-05,0.000754194547464731,0.00189041749660577,-0.037578203004302,0.574740165357919,-0.000209904951998546,0
0.38,0.000654496209615983,0.000376623988854775,-0.0325633453858122,-0.018841435040069,-3.96810562100402e-05,0.000754079790977471,0.00188768675366024,-0.0375740306036615,0.574739017075136,-0.000197189869787891,0
0.39,0.000654369898992136,0.000376623801902142,-0.0325587502021402,-0.0188414355799799,-3.96117504054233e-05,0.000753973714459609,0.00188514850855735,-0.0375701759982646,0.574737958318146,-0.000185465709291861,0
0.4,0.000654253605170449,0.000376623624044106,-0.0325545192132018,-0.0188414204854998,-3.95479446959911e-05,0.000753876046931436,0.00188282447647833,-0.0375666184145567,0.574736982108213,-0.000174655552308386,0
0.41,0.00065414621203422,0.000376623458998824,-0.0325506072775383,-0.0188414195039725,-3.94890243254299e-05,0.000753785853903337,0.00188066490643331,-0.0375633361480435,0.574736082010054,-0.000164688207335104,0
0.42,0.00065404743871827,0.000376623306611308,-0.032547010157667,-0.0188414043530173,-3.94348322283867e-05,0.000753702899811248,0.001878691008908,-0.0375603102794722,0.57473525208923,-0.000155497977717833,0
0.43,0.000653956169106205,0.000376623166056447,-0.0325436811102711,-0.0188414047697599,-3.93847582044199e-05,0.000753626247647748,0.00187685220745437,-0.0375575177520603,0.574734486874499,-0.000147024277463809,0
0.44,0.000653872180535948,0.000376623036443785,-0.0325406173779647,-0.0188413895707757,-3.93386781283382e-05,0.000753555710257766,0.00187517298599161,-0.0375549393098889,0.574733781320983,-0.000139211241890973,0
0.45,0.000653794531514343,0.000376622916927092,-0.0325377795299203,-0.0188413884839523,-3.92960773740443e-05,0.000753490497150258,0.00187360678217323,-0.0375525580269401,0.574733130777091,-0.000132007361407108,0
0.46,0.000653723115798654,0.00037662280672206,-0.0325351694051397,-0.0188413732438753,-3.92568955924468e-05,0.000753430518907448,0.00187217815809076,-0.0375503600898916,0.574732530953662,-0.00012536514234215,0
0.47,0.000653657166519023,0.000376622705103488,-0.032532755171061,-0.0188413735703645,-3.92207135167285e-05,0.000753375131639202,0.00187084471513926,-0.0375483349443096,0.574731977896561,-0.000119240793920614,0
0.48,0.000653596339513538,0.000376622611402902,-0.0325305256839426,-0.01884137387773,-3.91873418558468e-05,0.000753324046266751,0.0018696133396546,-0.0375464647714567,0.574731467959193,-0.000113593939575778,0
0.49,0.000653540227328574,0.000376622525003625,-0.0325284660979246,-0.0188413741674849,-3.91565570866205e-05,0.000753276920603514,0.00186847583333852,-0.0375447371180466,0.574730997780085,-0.000108387350762254,0
0.5,0.000653488718630537,0.000376622445337214,-0.0325265760180803,-0.0188413574051173,-3.91282968180014e-05,0.000753233661022452,0.00186744616244,-0.0375431423985488,0.574730564259201,-0.000103586701511843,0
0.51,4.71478808301408,0.0202598302039984,4.26124219446734,-1.0075656232094,-0.453379110571136,4.6929824749885,-1.4304548100603,4.13849882944982,0.100606062315913,31.183934042151,4323.03092259816
0.52,4.75332014662978,0.0478612479331471,2.33535912953951,-2.38119779305718,-2.06313093010048,4.2825032259968,-3.16943668754675,1.03859341285059,0.459016612928548,66.6381086963755,4323.03092259816
0.53,4.68869109944088,-0.00892672081304702,5.56759504430523,0.467945049522402,-4.13906727385664,2.20273148949424,-4.68932082915845,3.03765654871735,1.07983297109697,103.01804494405,4323.03092259816
0.54,4.68112446903563,0.00137447950679137,5.94677499465652,-0.043328314359703,-4.30111023288855,-1.8475332062887,-5.44621309533206,-2.38846668390642,1.97680645933964,142.318534444807,4323.03092259816
0.55,4.68243792086589,0.0429471287723788,5.88199476656446,-2.11651570572406,0.0564436279831036,-4.6822946784128,2.24087967968501,-5.83574840338779,-3.12036684194197,180.411912592509,4323.03092259816
0.56,4.71964317437641,0.0412579635146104,4.02270452497514,-2.02000388740438,4.69326175158799,-0.500028043286058,4.20007544134681,1.61923861347848,-1.66819608616944,215.887289147409,4323.03092259816
0.57,4.68874872942681,-0.014616410791975,5.56851306882662,0.774972082765421,-0.274114795809965,4.68075200858623,0.46556859897134,5.60287117524671,0.0553779910870354,254.706290398511,4323.03092259816
0.58,4.70036536430096,0.0153604467496526,4.98874268778279,-0.709457858031872,-4.16833545512423,-2.17224539009724,-4.0865660353539,-2.94802681397598,2.0544727439946,290.456546121445,4323.03092259816
0.59,4.65617533573739,0.0628723793676008,7.1993855268217,-3.08805998774415,4.2865274630624,-1.81923170641576,7.8325496357549,0.135766914791081,-1.95866229223876,328.735422209361,4323.03092259816
0.6,4.65328997620664,0.0707392884604374,7.34483324939441,-3.47162602149481,-2.49896985050077,3.925972661123,-6.93768051247493,4.22697903961626,0.582043091491092,365.305739494057,4323.03092259816
0.61,4.68601375395864,0.0938137297175261,5.70988226358066,-4.61227812981926,1.09199968586339,-4.55796693759919,5.90414561757731,-4.36084046225091,-2.88642715884867,401.848341212426,4323.03092259816
0.62,4.69247198427364,0.0618314603303207,5.38825863805107,-3.00910903764621,-0.867527979564726,4.61199649364046,-4.01542012285087,4.68662667469689,0.199105877698217,439.174897274271,4323.03092259816
0.63,4.6904235600884,0.0237130491281226,5.49203231690311,-1.09860569571062,1.86357333193833,-4.30438496398958,3.21344224389864,-4.58728050043636,-2.72795399723479,476.373740629713,4323.03092259816
0.64,4.62715221736755,0.0390470268739578,8.65698958435161,-1.86183873511746,-3.59672105064095,2.91129867874689,-7.93375715084116,3.93260849953728,0.898769449822018,513.355162713161,4323.03092259816
0.65,4.64253862132588,0.0187656179260192,7.88914250691048,-0.838917666523952,4.62787530166672,0.369170951107675,7.7914714766501,1.49510018864812,-1.48715165571064,550.125987106266,4323.03092259816
0.66,4.61211678801569,0.0846527125619933,9.41167999072712,-4.12513608997014,-2.12868222958026,-4.09237086705366,-0.495218907593354,-10.2640745438734,2.68030081974668,586.797853843085,4323.03092259816
0.67,4.64205115141202,0.0398294992092083,7.91653074649976,-1.86879346473768,-3.41181955920246,3.14796959591043,-7.1195607958414,3.93391689648377,0.834178757493215,623.398384629988,4323.03092259816
0.68,4.59259832716194,0.0289955189320972,10.3907438495829,-1.33690664348774,3.12573530832436,3.36490399819418,6.03839406358984,8.56111407784346,-0.742253130150324,660.542044546368,4323.03092259816
0.69,4.59535494104466,0.102217072822274,10.254571221562,-4.99594901633809,4.03352992648214,-2.204171430795,11.403395754585,-0.279826332300877,-2.04867938325184,697.420899350068,4323.03092259816
0.7,4.60845322683952,0.11827049940659,9.6013552641541,-5.77405056292825,0.135463570173398,-4.60797989103179,6.2935665224041,-9.26912634717134,-3.08654532869751,733.611940907427,4323.03092259816
0.71,4.59288438053933,0.0565725559529522,10.3815135508928,-2.7052517864494,-3.05057793754685,-3.43391345756436,-4.75429890120715,-9.61721647845357,2.42755832519753,770.801297452004,4323.03092259816
0.72,4.60375943376492,0.0809967855861058,9.83952901840446,-3.89531667386007,-4.3428589221198,-1.52994698791141,-7.86278534397095,-7.0828264081729,1.9271018295573,806.912759518576,4323.03092259816
0.73,4.60025264193608,0.0870407346817426,10.0167119981218,-4.21189406368963,-4.57565561641517,-0.482986686257652,-9.41840459344331,-5.41924586739401,1.69488122857984,843.879188083346,4323.03092259816
0.74,4.59016775239158,0.0239750460986905,10.5228023937266,-1.05802986792427,-4.5356608295712,-0.705688059289989,-10.2209973783466,-2.71661738393001,1.73036849936993,880.360663851282,4323.03092259816
0.75,4.61292538041589,0.0822902148822873,9.38678254395164,-3.93771962785495,-4.16334485587645,-1.98806736701692,-6.63718914792936,-7.71783924486887,2.03413335179645,916.599594165467,4323.03092259816
0.76,4.60314824185364,0.0852670192677667,9.87757216396454,-4.08817734559808,-2.42399134783582,-3.91414232580679,-1.52923548161154,-10.5802204469079,2.60563106319154,953.175048205651,4323.03092259816
0.77,4.58358246854969,0.116684879628934,10.8578794768509,-5.66143790258566,1.25462571822,-4.41007459282845,8.64006328430526,-8.67725373040651,-2.83897285417103,989.700304630235,4323.03092259816
0.78,4.56596028884458,0.133794280191517,11.7410097141238,-6.51440065397995,4.48405009301657,-0.871314542536582,12.6408509938081,4.52742875593482,-1.73342466007137,1026.15289466451,4323.03092259816
0.79,4.56685072649618,0.127726860480597,11.6986097128759,-6.20178400059495,1.73348786990076,4.22699178067498,-1.66706650426877,13.1354666180755,-0.361221572428671,1062.45368229903,4323.03092259816
0.8,4.56661658484236,0.0878724225136458,11.7124289536563,-4.19345981944343,-4.34592979827717,1.40520560205341,-12.424751102045,-0.62582529827852,1.27730807457506,1098.70229452265,4323.03092259816
0.81,4.54461438484014,0.130901716564672,12.8146897013829,-6.33227211833356,0.0533251154666827,-4.54618648961478,6.84624430489758,-12.547624525822,-3.10106781502321,1134.9721002223,4323.03092259816
0.82,4.52389845310737,0.102605758277648,13.8526790219366,-4.95273254533479,3.68818974493881,2.62172492092271,8.14554708893231,12.2505648185056,-0.930153060343526,1171.52456905159,4323.03092259816
0.83,4.53815487085218,0.0841326431935538,13.1420769852621,-4.00935591624368,-4.5234958088989,0.374050264488849,-13.3714873625299,-3.16108336862184,1.50683032956725,1207.77133948827,4323.03092259816
0.84,4.51357923788372,0.0901668026896472,14.373151767457,-4.27718003726072,3.91074494692822,-2.25534954032355,14.6542895221633,-3.18332521149003,-2.07393753463818,1243.72714375352,4323.03092259816
0.85,4.50112800509098,0.109843059019214,14.9980468227188,-5.29683944982301,-1.30684572793454,4.30863935125792,-9.73184341162332,12.5813012230576,0.318887696441262,1280.20635347969,4323.03092259816
0.86,4.49593731172419,0.13676407927674,15.2599518404817,-6.5967624644075,1.66674248778087,-4.1778135673771,12.1329210026926,-11.3655458790177,-2.73158089574172,1316.04309002796,4323.03092259816
0.87,4.49491489115769,0.125824876130802,15.313526109358,-6.07574611009098,-3.02533416317649,3.32677696567139,-14.9947028954191,6.82478261737218,0.765963616544044,1352.34665066086,4323.03092259816
0.88,4.46403561144402,0.150848611446587,16.8599337968587,-7.33927891717336,4.36050869177774,-0.967643112281879,17.9205990194891,4.12001376711427,-1.75538916952997,1388.43461601884,4323.03092259816
0.89,4.45115350542698,0.166137439774576,17.5065037832698,-8.04937325123094,-3.51090698041554,-2.74114964068712,-8.20065456483065,-17.4361506405397,2.27099761130266,1424.28224723945,4323.03092259816
0.9,4.5009430583332,0.129464488250864,15.0195475195033,-6.21718793507711,-1.11237212206991,4.36324165387589,-10.105186943651,12.7328484772478,0.278380142904574,1460.34814557466,4323.03092259816
0.91,4.47052060283602,0.141155071952479,16.5432644733687,-6.80955179750238,4.45513231451316,0.396579468580798,15.6060800002704,8.74641996155291,-1.45044986567234,1496.38566802191,4323.03092259816
0.92,4.5046150439963,0.113165720618349,14.8411825093737,-5.40618816004685,0.898340072315199,-4.41558017585386,8.59202570456671,-13.2538546464957,-2.91576721981732,1532.34143434661,4323.03092259816
0.93,4.44857763369988,0.143564840504086,17.6457029916922,-6.92212899707021,-3.76533591212476,-2.37333084405597,-10.73850535388,-15.619577673157,2.16546621364733,1568.2409202428,4323.03092259816
0.94,4.46457364114212,0.171237859480328,16.8486305805914,-8.28923258392119,-4.14489988733799,1.66779648807819,-18.6575662227522,-2.11729825844122,1.22658180864517,1604.03482436505,4323.03092259816
0.95,4.43086945537428,0.14856099848989,18.5365671301446,-7.13687569559903,-2.1912435709235,3.85397536496116,-15.7792519257109,12.0645979762999,0.550502419219219,1639.83754384191,4323.03092259816
0.96,4.38565979820722,0.137271181479083,20.799852770768,-6.60641318011422,-0.46294584778605,4.36331713091007,-9.38506532551026,19.7027693289019,0.136993853146816,1675.76505139214,4323.03092259816
0.97,4.44840035322792,0.141748087104821,17.6656249947372,-6.83146387704314,0.203682020246764,4.44599503569497,-6.58479290094675,17.7590457967108,-0.0139262826685878,1711.64699902879,4323.03092259816
