t,iq,id,vq,vd,ia,ib,va,vb,theta_e,omega,r
0,0,0,0,0,0,0,0,0,0,0,0
0.01,0.00128675694859602,0.000733620634679089,-0.062818627130869,-0.036762288041226,0.00125850677765257,0.000781091141282271,-0.0622721890583857,-0.0376805016754009,-0.497164088709103,-0.00395217370184915,0
0.02,0.00144838667801364,0.000826858381658866,-0.0710295269890336,-0.0414344958449363,0.00141756924275984,0.000878644521036915,-0.0702960686101906,-0.0426670117088281,-0.497192942714035,-0.00422923558585673,0
0.03,0.00148015867028073,0.000845153963867578,-0.0726242652158254,-0.042351296790849,0.00144882962279968,0.000897801557108489,-0.0718637560721989,-0.0436293112620475,-0.497221858224006,-0.0040845235485728,0
0.04,0.00146311221109065,0.000836061128957571,-0.0718732995634011,-0.0418956692813047,0.00143273000535417,0.000887119093106561,-0.0711062242946993,-0.0431847561207745,-0.497247888287945,-0.00380617516402819,0
0.05,0.00147872034354112,0.000845172630953473,-0.072685396829906,-0.0423522341072806,0.00144820625471753,0.000896453721232845,-0.0718959940568683,-0.0436788814505771,-0.497273488868503,-0.00363743402710059,0
0.06,0.00147808293530553,0.000845198780304801,-0.07271548980091,-0.0423535385864691,0.00144794675613205,0.000895846154915461,-0.071912548713213,-0.0437029750171718,-0.497297580265054,-0.0034289262046485,0
0.07,0.00151533837605713,0.000866641148444496,-0.0745565001384834,-0.0434280407184042,0.00148458534503602,0.000918326536387207,-0.0737361667512249,-0.0448067421977385,-0.497320053992095,-0.00335720209199326,0
0.08,0.00147695359158892,0.000845264054761711,-0.0727715670409808,-0.0423568445868048,0.001447504607838,0.000894758986692723,-0.0719441245868263,-0.043747527820277,-0.497341433556196,-0.00304948411431653,0
0.09,0.00147622962807091,0.000845181003793355,-0.0727869821823054,-0.042352649935073,0.00144710402571629,0.000894133537411069,-0.0719486638964311,-0.0437616441104362,-0.497361345076511,-0.00287651197104411,0
0.1,0.00147568553631549,0.000845175394931706,-0.0728079237778028,-0.0423523932889633,0.00144685620416211,0.000893631005933832,-0.0719592478049279,-0.0437788263603121,-0.497380030828848,-0.00271462894644802,0
0.11,0.00147517555424322,0.000845170392275998,-0.0728276023863853,-0.0423521483796821,0.00144662414529559,0.000893159834556261,-0.0719691897187147,-0.0437949754304725,-0.497397566821387,-0.00256270848788345,0
0.12,0.00147469723712217,0.000845165697688256,-0.0728460796969339,-0.0423519035560742,0.00144640648693802,0.000892717913043228,-0.071978511818751,-0.0438101460667843,-0.497414023802442,-0.00242013587873175,0
0.13,0.00153994925991791,0.000882463060075774,-0.0760131828765135,-0.0442208922895057,0.00151033480036523,0.000932241152452384,-0.0751329664520765,-0.0457004227333785,-0.497430509817945,-0.00249053886472135,0
0.14,0.00168222952602925,0.000964748490886622,-0.083309566669529,-0.0483442864278639,0.00165055532937315,0.00101798965298794,-0.0822390200553474,-0.0501437683986775,-0.497445645010164,-0.00282239174317941,0
0.15,0.00147416349100035,0.000845585566010231,-0.0729360946515208,-0.0423729365090191,0.00144656179466627,0.000891982018795831,-0.0720419637236212,-0.0438759058511321,-0.497459985659255,-0.00202455493906385,0
0.16,0.00147299702280739,0.000845150548653931,-0.072911937974947,-0.0423511412866344,0.00144563411575317,0.000891146274446579,-0.0720118362436449,-0.0438641688438462,-0.497472605165162,-0.00191263391671759,0
0.17,0.00147264979626404,0.00084514560709078,-0.0729250604409813,-0.0423508883744406,0.00144547462184692,0.00089082637882916,-0.0720183955813603,-0.0438749687670751,-0.497484444946972,-0.00181005169439606,0
0.18,0.00147232638029929,0.000845142429453848,-0.0729374868727867,-0.0423507491409813,0.00144532738494305,0.000890527622548591,-0.0720246909457027,-0.0438851551016545,-0.497495556199133,-0.00171379092374732,0
0.19,0.00147202339166567,0.000845139452346521,-0.072949170237121,-0.0423505748022537,0.00144518945780292,0.000890247713043272,-0.0720305710667856,-0.0438947543125428,-0.497505983761706,-0.0016234532326958,0
0.2,0.00147173885840214,0.000845136658196517,-0.0729601205189465,-0.0423504326445899,0.00144505992245069,0.000889984864413556,-0.0720361016464869,-0.0439037400559469,-0.497515769702631,-0.00153867413111589,0
0.21,0.00147147161636798,0.000845134035755882,-0.0729703813724187,-0.0423503284675029,0.00144493824952034,0.000889738001460388,-0.0720413103122643,-0.0439121451017103,-0.497524953502316,-0.00145911159238042,0
0.22,0.00147122119278861,0.000845131574485666,-0.0729800247074829,-0.0423501891892628,0.00144482423793278,0.000889506659775468,-0.0720461687572027,-0.0439200648688027,-0.497533572210494,-0.00138444463523765,0
0.23,0.00147098584854562,0.000845129264491248,-0.0729890534410934,-0.0423500849687037,0.00144471708066374,0.000889289265177221,-0.0720507415265215,-0.0439274659474184,-0.497541660598265,-0.00131437202873492,0
0.24,0.00147076517262554,0.000845127096484922,-0.0729975312635921,-0.0423499778125908,0.00144461660306347,0.000889085413430361,-0.0720550270395305,-0.0439344201013121,-0.497549251296893,-0.00124861107697646,0
0.25,0.00147055811729967,0.000845125061747902,-0.0730054846705351,-0.0423498735434154,0.00144452232522838,0.000888894143454177,-0.0720590443827987,-0.0439409456402666,-0.497556374930065,-0.00118689647865246,0
0.26,0.00148076245189215,0.000850956665474558,-0.0735109929859116,-0.042642089961395,0.00145452313499393,0.000895068229363912,-0.0725573933473519,-0.0442452098727998,-0.49756303178827,-0.00116295544957824,0
0.27,0.00142608904634514,0.00081998605777438,-0.0709082831929033,-0.0410901187186232,0.00140121853823854,0.00086179679225825,-0.0699516428574866,-0.0426983623013127,-0.497569523432261,-0.000929970587873125,0
0.28,0.00138901075129667,0.000798356267315722,-0.0687516478552413,-0.0400062489594509,0.00136451939034545,0.000839529886395545,-0.0679701040123803,-0.0413201403574924,-0.49757556238095,-0.000757943366794747,0
0.29,0.00146953780319275,0.0008449487937614,-0.073017690688455,-0.0423410412928863,0.00144390209201044,0.000888046489649773,-0.0720581796765928,-0.0439541314660712,-0.497580739918996,-0.000974801812635321,0
0.3,0.00146795866888184,0.000844150405168463,-0.0729519280952918,-0.0423010171331445,0.00144245026765858,0.000887034263951007,-0.0719917922871058,-0.0439151648819566,-0.497584656286446,-0.000936119087485764,0
0.31,0.00146958564994341,0.000845112072065294,-0.0730422289041783,-0.0423492099518288,0.00144407627112481,0.000887997815337605,-0.0720774592553184,-0.0439711570706568,-0.49758959422248,-0.0008990832359536,0
0.32,0.0014694574698481,0.000845114232766626,-0.0730477054156838,-0.042349312237441,0.00144402110919648,0.000887877445547567,-0.0720803672270005,-0.0439755861120866,-0.49759423547187,-0.000858896512883356,0
0.33,0.00146933091926362,0.000845113000790238,-0.0730525407290084,-0.0423492428215325,0.00144396348921914,0.00088776053990412,-0.0720828057485196,-0.0439795542262737,-0.497598591166445,-0.000821161621735463,0
0.34,0.00146921164820132,0.000845111832773888,-0.0730570483305665,-0.0423492084115938,0.00144390916121915,0.000887650387963805,-0.0720851068551586,-0.0439832369607298,-0.497602678849222,-0.000785748525515987,0
0.35,0.0014691004644373,0.000845110736546645,-0.0730613112522996,-0.0423491389461407,0.00144385853244987,0.000887547671907267,-0.0720872493337546,-0.0439867395345237,-0.497606515011077,-0.000752514441482807,0
0.36,0.00146899562887387,0.000845109707738027,-0.0730652823660747,-0.0423491044839166,0.00144381078284679,0.000887450843201433,-0.0720892729271192,-0.0439899859816212,-0.497610115128973,-0.000721325292595496,0
0.37,0.00146889748362386,0.000845108742203802,-0.0730690163571713,-0.0423490349762985,0.00144376608508499,0.000887360183411548,-0.0720911428184302,-0.0439930567471848,-0.497613493726435,-0.00069205525143182,0
0.38,0.00146880522091415,0.000845107836054214,-0.0730725079634917,-0.0423490004676827,0.00144372406238351,0.000887274964844463,-0.0720929186412201,-0.0439959127928581,-0.497616664433936,-0.0006645862328875,0
0.39,0.0014687186625494,0.000845106985638775,-0.0730757812680318,-0.04234896302632,0.00144368463792694,0.00088719501413731,-0.0720945791185887,-0.0439985924667074,-0.497619640043692,-0.000638807417777359,0
0.4,0.00146863734287922,0.000845106187530154,-0.0730788439826482,-0.0423489284747894,0.00144364759717143,0.000887119906372442,-0.0720961335730324,-0.0440010989024426,-0.497622432559694,-0.000614614805757912,0
0.41,0.00146856114548285,0.000845105438512414,-0.0730817193503329,-0.0423488939029346,0.00144361289179208,0.000887049524478126,-0.0720975910349654,-0.0440034531026567,-0.497625053248158,-0.000591910795756083,0
0.42,0.001468489604699,0.000845104735567353,-0.0730844114042738,-0.0423488593124806,0.00144358030630655,0.000886983445409941,-0.072098953893877,-0.044005657849713,-0.497627512682063,-0.000570603792213213,0
0.43,0.00146842260411235,0.000845104075861744,-0.0730869399137904,-0.0423488247037504,0.00144354979151714,0.000886921553868804,-0.0721002320212128,-0.044007729801005,-0.497629820783475,-0.000550607835560515,0
0.44,0.0014683595616463,0.000845103456736551,-0.0730892998440549,-0.0423487900791757,0.00144352107554918,0.000886863326173492,-0.0721014234236256,-0.0440096638609215,-0.497631986864145,-0.000531842255431056,0
0.45,0.00146830059371617,0.000845102875696421,-0.0730915194725213,-0.0423487554378917,0.00144349421957721,0.000886808853172321,-0.0721025419813434,-0.0440114842486473,-0.497634019662534,-0.00051423134520271,0
0.46,0.00146824523466067,0.000845102330399257,-0.0730935967922276,-0.0423487207819017,0.00144346900657627,0.000886757714938938,-0.0721035870976007,-0.0440131886091763,-0.497635927380188,-0.000497704056576789,0
0.47,0.00146819325164348,0.000845101818646572,-0.0730955399385665,-0.0423486832016574,0.00144344533033081,0.000886709696799002,-0.072104560436541,-0.0440147849259554,-0.497637717712636,-0.000482193712950017,0
0.48,0.0014681441243779,0.000845101338375621,-0.0730973415616627,-0.0423486835216181,0.00144342294710562,0.000886664332111398,-0.072105494679381,-0.0440162467327497,-0.497639397883352,-0.000467637740409009,0
0.49,0.00146809842779338,0.000845100887650082,-0.0730990479381483,-0.0423486488245129,0.00144340213568164,0.000886622117198764,-0.0721063481404133,-0.0440176490124034,-0.497640974670873,-0.000453977415294159,0
0.5,0.00146805512129387,0.000845100464652695,-0.0731006234313092,-0.0423486491170987,0.00144338240339451,0.00088658212935094,-0.0721071656031639,-0.0440189265744534,-0.497642454435781,-0.000441157627287988,0
0.51,-0.00279420854390398,0.00159547369018107,0.902850595882772,-0.0799504135378166,6.83532015294081e-05,-0.00321690309501649,0.36066931237067,0.831534072798471,-0.497572803625942,0.0127883108344971,2.06211802504433
0.52,-0.00281922447925504,0.00160077597984167,0.913847805583986,-0.0802161390491091,6.13690628198198e-05,-0.00324141084100697,0.365607760103012,0.841358072693827,-0.497481341856573,0.01208568778609,2.06211802504433
0.53,-0.00281684571412951,0.00160074910610138,0.923520723655165,-0.0802147319479361,6.27590305430561e-05,-0.00323930220602824,0.370152002466834,0.849889654785744,-0.497395396028552,0.0113414621403963,2.06211802504433
0.54,-0.00281451208547615,0.00160070575764169,0.93318434246941,-0.0802126254143094,6.40955062261514e-05,-0.0032372255046444,0.374695498532478,0.858411536318926,-0.497314738055903,0.0106427011654965,2.06211802504433
0.55,-0.00281232227905303,0.00160066499589173,0.942844200355905,-0.0802105780103406,6.53492616524832e-05,-0.0032352765730819,0.379240078852873,0.866928996839525,-0.497239043010647,0.00998693308130073,2.06211802504433
0.56,-0.00281026714804992,0.00160062672880794,0.95250067708807,-0.0802086620809876,6.65256237470334e-05,-0.00323344734142495,0.383785721121851,0.875442453613619,-0.497168005529555,0.0093715139934058,2.06211802504433
0.57,-0.00280833906525446,0.00160059080470471,0.962154042227948,-0.0802068313817662,0.00160069428765422,-0.00280828008343376,-0.0802422855874298,0.962151086046047,3.68488397589789e-05,0.00879396139645343,2.06211802504433
0.58,-0.00280652927368596,0.00160055708080624,0.971804695173933,-0.0802051444892001,0.00160083607921497,-0.00280637014316695,-0.0803017543980749,0.971796716914204,9.94132934812362e-05,0.00825194549481498,2.06211802504433
0.59,-0.00280483050264472,0.00160052542295446,0.981452923435541,-0.0802035590286796,0.00160096892547286,-0.00280457737952799,-0.0803587533156027,0.981440228728474,0.0001581281043531,0.00774327981739332,2.06211802504433
0.6,-0.00280323677265668,0.00160049570510068,0.991098892863361,-0.0802020681581744,0.00160109340328377,-0.00280289543500673,-0.0804133984900623,0.991081768833988,0.000213230141097475,0.00726591240401207,2.06211802504433
0.61,-0.00280174070268237,0.00160046780882292,1.00074279241909,-0.0802006713108108,0.00160121005058282,-0.00280131657369496,-0.0804658069880018,1.00072150879415,0.0002649416984149,0.00681791753319758,2.06211802504433
0.62,-0.00280033700288873,0.00160044162287308,1.01038510193476,-0.080199356691259,0.0016013193697684,-0.00279983517264445,-0.080516079571682,1.01035991208866,0.000313471393601367,0.00639748795818065,2.06211802504433
0.63,-0.00279901968093459,0.00160041704274801,1.02002589364255,-0.0801981245385213,0.00160142182965933,-0.00279844492682419,-0.0805643239666022,1.01999703557637,0.000359015008020335,0.00600292762001022,2.06211802504433
0.64,-0.00279778274068583,0.00160039397028776,1.02966533275101,-0.0801969696372912,0.00160151786787649,-0.00279713954658778,-0.080610637664397,1.02963303001778,0.000401756276818022,0.00563264480850953,2.06211802504433
0.65,-0.00279662274360488,0.00160037231329421,1.03930361925377,-0.0801958812805409,0.00160160789408395,-0.0027959153178905,-0.08065510806375,1.03926808183046,0.000441867630063143,0.0052851457436295,2.06211802504433
0.66,-0.00279553368675004,0.00160035198517409,1.0489411043612,-0.0801948665479386,0.0016016922899791,-0.00279476597918796,-0.0806978359897567,1.0489025294591,0.000479510888297035,0.00495902855136977,2.06211802504433
0.67,-0.00279451165947147,0.0016003329046032,1.05857777827698,-0.0801939095256242,0.0016017714130061,-0.00279368737709754,-0.0807388948500747,1.05853635112131,0.000514837915297118,0.0046529776100992,2.06211802504433
0.68,-0.00279355251538642,0.00160031499520766,1.0682138988358,-0.0801930120393419,0.00160184559712913,-0.00279267513740254,-0.0807783718183463,1.06816979338132,0.000547991230684357,0.00436575824450242,2.06211802504433
0.69,-0.00279265233822175,0.00160029818526685,1.07784954915582,-0.080192170347699,0.00160191515460971,-0.00279172512998245,-0.0808163444817912,1.07780292876995,0.000579104584843962,0.00409621174580273,2.06211802504433
0.7,-0.00279180790757904,0.00160028240743216,1.0874849403009,-0.0801913809494511,0.00160198037776592,-0.00279083393372137,-0.0808528869656456,1.0874359584036,0.000608303498476922,0.00384325069824881,2.06211802504433
0.71,-0.00279101506935118,0.00160026759846308,1.09712005041669,-0.0801906347489682,0.00160204153937289,-0.00278999720612045,-0.0808880640438893,1.09706885108593,0.00063570576895755,0.00360585459301708,2.06211802504433
0.72,-0.00279027106414455,0.00160025369897803,1.10675529994342,-0.0801899403186331,0.00160209889532062,-0.00278921201096433,-0.0809219549682757,1.10670201846986,0.000661421945538626,0.00338306571189243,2.06211802504433
0.73,-0.00278957289761353,0.00160024065322202,1.11639063193863,-0.0801892889618682,0.00160215268483694,-0.00278847518794666,-0.0809546181032067,1.11633539536839,0.000685555775320127,0.00317398526412006,2.06211802504433
0.74,-0.00278891780619685,0.00160022840884624,1.12602609414227,-0.0801886721681445,0.00160220313186096,-0.00278778381774042,-0.0809861088761345,1.12596902177746,0.000708204621779999,0.00297776976091155,2.06211802504433
0.75,-0.00278830325736615,0.00160021691670012,1.13566202526637,-0.0801880990567133,0.00160225044606964,-0.00278713522162122,-0.0810164975079144,1.13560322912274,0.000729459857554619,0.00279362761293441,2.06211802504433
0.76,-0.00278772601826179,0.00160020613063965,1.14529807710196,-0.0801875556308167,0.00160229482313914,-0.00278652602951632,-0.0810458276963471,1.1452376623673,0.000749407233053094,0.00262081593714408,2.06211802504433
0.77,-0.00278718448426977,0.001600196007342,1.15493482106609,-0.0801870513139881,0.00160233644733432,-0.00278595450802978,-0.0810741644469413,1.15487288649817,0.000768127222391899,0.00245863756002402,2.06211802504433
0.78,-0.00278667611782079,0.00160018650613677,1.16457203687948,-0.0801865723952476,0.0016023754904625,-0.00278541799872479,-0.0811015463826735,1.16450867521391,0.000785695348045182,0.00230643820519855,2.06211802504433
0.79,-0.00278619931131313,0.00160017758884126,1.17420992331342,-0.0801861285686579,0.00160241211403575,-0.00278491478056027,-0.0811280333026874,1.17414522161229,0.000802182485520015,0.00216360385405973,2.06211802504433
0.8,-0.00278575175718077,0.00160016921961203,1.18384864415211,-0.0801857063768585,0.00160244646872262,-0.00278444243950345,-0.0811536594043913,1.18378268416683,0.000817655149285588,0.00202955826876992,2.06211802504433
0.81,-0.00278533137952337,0.00160016136480055,1.19348800225145,-0.0801853157554588,0.00160247869572468,-0.0027839987997315,-0.0811784796626485,1.19342086072794,0.000832175761109593,0.00190376066767232,2.06211802504433
0.82,-0.0027849374980894,0.0016001539928196,1.20312833592016,-0.0801849434587269,0.00160250892839512,-0.0027835830872124,-0.0812025240938044,1.2030600849219,0.000845802901884215,0.00178570354369733,2.06211802504433
0.83,-0.00278456756898352,0.00160014707401848,1.21276961089457,-0.0801845996354717,0.00160253729010645,-0.00278319267003615,-0.0812258436898536,1.21270031806912,0.000858591547957472,0.00167491061701129,2.06211802504433
0.84,-0.00278422021131285,0.00160014058056288,1.22241185109221,-0.0801842712380812,0.00160256389729929,-0.00278282608470597,-0.081248464275259,1.22234157995937,0.000870593292923231,0.00157093491361211,2.06211802504433
0.85,-0.00278389427611236,0.00160013448632566,1.23205509201925,-0.0801839685875092,0.00160258885923637,-0.00278248210473155,-0.0812704331282759,1.23198390220333,0.000881856555764575,0.00147335696215715,2.06211802504433
0.86,-0.00278358838052686,0.00160012876678277,1.2416994506398,-0.0801836788108429,0.00160261227806603,-0.0027821592744992,-0.0812917725713214,1.24162739812676,0.000892426776190179,0.00138178310172524,2.06211802504433
0.87,-0.00278330137379463,0.00160012339891305,1.25134496240182,-0.0801834123890061,0.00160263424966424,-0.00278185637496245,-0.0813125264616196,1.25127209974137,0.000902346597951625,0.00129584389370084,2.06211802504433
0.88,-0.00278303233708386,0.00160011836110824,1.26099176749021,-0.0801831624131802,0.00160265486405633,-0.0027815724232036,-0.0813327196954916,1.2609181440203,0.000911656040881185,0.0012151926313696,2.06211802504433
0.89,-0.00278277965229951,0.00160011363308607,1.27063969173323,-0.0801829220490165,0.00160267420495115,-0.00278130574098287,-0.0813523753702719,1.27056535377676,0.00092039266234405,0.00113950394121755,2.06211802504433
0.9,-0.00278254239917728,0.00160010919580911,1.28028896839194,-0.0801827019824334,0.00160269235136584,-0.00278105535158968,-0.0813715329623677,1.28021395942501,0.000928591708756368,0.00106847247029011,2.06211802504433
0.91,-0.00278231988952298,0.00160010503140886,1.28993946980292,-0.0801824896740108,0.00160270937755401,-0.00278082051385478,-0.0813902069512328,1.28986383064965,0.000936286257780336,0.00100181165431544,2.06211802504433
0.92,-0.00278211096891178,0.00160010112311274,1.29959132441038,-0.080182295929249,0.00160272535266604,-0.00278060002363652,-0.0814084340268192,1.29951509338388,0.00094350735176985,0.000939252561632745,2.06211802504433
0.93,-0.00278191494795647,0.00160009745517871,1.30924459076342,-0.0801821141366663,0.00160274034191154,-0.00278039314488838,-0.0814262320933238,1.30916780383486,0.000950284123005296,0.000880542808232519,2.06211802504433
