t,iq,id,vq,vd,ia,ib,va,vb,theta_e,omega,r
0,0,0,0,0,0,0,0,0,0,0,0
0.01,0.00059001551909443,0.000334119417115344,-0.0290771705768499,-0.0167214725477297,0.000268033828224256,-0.000622825789923006,-0.0130548745653988,0.030897568561319,-2.21993499067297,-0.00191836831116106,0
0.02,0.000669270066271881,0.000378266789252853,-0.0330321709879476,-0.0189308975797549,0.000304470989463671,-0.000705907644125096,-0.014869337787848,0.0350486233267878,-2.21994955545267,-0.00206926701684968,0
0.03,0.000699967550849376,0.000395724935369152,-0.0345546674592164,-0.0198046080091434,0.000318359860417487,-0.000738376459531282,-0.0155534395305737,0.0366652159462023,-2.21996440038842,-0.00205320845966506,0
0.04,0.000683471540814566,0.000386853757170648,-0.0337604693882469,-0.0193606385128373,0.000310572267153026,-0.000721341835342934,-0.0151886888145504,0.0358316528928581,-2.21997816031995,-0.00188586927520033,0
0.05,0.000699747504183356,0.000396412927874568,-0.0345736762796368,-0.019839037532387,0.000317748675504173,-0.000738800080002884,-0.0155467750763746,0.0367045540284199,-2.21999145885307,-0.00183341654695328,0
0.06,0.000700468217522036,0.000397181486470762,-0.0346229756498214,-0.0198775094229672,0.000317848775487631,-0.000739852020930291,-0.0155623218558834,0.0367652004232558,-2.2200041242353,-0.00173333154536106,0
0.07,0.00071612451382556,0.000406542433524133,-0.0354040594975732,-0.0203459918117967,0.000324651876215822,-0.000756777529282659,-0.0159008377506185,0.0376107720014081,-2.22001590149234,-0.00169109228960309,0
0.08,0.000700641177875738,0.000397994406533183,-0.0346569006725245,-0.0199181907762906,0.000317477942325591,-0.000740611479727064,-0.0155638984649078,0.0368184756963128,-2.22002728310021,-0.00154644059563671,0
0.09,0.000698755249236879,0.000397303784803482,-0.0345760041531628,-0.0198836348134348,0.000316385422744705,-0.000738924529319415,-0.0155199633704328,0.0367422064331198,-2.2200378620061,-0.001454405301266,0
0.1,0.000698066434994957,0.000397246592215081,-0.0345531423348379,-0.0198807748861674,0.000315863987433605,-0.000738465668894368,-0.0155031168260156,0.0367262606858491,-2.22004780571271,-0.00137157224664935,0
0.11,0.000697511325128531,0.000397240545683481,-0.0345361923922197,-0.0198804685657315,0.000315418571695108,-0.000738128189711846,-0.0154894572523486,0.0367159138436335,-2.22005716197078,-0.00129394780689504,0
0.12,0.000696996960742604,0.000397238705949025,-0.0345206325700825,-0.0198803689281008,0.000315003480868836,-0.000737818514154396,-0.0154768004373046,0.0367065633093032,-2.22006596630892,-0.0012209293577736,0
0.13,0.000728394196133943,0.000415325020984417,-0.0360705945094477,-0.0207855308301195,0.000329070443805772,-0.000771210490742178,-0.016163787965198,0.0383648020817385,-2.22007460902699,-0.00125745334784485,0
0.14,0.000752745554331924,0.000429728766085742,-0.0373273470612927,-0.021506390190491,0.000339751590050297,-0.000797409266955398,-0.0167286516851752,0.039698965609395,-2.22008280264752,-0.00127371573755015,0
0.15,0.000700416247955827,0.0003998535808946,-0.0347154605344834,-0.0200112448292131,0.000316127788812126,-0.000741976433382833,-0.0155519480878919,0.0369289863170856,-2.22009059772873,-0.00103312845342342,0
0.16,0.000695574439574702,0.00039744448212633,-0.0344854485517294,-0.0198906702294761,0.000313722768600502,-0.000737132241747682,-0.0154413911493252,0.0366939826588132,-2.22009747306133,-0.000961048502825413,0
0.17,0.000694818999105672,0.000397249311298219,-0.0344554403983326,-0.0198809066684379,0.000313234325289377,-0.000736522039253155,-0.015423157007694,0.0366681612699384,-2.22010390350484,-0.000906430444714599,0
0.18,0.000694433592241748,0.000397232649242669,-0.0344431655495017,-0.0198800750918365,0.000312932969307172,-0.000736277629959463,-0.0154136611452344,0.0366601703327648,-2.22010995130628,-0.000856164702473294,0
0.19,0.000694098826665934,0.00039723043033163,-0.0344329814603962,-0.0198799622597401,0.000312663481645307,-0.000736075229311456,-0.0154054091605266,0.036654010425838,-2.22011564211577,-0.000808960475920456,0
0.2,0.000693786180052064,0.000397229427071606,-0.0344235121320693,-0.0198799076254968,0.000312411125850287,-0.000735887063215428,-0.015397703660283,0.0366483237910701,-2.22012099725372,-0.000764548669595754,0
0.21,0.000693492218101367,0.000397228570262529,-0.0344146110309899,-0.0198798588103336,0.00031217379803292,-0.000735710210219804,-0.0153904588634016,0.0366429804288226,-2.22012603654016,-0.000722757006614216,0
0.22,0.000693215470634646,0.000397227770882156,-0.0344062263808648,-0.0198798250653179,0.000311950366999122,-0.00073554371672684,-0.0153836272441141,0.0366379567008466,-2.22013077860632,-0.000683430300682446,0
0.23,0.000692955079521455,0.000397227019080695,-0.0343983356365585,-0.0198797927598624,0.000311740142029004,-0.0007353870618729,-0.0153771984361738,0.0366332283998414,-2.22013524098252,-0.000646423111696494,0
0.24,0.000692710055230119,0.00039722631154525,-0.0343909084033638,-0.0198797604391787,0.000311542324589093,-0.00073523965017563,-0.015371148498194,0.0366287762527519,-2.22013944016537,-0.000611598628473298,0
0.25,0.000692479524644175,0.000397225645636365,-0.0343839190103396,-0.0198797266481549,0.000311356209211672,-0.000735100956731786,-0.0153654572880977,0.0366245838262034,-2.22014339167803,-0.000578828113376836,0
0.26,0.000699052573017828,0.000401084484964406,-0.0347104171394742,-0.0200728459583054,0.000314255478396543,-0.000742150091436879,-0.015508598148881,0.0369758784387699,-2.22014704798283,-0.000571522869422504,0
0.27,0.000679773681716666,0.000390107479582442,-0.033768540960541,-0.0195234844879009,0.00030553509073505,-0.000721750935094872,-0.015090465263697,0.0359688568525356,-2.22015073591623,-0.000476280308956039,0
0.28,0.000678985260551463,0.000389722923562379,-0.0336831065962657,-0.0195042342686136,0.000305137288497074,-0.00072096891497817,-0.0150339407729657,0.0359019142834378,-2.22015403065287,-0.000446934191325829,0
0.29,0.000690583015046037,0.000396618746778723,-0.0343057363609642,-0.0198493540985322,0.000310202664163869,-0.000733475042596568,-0.0153210540295392,0.0365533269186382,-2.22015700745426,-0.000462172455676859,0
0.3,0.00068457385067438,0.000393421521248625,-0.0340134364207642,-0.0196893311114818,0.000307348149132086,-0.000727295652148293,-0.0151849241565271,0.0362491613024006,-2.22015932070785,-0.000423064364217619,0
0.31,0.000690794486652251,0.000396916091426565,-0.0343216070616132,-0.0198642275115,0.000310187606035583,-0.000733841301293681,-0.0153245169758287,0.0365748468947985,-2.22016203779179,-0.000422167354357992,0
0.32,0.00069118800176257,0.000397197363325531,-0.0343437591947031,-0.0198783096574606,0.000310329029138474,-0.000734304087478247,-0.0153335495701675,0.0365994979206117,-2.22016465118729,-0.000402346251591402,0
0.33,0.000691091175498298,0.00039721965479735,-0.0343416885327284,-0.0198794134824169,0.000310236621737554,-0.00073426405709514,-0.0153311427099393,0.0365991627621631,-2.22016711528545,-0.000382069654923081,0
0.34,0.000690959815894535,0.000397221093834648,-0.0343377633559231,-0.0198794891497725,0.000310129425611691,-0.000734186491252711,-0.0153278858166031,0.036596885079696,-2.22016943446431,-0.00036284991131372,0
0.35,0.000690832821765003,0.000397220873154848,-0.0343339015093112,-0.0198794804157675,0.000310026810783061,-0.000734110200374154,-0.0153247354149075,0.0365945763592782,-2.2201716168922,-0.000344751853805699,0
0.36,0.000690712987168883,0.000397220538526265,-0.0343302488232275,-0.0198794643904957,0.000309930061961527,-0.000734038107705166,-0.015321760730506,0.0365923863233163,-2.22017367060187,-0.000327720211009597,0
0.37,0.000690600253907231,0.000397220213376763,-0.0343268109572388,-0.0198794483492772,0.000309839052533541,-0.000733970278783093,-0.0153189615923841,0.0365903243070713,-2.22017560318307,-0.000311693017109374,0
0.38,0.000690494214524621,0.000397219906557532,-0.0343235757656401,-0.0198794308374505,0.000309753447333331,-0.000733906476550429,-0.015316328943746,0.0365883819189587,-2.22017742177936,-0.00029661110890865,0
0.39,0.000690394403363352,0.000397219617747799,-0.0343205277810687,-0.0198794147664656,0.000309672870700654,-0.000733846421311137,-0.0153138484576545,0.036586552229532,-2.22017913311398,-0.000282418739741411,0
0.4,0.000690300412968012,0.000397219345949118,-0.0343176538752736,-0.0198793986819787,0.000309596994038347,-0.000733789867893032,-0.0153115103248651,0.0365848262402828,-2.22018074351271,-0.000269063444665456,0
0.41,0.000690211879115937,0.000397219090164871,-0.0343149428294885,-0.01987939904007,0.000309525523459281,-0.000733736597146018,-0.0153092954403424,0.0365832103663103,-2.22018225892935,-0.000256495852618253,0
0.42,0.000690128715345356,0.000397218849453031,-0.0343123967424883,-0.0198793829279534,0.000309458386529999,-0.000733686557810125,-0.015307225172087,0.0365816797501311,-2.22018368496577,-0.000244669504424579,0
0.43,0.000690050499223936,0.000397218622925989,-0.0343100006397619,-0.0198793653488576,0.000309395243444471,-0.000733639495401085,-0.015305278327521,0.0365802373678868,-2.22018502689382,-0.000233540681093198,0
0.44,0.000689976691910048,0.000397218409748754,-0.0343077333040109,-0.0198793656642244,0.000309335661882782,-0.000733595084982174,-0.0153034261180204,0.0365788858868251,-2.22018628967392,-0.000223068242204207,0
0.45,0.000689907439770081,0.00039721820913475,-0.0343056074579813,-0.0198793495169788,0.00030927975544904,-0.000733553415906236,-0.015301699280985,0.0365776057088707,-2.22018747797465,-0.000213213473824298,0
0.46,0.000689842262166217,0.000397218020344736,-0.0343036041772738,-0.0198793333598871,0.000309227138544363,-0.000733514198325336,-0.0153000726338102,0.0365763985622523,-2.22018859618866,-0.000203939945389099,0
0.47,0.000689780794876421,0.00039721784268216,-0.0343017100043532,-0.0198793336388488,0.000309177518456461,-0.00073347721273842,-0.0152985253616451,0.0365752694714135,-2.2201896484497,-0.000195213375031063,0
0.48,0.000689723126060648,0.000397217675491202,-0.03429993387182,-0.0198793174618863,0.00030913096292952,-0.000733442513155444,-0.0152970843260347,0.0365741977011645,-2.22019063864761,-0.00018700150284534,0
0.49,0.000689668643690149,0.000397217518155389,-0.0342982494173251,-0.0198793177195435,0.000309086982187917,-0.00073340973013787,-0.0152957085073563,0.0365731935623017,-2.22019157044341,-0.000179273971636827,0
0.5,0.000689617610545644,0.00039721737009424,-0.0342966738020501,-0.0198793000695997,0.00030904578333736,-0.000733379023207417,-0.0152944322142333,0.0365722401335445,-2.22019244728091,-0.00017200221469361,0
0.51,3.32089784095062,0.0130839212379337,2.7407692801634,-0.651774642579347,-0.25918801590355,3.31079374643565,-0.874253399393876,2.67811639505177,0.0820662742375514,25.2470231807554,797.135199818789
0.52,3.27766241506817,0.00560619640073257,2.39441558960181,-0.273979492035983,-1.18081248851003,3.05757815984601,-1.12184452845503,2.13301561920207,0.370257049735382,53.3205333095717,797.135199818789
0.53,3.21122309218252,0.0127352328530518,3.11291088230072,-0.627021809329687,-2.43276883777995,2.09612779091563,-2.7737089549945,1.54593309800413,0.8635593479226,81.2932873812544,797.135199818789
0.54,3.16187623061844,0.0114938747095552,2.7259838010642,-0.560894486217933,-3.16171593728459,0.0338487640295612,-2.72988131712055,-0.541607148005174,1.56372604281654,109.937923096344,797.135199818789
0.55,3.05507526278198,-0.0100665039022756,4.74143526525399,0.516455477454738,-1.86952470738075,-2.41629128299055,-3.32122605701298,-3.42306764657159,2.47978988914078,140.079713077606,797.135199818789
0.56,2.96571677439143,0.0191667691063488,6.1853662447463,-0.943431024407812,1.32263171298362,-2.65452231159482,3.6358560061055,-5.0920888427372,-2.67287851632606,167.759186706297,797.135199818789
0.57,2.93014139123264,-0.0139935560404686,5.34124657879693,0.722490660362229,2.8553847859873,0.657800970034012,5.36941242003961,0.469380478231617,-1.34915026004309,193.30520356318,797.135199818789
0.58,2.84549356187804,-0.0324699503773869,6.60504665190193,1.64685235810622,-0.498321006275588,2.80170735143258,0.54222364573103,6.78562874619671,0.164612044898846,220.257540880568,797.135199818789
0.59,2.77654357423733,-0.00295834175509602,6.98021213737534,0.170501371628646,-2.64579329830029,-0.842009972680725,-6.70528745807088,-1.94719087537062,1.87784082716376,246.405281044778,797.135199818789
0.6,2.75108637495487,0.0462444082308,5.54932106033797,-2.28344083157822,1.58599383757566,-2.24838571755982,5.11802277830522,-3.13287553260228,-2.51044897153627,270.8067820607,797.135199818789
0.61,2.70459302638769,0.0264075210475161,4.72216461198147,-1.29707921171023,1.14935490148129,2.44836764110166,0.785356883965441,4.83368055097863,-0.429136189813641,296.500535926086,797.135199818789
0.62,2.66008355338471,0.0317213247126177,4.24469459127459,-1.55212179143369,-2.58003852943745,-0.648422655408964,-3.70780331226511,-2.58431979952075,1.82894401437942,319.783873222636,797.135199818789
0.63,2.54981495275921,0.0428195066469104,6.69656920028388,-2.11453304951323,2.27928756939285,-1.14378231297532,6.95135266777604,-0.996988043999168,-2.01910384595519,343.942434098187,797.135199818789
0.64,2.52546591757324,-0.00714623946199511,5.09925583958434,0.384332306534618,-1.39913472004308,2.10248690952701,-2.4924442457421,4.46518119691108,0.584341632395081,366.94824753407,797.135199818789
0.65,2.48076235849487,0.0328974406230791,4.46992879019211,-1.60840925397761,0.49896109439054,-2.43028844938398,2.52806602493615,-4.02195548101078,-2.92583689738357,389.081303303532,797.135199818789
0.66,2.39220500224112,-0.0213811706157512,5.92667548485775,1.10019827053369,-0.0433308702791288,2.39190810084443,1.04576945578918,5.93652126945045,0.0091760145205031,411.522109987092,797.135199818789
0.67,2.32235178490946,-0.00169958548061566,6.61171154518909,0.111578773906555,-0.0894583948438575,-2.32062877191827,-0.371014885009458,-6.6022365403456,3.10233068861216,432.977331749462,797.135199818789
0.68,2.289339556158,0.00780255944852876,5.48705904397207,-0.346678052995822,-0.149426236987283,2.28447111669714,-0.722659452710322,5.45029961927535,0.0687247107702764,453.410551710592,797.135199818789
0.69,2.23193115392035,0.0388130553311594,5.49115976000061,-1.90187676135094,0.682802382747569,-2.12527740194512,3.57060488983386,-4.58483930426261,-2.81334376734245,473.87537982809,797.135199818789
0.7,2.14895251108085,-0.00853869837051364,6.77589007324732,0.462244845153718,-1.44742622487108,1.58840395611633,-4.20102493035206,5.33645445180255,0.735020148228198,493.996162183497,797.135199818789
0.71,2.06489540183234,0.0126506946092131,8.1769750175169,-0.603371059177526,1.97776787010106,-0.593622196837649,8.01596978689449,-1.72371849434392,-1.8562620122027,513.459258856564,797.135199818789
0.72,2.03115778330006,-0.00495734826772176,7.11233564918431,0.275643976625905,-1.86519889285194,-0.804151482039389,-6.64655597923737,-2.54648612864317,1.97541075916212,532.315309682318,797.135199818789
0.73,1.97214500158071,-0.0252191417757628,7.33747643794748,1.28846598678774,0.633536270726072,1.86778577627259,3.66036468693327,6.48848483354899,-0.339800201814474,550.617918521923,797.135199818789
0.74,1.93071359492997,0.0425942713498588,6.71408731956231,-2.10577758266403,1.08567771371533,-1.59711400956259,5.6110655865093,-4.24608181106404,-2.52251223057179,568.37345586156,797.135199818789
0.75,1.84759514816898,-0.00395188450777872,8.18957255144584,0.222866864889825,-1.83006362436421,-0.253949955124319,-8.14439411752205,-0.88747544942558,1.70654250376299,585.650206898276,797.135199818789
0.76,1.80280881781895,-0.0226132910106043,7.7694772039837,1.15650775512653,0.376102991189581,1.76328600475202,2.84387154598229,7.32220464346924,-0.222690204624555,602.427130581433,797.135199818789
0.77,1.76634584024113,0.0237290504261063,6.95000070603124,-1.16299436571247,1.5723723652384,-0.805099894550897,6.74430137090878,-2.0419267192707,-2.03058741321457,618.757097273667,797.135199818789
0.78,1.69420241118782,0.0289544456079618,7.94701958798254,-1.42448815220139,-0.951525827604846,-1.40205519484648,-3.15749349882897,-7.43064745714619,2.56241807335789,634.585365158853,797.135199818789
0.79,1.66191156697277,0.0130307211676461,6.98936121349616,-0.624752975902352,-1.37898690478899,0.927639462589056,-6.17435614096025,3.33448837128123,0.98647157574567,649.874947408403,797.135199818789
0.8,1.60636648033242,0.0487282528174137,7.23995106129449,-2.40671738651594,0.783357215451447,1.40326019852284,1.19964519420293,7.53458899718645,-0.478823005683201,664.645341921333,797.135199818789
0.81,1.58679988658014,0.0704908577767458,5.74110343123904,-3.48851223794614,1.51223333664617,-0.485853040143646,6.45710345043158,1.85359145253459,-1.83726747540454,678.933668033865,797.135199818789
0.82,1.52346442202956,0.0389468298953797,6.45686117144517,-1.90399921169266,0.0368354392326687,-1.52351693497818,2.2226271258317,-6.35422677002951,-3.09186038400349,692.811790823513,797.135199818789
0.83,1.42279891529786,0.0206715554645574,9.05515329770832,-0.993191114854678,-1.28010504317221,-0.621381642006875,-7.64119275282142,-4.9592744580083,2.03723543195414,706.395307061645,797.135199818789
0.84,1.37937579797245,-0.0149403763251714,8.7844541595286,0.766135874652496,-1.15434739303393,0.755236984709193,-6.87205635952522,5.52525478605266,0.980605216710841,719.581009949362,797.135199818789
0.85,1.36062236008818,0.00223018615273984,7.35167751165848,-0.0842170534406589,-0.0222386033682719,1.36044243723225,-0.216410580010275,7.34897416027399,0.01798423179133,732.082858765106,797.135199818789
0.86,1.29985405389832,0.00302859984239889,8.086789236102,-0.111975462755494,0.982219638541638,0.851395510627132,6.02477419355201,5.39544201804673,-0.854295165353348,744.130930921333,797.135199818789
0.87,1.22837384187955,-0.0156648360589521,9.36671921369588,0.820624128721605,1.22659912114817,-0.0678400950855547,9.28930790844199,-1.45520148811657,-1.63879931490082,755.954257795212,797.135199818789
0.88,1.2238620998733,0.0195462836839156,7.29697897041787,-0.960712190680523,0.867024005847233,-0.863996452537135,5.91753553254877,-4.37625904501384,-2.33847586517373,767.396291684679,797.135199818789
0.89,1.16877625127585,-0.0153016168527075,7.82413131079183,0.798929709999714,0.230293670922325,-1.14596548384227,0.655708603366245,-7.83743361550864,-2.95636506281672,778.267188002252,797.135199818789
0.9,1.10017050795333,0.0652252003158124,9.07682373072048,-3.22451520080945,-0.442413306661271,-1.00940573577505,-0.120551276808941,-9.63180640941674,2.78773573344804,788.805488858789,797.135199818789
0.91,1.05290481315035,0.00402507790942894,9.25636841792875,-0.187441007518801,-0.770440637589459,-0.717667033350494,-6.62064898514299,-6.47166882923204,2.32456859340769,799.016000884622,797.135199818789
0.92,1.03029612445852,0.00753603557076904,8.29946841822465,-0.343269807572645,-0.965850161425039,-0.358748326242221,-7.63690269444132,-3.26752619293775,1.93375013881387,808.604589841904,797.135199818789
0.93,0.982231138447959,0.00939186628963123,8.64712921851748,-0.461704964563916,-0.981769897650473,-0.031529106497894,-8.62039334311248,-0.821482687622624,1.61246132804271,817.964447262419,797.135199818789
0.94,0.919264761314138,0.0172965952696479,9.74710469341865,-0.846000969909498,-0.894893402524986,0.210980263814214,-9.70601640713799,1.23085866366523,1.35807752021632,826.871542141779,797.135199818789
0.95,0.921155365622383,0.0827004492006906,7.67987208391137,-4.10199219188523,-0.814862484987557,0.437453657514491,-8.67345710055379,-0.760208584785552,1.16764911865742,835.409924219352,797.135199818789
0.96,0.885057390133072,-0.0252781167620127,7.50598043114145,1.27596456094109,-0.775687469137514,0.426936198089641,-5.82283318226679,4.9053482572544,1.03909499839761,843.684927240587,797.135199818789
0.97,0.860108932098136,0.0562240136541312,6.85042796807833,-2.7796492895632,-0.677323001333891,0.533087297401116,-7.22101087908003,1.58487078432499,0.969277159490502,851.505196755627,797.135199818789
