t,iq,id,vq,vd,ia,ib,va,vb,theta_e,omega,r
0,0,0,0,0,0,0,0,0,0,0,0
0.01,0.000637648946674698,0.000358302103530153,-0.0312755359490666,-0.0179310482741446,-0.000206052997698236,0.000701796793045576,0.00985719056263146,-0.0346773331633652,0.797524195242871,-0.00128103168269358,0
0.02,0.000727259064199086,0.000407539637997491,-0.0357625853254119,-0.0203951177426014,-0.000235781399835369,0.000799625809044787,0.0113467657274925,-0.039574919386113,0.797514525275253,-0.00136189996536151,0
0.03,0.000761140297029842,0.000426901450438954,-0.0374621571126434,-0.0213640523292331,-0.00024649548077425,0.000837149555400605,0.0118858273463648,-0.0414555551856563,0.797504851978766,-0.00132400945315875,0
0.04,0.000742489785132742,0.000417378551410608,-0.0365969714667701,-0.0208874858200346,-0.000239793426700247,0.000817309640659791,0.0115992117157293,-0.0405102909394072,0.797496102188,-0.00118471833375517,0
0.05,0.000759618622287239,0.000427762955808724,-0.0374730154862719,-0.0214071780479228,-0.000244790562657198,0.000836707343174274,0.011862769122199,-0.0414942028524858,0.797487847893144,-0.00112728685021615,0
0.06,0.000759915391495694,0.000428675620626341,-0.0375258588520064,-0.0214528516235636,-0.000244358999294923,0.000837569620637602,0.0118683616420183,-0.0415638895833584,0.797480170837808,-0.00104056530654921,0
0.07,0.000775783057333858,0.000438524812005723,-0.0383338904236601,-0.0219457533496966,-0.000248828148810551,0.000855703170001395,0.0121019946610081,-0.042481113101281,0.797473223712385,-0.000995320757386579,0
0.08,0.000759094414931128,0.000429619611676055,-0.0375534293354801,-0.0215000944383609,-0.000243100794617605,0.000837674963916557,0.0118545286522362,-0.0416171150627557,0.79746664991329,-0.000884968241555988,0
0.09,0.000756451011206634,0.000428832795691748,-0.0374543055017985,-0.0214607210357103,-0.000241753849664369,0.000835266888598367,0.0118108532254439,-0.0415197699184576,0.797460708106631,-0.000811728016602225,0
0.1,0.000755243088962669,0.000428761642892712,-0.0374226372980358,-0.0214571550120095,-0.000240934641125197,0.00083437351860411,0.0117904571209131,-0.0414951612170582,0.797455266870395,-0.000747241203754781,0
0.11,0.00075425190417079,0.000428753712618953,-0.0373992738186119,-0.0214567614741595,-0.000240226748001908,0.000833676670283046,0.0117738065940024,-0.0414786182677956,0.797450277146521,-0.000688354006328117,0
0.12,0.000753354142876289,0.000428751490862928,-0.0373783963780102,-0.0214566458940524,-0.000239582070009453,0.00083304906052167,0.0117587581536325,-0.0414640057821092,0.797445700806056,-0.000634369307402234,0
0.13,0.000786830440837369,0.000448078657250815,-0.0390320286451886,-0.0224238567245226,-0.000250032248162412,0.000870264615269903,0.0122662302773372,-0.0433112942007518,0.797441266551574,-0.000655229385892047,0
0.14,0.000811620886240342,0.000462955715853671,-0.0403358471113089,-0.0231683758972939,-0.000257375657808405,0.000898228383313973,0.0126789445036307,-0.0447548720272894,0.797437151976122,-0.000661223246257411,0
0.15,0.000756686718720459,0.000431761704762101,-0.037602681484924,-0.0216072882243117,-0.000239853662688156,0.000837533987657867,0.0118135050371499,-0.0417286191720066,0.797433322358952,-0.000500620084519615,0
0.16,0.000750854209958588,0.000429011403066644,-0.0373344487285691,-0.021469657158617,-0.00023759866719563,0.000831492454518143,0.0117175756991365,-0.0414427998584762,0.79743011771353,-0.000451730912131702,0
0.17,0.00074978431471967,0.000428768039034133,-0.0372968479434019,-0.0214574782588578,-0.000237000674238773,0.000830571628643303,0.011699057021722,-0.0414078531747916,0.797427208075443,-0.00041634418339698,0
0.18,0.0007492140268069,0.000428745700908757,-0.037282376157965,-0.0214563567390184,-0.000236605989586901,0.000830157900464457,0.0116893746551644,-0.0413969725543695,0.797424542286291,-0.000384796584964249,0
0.19,0.000748730585716436,0.000428742916049523,-0.0372710315127454,-0.0214562085081244,-0.000236259975489321,0.00082981877662036,0.0116812592510911,-0.0413889702200595,0.797422097580887,-0.000355949335980042,0
0.2,0.0007482908286537,0.000428741921866777,-0.0372608028708854,-0.0214561653694572,-0.000235944138527321,0.000829511400348337,0.0116738774171598,-0.0413818202716314,0.797419855400031,-0.000329499922585826,0
0.21,0.000747887917045826,0.000428741147330756,-0.0372514412774442,-0.0214561279895486,-0.000235654668450719,0.000829229874712084,0.0116671196974073,-0.0413752779267661,0.7974177989448,-0.000305242155725987,0
0.22,0.000747518416637834,0.000428740448889739,-0.03724285617483,-0.0214560934630756,-0.000235389195074607,0.00082897170191089,0.0116609226786533,-0.0413692780337992,0.797415912828871,-0.000282993770842544,0
0.23,0.000747179591664765,0.000428739809217942,-0.0372349849352819,-0.021456057427744,-0.00023514576096205,0.000828734962041629,0.0116552440050117,-0.0413637738928275,0.797414182942512,-0.00026258825815626,0
0.24,0.000746868618146018,0.000428739222497622,-0.0372277542316842,-0.0214560391486653,-0.000234922338530995,0.000828517681488052,0.0116500172089773,-0.0413587282216737,0.797412596345186,-0.00024387296328336,0
0.25,0.000746583693467537,0.000428738684277243,-0.0372211362573153,-0.0214560044635331,-0.000234717631013056,0.000828318600804684,0.0116452457627294,-0.041354097293381,0.797411141167858,-0.000226707882482388,0
0.26,0.000753580879713004,0.000432842809473435,-0.0375685995202949,-0.0216613986221363,-0.000236856403162244,0.000836143578736885,0.0117503387001258,-0.0417438067336427,0.797409848703307,-0.000226908022344299,0
0.27,0.000733429509895397,0.000421380953363197,-0.0365932744592314,-0.0210877868266691,-0.000230442829449696,0.000813865379653108,0.0114530943746813,-0.0406520493719606,0.797408495866972,-0.000168585310773942,0
0.28,0.000732702618261212,0.000421040700278964,-0.0364919269462618,-0.0210707618628171,-0.000230159479425667,0.000813114390555684,0.0113924228415276,-0.0405690823106796,0.797407373762026,-0.000154269015908911,0
0.29,0.000744397463609114,0.000428058608338492,-0.0371381332216115,-0.0214219684476256,-0.0002336244527715,0.000826305858062005,0.0116094345795182,-0.0412718148389566,0.797406425830144,-0.000168396902754523,0
0.3,0.000737451202386164,0.000424428158703957,-0.0368023115032668,-0.0212402951986283,-0.000231189739492828,0.000818855812799096,0.0114960268482096,-0.0409072321089267,0.797405884268887,-0.000147437123630906,0
0.31,0.000744608340064588,0.000428356690782955,-0.0371553735914447,-0.0214368937898408,-0.000233565961810298,0.000826666786629229,0.0116112869542938,-0.0412945543303447,0.797405031084031,-0.000152976103291826,0
0.32,0.000745150421392619,0.00042870265079676,-0.0371859040977253,-0.0214542057751704,-0.000233711488152431,0.000827293208969675,0.0116210053066684,-0.0413282789947871,0.797404206968735,-0.000144753696784551,0
0.33,0.000745069195426013,0.000428732887196228,-0.0371857362937724,-0.0214557147171844,-0.000233631616578599,0.000827258280267566,0.011619799735097,-0.0413292503180426,0.797403447120116,-0.000135934582916373,0
0.34,0.000744939131486161,0.000428735318646864,-0.0371828755546562,-0.0214558313152017,-0.000233536274713174,0.000827169324544665,0.011617642479765,-0.0413273434320644,0.797402749827087,-0.000127723231246218,0
0.35,0.000744814334276252,0.000428735318848281,-0.0371799826365258,-0.0214558434335934,-0.000233446447679944,0.000827082294718566,0.0116155375730639,-0.0413253386336757,0.797402110254859,-0.000120180247763879,0
0.36,0.000744699520574141,0.000428735122492102,-0.0371773115911772,-0.0214558261251568,-0.000233363945507701,0.000827002085933737,0.0116136141741943,-0.0413234671545527,0.797401523655821,-0.000113260927696529,0
0.37,0.000744594048292783,0.000428734925064966,-0.0371748526697146,-0.0214558265438963,-0.000233288168544108,0.000826928390576133,0.0116118321853697,-0.0413217559766712,0.797400985645237,-0.000106914635800072,0
0.38,0.000744497511796001,0.000428734742452033,-0.0371726066650895,-0.0214558091843697,-0.000233218812093559,0.000826860937607719,0.0116102168101946,-0.0413201802955144,0.797400492198857,-0.000101094005679465,0
0.39,0.000744408745113294,0.000428734574820674,-0.0371705346387846,-0.0214558095515843,-0.000233155038667614,0.000826798913516289,0.0116087152308633,-0.0413187383584696,0.797400039625244,-9.575550548048e-05,0
0.4,0.000744327517229243,0.000428734421053678,-0.0371686428084535,-0.0214557906937303,-0.00023309668093167,0.000826742156926524,0.0116073575695501,-0.0413174081080623,0.797399624539017,-9.08592006157938e-05,0
0.41,0.00074425289500811,0.000428734280014945,-0.0371669008187707,-0.0214557910169653,-0.000233043069401862,0.000826690015901756,0.0116060951477802,-0.0413161958565488,0.797399243835001,-8.636846351488e-05,0
0.42,0.000744184589226475,0.000428734150652357,-0.0371653091517101,-0.0214557735775642,-0.00023299399549701,0.000826642288320719,0.0116049540002945,-0.0413150755391411,0.797398894665345,-8.22497004418788e-05,0
0.43,0.000744121841368145,0.000428734031999834,-0.0371638435801528,-0.0214557738635976,-0.000232948914973972,0.000826598444232992,0.0116038918925471,-0.0413140556552123,0.797398574417831,-7.84721002685609e-05,0
0.44,0.000744064215783965,0.000428733923171422,-0.0371624949092671,-0.0214557741328117,-0.000232907514739204,0.000826558179238566,0.0116029145403248,-0.041313117114174,0.797398280696914,-7.5007403996285e-05,0
0.45,0.00074401156786292,0.000428733823353616,-0.0371612674314111,-0.0214557566477383,-0.000232869690063379,0.000826521392252515,0.0116020373149397,-0.0413122502483049,0.797398011305232,-7.18296933570727e-05,0
0.46,0.000743963139089146,0.000428733731800698,-0.0371601338007951,-0.0214557568879272,-0.000232834897047557,0.000826487553338816,0.0116012157810129,-0.0413114613652096,0.797397764227718,-6.89151969304749e-05,0
0.47,0.000743918668434382,0.000428733647828731,-0.0371590906633087,-0.0214557556598317,-0.000232802947861254,0.000826456480096094,0.0116004608701381,-0.0413107344095792,0.797397537616104,-6.62421123151122e-05,0
0.48,0.000743877923071831,0.000428733570809983,-0.0371581352801204,-0.021455755874604,-0.000232773674941,0.000826428009827596,0.0115997685187945,-0.0413100695709498,0.797397329774876,-6.37904430333119e-05,0
0.49,0.000743840553753606,0.000428733500169005,-0.0371572583509873,-0.0214557560782195,-0.000232746827500062,0.000826401898512034,0.0115991330237354,-0.0413094593301312,0.797397139149602,-6.15418489431427e-05,0
0.5,0.000743806415868517,0.000428733435377689,-0.0371564601127817,-0.0214557385380948,-0.000232722301250891,0.000826378045084944,0.0115985668829507,-0.0413088911808287,0.797396964313986,-5.94795090440209e-05,0
0.51,4.70494664276668,-0.000289246133180682,4.75361154048599,0.0219741847320603,-0.328071516399611,4.69349465484643,-0.309252553239716,4.74359235189439,0.0697242143170674,21.5313612969764,2571.28698402603
0.52,4.64964469483492,-0.00141203375410848,7.51980540691882,0.0872767662237548,-1.45078599954751,4.41751262200378,-2.26123829823051,7.17230032489323,0.317015611701866,45.9894651165834,2571.28698402603
0.53,4.68035369856238,0.00516793612662347,5.98549864348882,-0.231547452086671,-3.17373880883843,3.43993014819824,-4.23361496686569,4.23748894347881,0.746275387974153,71.4249747481581,2571.28698402603
0.54,4.68690105663361,0.0329836129512548,5.65936833747892,-1.62149785527181,-4.58639862502393,0.965959153264354,-5.86895108780464,-0.46164748766421,1.37025355277795,98.8293998819415,2571.28698402603
0.55,4.67402735092938,0.0110448445031608,6.30437461657417,-0.510482586454274,-3.81948318001556,-2.69410502828013,-4.84791558730151,-4.06244338244569,2.1874725924417,123.748694238217,2571.28698402603
0.56,4.59138613991703,0.0150636926150325,10.4379141631886,-0.705779531976426,0.189008480952289,-4.58751887132745,1.1689796325134,-10.3962331372771,-3.09713450539798,149.393615436682,2571.28698402603
0.57,4.60044657162231,0.0219014165631353,9.98637570089582,-1.03649832210387,4.33660735890546,-1.53571642730224,9.77064965497133,-2.31007223501243,-1.90638370727816,174.806687269977,2571.28698402603
0.58,4.61465943767706,0.0661005399677201,9.27733440039085,-3.24959296164826,2.39504047565215,3.94502625176486,1.89880347350135,9.64486046358829,-0.531303470458996,200.851847897762,2571.28698402603
0.59,4.56811314778344,0.0457826539776418,11.6062284557325,-2.20950420938573,-3.89574076451432,2.38599196940362,-11.0927414458281,4.06663682100513,1.03128606158684,225.853066078228,2571.28698402603
0.6,4.56156124019871,0.0181448104970858,11.9355591870476,-0.816921713348348,-1.62489723140613,-4.26237951965799,-3.44271028988761,-11.4574290333023,2.78135920929035,251.08782175324,2571.28698402603
0.61,4.57230345868635,0.0180640901382962,11.4002603614965,-0.805741084035573,4.57233651917402,0.00489745804484893,11.3960703174718,0.862981067955259,-1.56577447793411,276.53487455035,2571.28698402603
0.62,4.53726770734944,0.0356281827704562,13.1538601071913,-1.67666490045453,-2.36495396087806,3.8723455913039,-8.36789754486358,10.2865704482418,0.556123365172505,301.939811623722,2571.28698402603
0.63,4.52886267300125,0.021171715118192,13.5760255413664,-0.942002731891258,-1.26227575227356,-4.34944884757222,-2.81695813299182,-13.3139244974461,2.86381163278267,327.266799960527,2571.28698402603
0.64,4.55875879705926,0.0691202571427298,12.0832447931028,-3.3395938227578,3.68578510631542,2.68366308052558,7.65286864397325,9.92931483784954,-0.926290641126441,352.736626193207,2571.28698402603
0.65,4.54799302464702,0.0241923333965413,12.6236423984229,-1.10319369325321,-4.47765384622431,-0.797146068563213,-12.217151153332,-3.36371839260264,1.7522974246233,378.202961901059,2571.28698402603
0.66,4.58577820969037,0.0342765491474917,10.7365511717507,-1.57883917018493,4.56099872485362,-0.47731258329957,10.838879844718,0.533805114903841,-1.66759327700426,403.090337124773,2571.28698402603
0.67,4.48426882586317,0.0331831913506941,15.8143123594245,-1.54311370241816,-4.3963406203653,0.884283425448267,-15.81953565773,1.48861239879458,1.37970387071184,428.374707051009,2571.28698402603
0.68,4.50090284898402,0.0944724016148197,14.98490715772,-4.57993288737665,4.46856729990403,-0.546770314563417,15.3696199394262,3.04926395970505,-1.67156373414258,453.364329550489,2571.28698402603
0.69,4.49547499378629,0.0780371054863194,15.2586373393547,-3.77442819105322,-4.44166679603687,-0.6978404420597,-14.3799029039218,-6.34749667956966,1.7439919887865,478.685929885789,2571.28698402603
0.7,4.44018949680104,0.0917321093179493,18.0253267533042,-4.41430897341552,3.63900392706675,2.54584916406589,11.9484761902227,14.1997339766575,-0.939681932420105,503.462000634265,2571.28698402603
0.71,4.53570691905822,0.0854256217568672,13.2519136277798,-4.09379280605455,-1.41373650321599,-4.3106013376233,0.0213489729555527,-13.8698197017263,2.8435110316192,528.488029115193,2571.28698402603
0.72,4.50865384153195,0.0623790857013886,14.6070514666348,-2.94320050012545,-2.21311592687579,3.92860897867203,-9.88877854651763,11.1463195984499,0.526856711561218,553.583513136353,2571.28698402603
0.73,4.48831964819275,0.113022018203775,15.6262880770007,-5.47441589478068,4.48142577169919,-0.273148848985848,15.8117263524443,4.91318819198499,-1.60649629737007,578.603783804803,2571.28698402603
0.74,4.47680010120147,0.127753446506206,16.2049378331957,-6.19979816925519,-1.92348232157611,-4.0445365430165,-0.866867366433418,-17.3287636167803,2.72620393383763,603.483761699981,2571.28698402603
0.75,4.44544610952853,0.115637500570051,17.7753045405956,-5.57520589780442,-3.57081100078443,2.65040976849568,-17.7491938743311,5.6577812899791,0.958284866687933,628.33542418177,2571.28698402603
0.76,4.37327132009449,0.110982460958228,21.3868121498497,-5.33154809977179,2.65665057901598,3.47563330154598,8.23588565333051,20.4448361837018,-0.627259156694548,653.244294870892,2571.28698402603
0.77,4.41346861905808,0.0627165130294847,19.379768454819,-2.95783800352204,3.92751782281357,-2.01425975581571,18.6803688502563,-5.9471043908656,-2.03046821132563,678.251152018848,2571.28698402603
0.78,4.40026467751378,0.108916804047042,20.0428306568143,-5.22391741575851,-0.592007249633568,-4.36161891030848,2.98881018430421,-20.4956431366913,3.03143327675101,702.871242301271,2571.28698402603
0.79,4.36121264245369,0.0849425572359177,21.9983475487359,-4.06495569764476,-4.01523620886442,-1.70448500660809,-18.4171804057783,-12.6987647273191,1.99172138929286,727.806808175096,2571.28698402603
0.8,4.45676095368295,0.104260418659092,17.2239375327966,-4.96790586550837,-3.99331405160325,1.98167386782991,-17.7071553832832,2.7929842560418,1.13354436817065,752.364522063477,2571.28698402603
0.81,4.41013368293868,0.0773631495670613,19.5583675445649,-3.65808765401324,-1.87470541807615,3.99258609847517,-11.9054866199467,15.9427329725804,0.456529829620205,777.220068608999,2571.28698402603
0.82,4.32495324497341,0.111026553679138,23.8204779493798,-5.35442169270988,3.28653786996636,2.81357713526836,14.1063652242843,19.9272542403452,-0.837110925977398,801.880632122036,2571.28698402603
0.83,4.31885515572732,0.119090755316986,24.1284801472095,-5.68418021898605,3.99455449121145,1.64627667203812,19.7363779816947,14.9989614020395,-1.15230916072762,826.435024019419,2571.28698402603
0.84,4.39790529639851,0.142792311388153,20.1791906190853,-6.85935905662556,4.26183562462029,1.09485969375029,17.4498898918152,12.2373152068833,-1.2868786038731,851.024836731405,2571.28698402603
0.85,4.34746755814685,0.171656420642313,22.7043521133367,-8.29964562375414,4.16893955792792,1.24494299396832,18.795049733848,15.2025599116879,-1.24113919340167,875.606126747394,2571.28698402603
0.86,4.33066037873175,0.153236295102634,23.547998855139,-7.36915197819419,3.76035621338645,2.15356026767298,16.1214735529829,18.6791525889111,-1.01532213016147,900.196739455163,2571.28698402603
0.87,4.33525970614482,0.138078254599961,23.3213698683994,-6.67814792232188,2.59470506279956,3.47578019460359,7.873120416928,22.9455426414729,-0.609424546076255,924.840783375213,2571.28698402603
0.88,4.27499537679406,0.105731095961995,26.3380187306997,-5.04827881177306,0.207193969200615,4.27128027591152,-4.42156495884197,26.450446365512,-0.0237432329006756,949.372538448416,2571.28698402603
0.89,4.34290034379019,0.176137265709541,22.9461517419928,-8.51138928271308,-2.80328066775789,3.32166001123526,-21.7744960191948,11.1732247090316,0.74150049774856,973.771815205045,2571.28698402603
0.9,4.24979998741411,0.101677797387338,27.6046674980768,-4.84598644810982,-4.23322414964485,-0.388524910874593,-26.8627234112614,-7.99345627777551,1.68624057242078,998.312635315285,2571.28698402603
0.91,4.31248931068473,0.155955762525527,24.4737552797749,-7.5012253425188,-1.55056148564337,-4.02711377215425,-0.86956683477513,-25.5827467769475,2.8102052718944,1022.68421650479,2571.28698402603
0.92,4.20300187146809,0.113448567261074,29.9517574288817,-5.42924389928089,3.40633595338787,-2.4647455612365,27.7934245675016,-12.4141054130793,-2.17018528476435,1047.15631053736,2571.28698402603
0.93,4.27672646736346,0.186843859024776,26.2692178783958,-9.00376937523728,2.86247964632807,3.18300332683771,9.74519168894642,26.0032865201839,-0.688768294607042,1071.37435403466,2571.28698402603
0.94,4.3034909462228,0.142077724575746,24.9346975646801,-6.78346998670322,-0.603219520914244,4.26337268059341,-10.9874903593235,23.3886652741523,0.173558372366562,1095.75627401646,2571.28698402603
0.95,4.29501371652813,0.149525522533734,25.3623267339652,-7.17892321155742,-3.94796676260998,-1.69795734586609,-19.8720557093847,-17.3172156457369,2.01176496975992,1120.12152856111,2571.28698402603
0.96,4.2770423571925,0.209186492833823,26.2647271703978,-10.1728892488768,3.18170884003416,-2.8659342580128,26.7815974966943,-8.72178906706659,-2.25515717325425,1144.41546781707,2571.28698402603
0.97,4.28796797011911,0.170878769657593,25.722282788635,-8.24714343835498,0.431940503749949,4.26957799646608,-6.66386705686753,26.1771671996743,-0.0609943070849615,1168.68139158496,2571.28698402603
