t,iq,id,vq,vd,ia,ib,va,vb,theta_e,omega,r
0,0,0,0,0,0,0,0,0,0,0,0
0.01,0.000769841758502447,0.000439474267041768,-0.0382260362289072,-0.0220022626840355,2.41007825315676e-05,0.000886122517943995,-0.0013557780359884,-0.0440850459329256,0.491528424227008,-0.000899565981881988,0
0.02,0.000852402267427816,0.000486622355625458,-0.0423609262789643,-0.0243627322158369,2.67073140879725e-05,0.000981161384220128,-0.00148556549739706,-0.048844486806449,0.491521704124343,-0.000963985574806626,0
0.03,0.000884039153230816,0.000504710327330363,-0.0439336754929798,-0.0252682927257127,2.77293719963054e-05,0.00101758971146905,-0.00154198382455141,-0.0506584321261484,0.491514809560792,-0.000966218268603771,0
0.04,0.000865397147152387,0.000494330517967272,-0.0430162937371318,-0.024748646171203,2.73830924768967e-05,0.000996255514182824,-0.00151714348922223,-0.0496043878081336,0.49150834523686,-0.00091018403996625,0
0.05,0.000883886043967511,0.000504964579626715,-0.0439375475118074,-0.0252810377769239,2.80389014139325e-05,0.00101757436357527,-0.0015520456418301,-0.0506678409521884,0.491501922016323,-0.000899045093433326,0
0.06,0.000884238314123935,0.000505319582522884,-0.0439605187460304,-0.0252988031062789,2.81919659206827e-05,0.00101805230204708,-0.00155718238868335,-0.0506964676288075,0.491495695258207,-0.000867102402607898,0
0.07,0.000908170756711527,0.000519179617272175,-0.0451508714091777,-0.0259927140182977,2.91227656502679e-05,0.00104569281476816,-0.00160748151925945,-0.0520733941107198,0.491489762646186,-0.000865064492381627,0
0.08,0.000884532424387734,0.000505792868479769,-0.0439854972561813,-0.0253224929864334,2.84824032059e-05,0.00101853462793655,-0.00156687619897364,-0.0507296512790951,0.49148393420709,-0.00080632257689028,0
0.09,0.000883446185534262,0.000505341054155108,-0.043936632011548,-0.0252998755398938,2.86023492943479e-05,0.00101736357776582,-0.00157027838396899,-0.0506758873691339,0.491478383648236,-0.000776163792207722,0
0.1,0.000883157051780943,0.000505323912648427,-0.0439270497571425,-0.0252990140353658,2.8729117585144e-05,0.00101710042405237,-0.00157431149959521,-0.0506670243336862,0.49147304491519,-0.000748065217037942,0
0.11,0.000882904988200245,0.000505321449444275,-0.0439191230400428,-0.0252989040591069,2.88511246058938e-05,0.00101687688441931,-0.00157821558987435,-0.0506599758265851,0.491467908061696,-0.000721060914156734,0
0.12,0.000882663701499353,0.000505319550527491,-0.0439115570259856,-0.0252987992626884,2.8968343632385e-05,0.00101666311684699,-0.00158194411712161,-0.0506532480438372,0.491462965388877,-0.00069507852163839,0
0.13,0.000924778061141163,0.000529488283359733,-0.0460013896205738,-0.0265088169219791,3.04073668413866e-05,0.00106519843063394,-0.00166278478784618,-0.0530667538895696,0.491458019704234,-0.000720050032958152,0
0.14,0.000970960423358656,0.000556345834181682,-0.0483359447489884,-0.0278534256452159,3.22975166321147e-05,0.0011185891566431,-0.00174681373043994,-0.0557595329673947,0.491453274121117,-0.000750956800649734,0
0.15,0.000885063951396721,0.000507028643312299,-0.0440430891381769,-0.0253843669056802,2.93570168044691e-05,0.00101958541023567,-0.00159603868400842,-0.0508095704031705,0.491448665838799,-0.000623637970587604,0
0.16,0.0008818674501814,0.000505370101934339,-0.0438885420862328,-0.0253013303169214,2.940749440779e-05,0.0010159844186262,-0.00159597459741107,-0.0506341219667668,0.491444442905516,-0.000597840636831778,0
0.17,0.000881564793521207,0.000505312886072931,-0.0438771462407374,-0.0252984799509892,2.95039931330382e-05,0.00101569046091644,-0.00159904458658882,-0.050622723222598,0.491440386973427,-0.000576394048441943,0
0.18,0.000881370704686632,0.000505309528850583,-0.0438709897872281,-0.0252983032442962,2.95965859392542e-05,0.00101551764195791,-0.00160199152643695,-0.0506172057219743,0.491436484617053,-0.00055587598564619,0
0.19,0.000881187201269486,0.00050530803531625,-0.0438652259172558,-0.0252982377765228,2.96856755986046e-05,0.00101535503884138,-0.00160484377549849,-0.0506120870526559,0.491432729782474,-0.000536137638516415,0
0.2,0.000881010924048639,0.000505306656472476,-0.0438596934091238,-0.0252981542245033,2.97713111186023e-05,0.0010151988644609,-0.00160756368250829,-0.0506071640394497,0.491429116884713,-0.000517145564007047,0
0.21,0.000880841099430097,0.000505305331595812,-0.0438543585266044,-0.0252980916912468,2.98538095902612e-05,0.00101504840802659,-0.00161020191835163,-0.0506024253843709,0.491425640558227,-0.000498871413743255,0
0.22,0.000880677677652468,0.000505304056760094,-0.0438492235411988,-0.0252980291667195,2.99331963943079e-05,0.00101490362372354,-0.00161273915247313,-0.0505978631694293,0.491422295640343,-0.000481288044648131,0
0.23,0.000880520542297527,0.00050530283001749,-0.0438442871510159,-0.0252979637395834,3.00095299032814e-05,0.00101476440790294,-0.00161517368727023,-0.0505934748669229,0.491419077163629,-0.000464369344345666,0
0.24,0.000880369285917371,0.000505301649555771,-0.0438395333877257,-0.0252979012301385,3.00830057397444e-05,0.00101463040039026,-0.00161751843448583,-0.0505892491387,0.491415980348603,-0.000448090187695625,0
0.25,0.000880223667235877,0.000505300513631733,-0.0438349543626233,-0.0252978597130669,3.01537409810231e-05,0.0010145013875513,-0.0016197932881132,-0.0505851875526726,0.491413000596452,-0.000432426399318113,0
0.26,0.000889040622981321,0.000510398176090859,-0.0442740734247315,-0.025553065635543,3.04906216003669e-05,0.00102468036453438,-0.0016377372560738,-0.0510927642398897,0.491410154984143,-0.000428244884778643,0
0.27,0.000858832371976623,0.000493149440312938,-0.0427806955661817,-0.0246895005454333,2.95401219262004e-05,0.000989907467813301,-0.00158117897144533,-0.0493686056453849,0.491407318737748,-0.00037715024493621,0
0.28,0.000854825580448408,0.000490821994925677,-0.0425440472321123,-0.024572986790291,2.93813815811425e-05,0.000985276478004099,-0.00159024969719532,-0.0491049767394771,0.491404655152085,-0.000358483543175155,0
0.29,0.000878822258018061,0.00050481002934449,-0.043775119564337,-0.0252733015277918,3.03935598975286e-05,0.00101303403616636,-0.00162692294065223,-0.0505208272372085,0.49140216509746,-0.000374417277030584,0
0.3,0.000874477517737924,0.000502452374740034,-0.043561897959894,-0.0251552661411056,3.0367193014763e-05,0.00100809084486438,-0.00162357500506718,-0.0502771356851302,0.491399991738486,-0.00035789179500669,0
0.31,0.000879294852108844,0.000505199125224761,-0.0438025293023868,-0.025292763785544,3.05182133763288e-05,0.00101363417055923,-0.00163137796018514,-0.0505541697503658,0.491397628968623,-0.000351407049602121,0
0.32,0.000879355410448978,0.000505290571143484,-0.04380754107239,-0.0252973460824658,3.05725809082463e-05,0.0010137306429565,-0.00163316876879489,-0.0505607469624196,0.491395343356577,-0.000339599360297407,0
0.33,0.000879254029768396,0.000505292833948457,-0.0438044571550336,-0.0252974587854234,3.06246427555616e-05,0.00101364225847176,-0.00163483451240141,-0.0505580775323235,0.491393143718572,-0.000328043662036372,0
0.34,0.000879150844470509,0.000505292130878174,-0.0438012097098069,-0.0252974230831407,3.06748565222045e-05,0.00101355088576645,-0.00163644235694724,-0.0505551940269473,0.491391027214427,-0.000316917996900655,0
0.35,0.00087905120139371,0.000505291357571024,-0.0437980662352833,-0.0252974025162794,3.07232554932184e-05,0.00101346260526948,-0.00163801043073492,-0.0505524094564218,0.491388990715598,-0.000306212656181794,0
0.36,0.000878955583083408,0.000505290610207101,-0.0437950535766105,-0.0252973609864554,3.07696998839863e-05,0.00101337788774277,-0.00163949439381828,-0.0505497304521978,0.491387031198516,-0.000295911979719734,0
0.37,0.000878863573647287,0.000505289890951646,-0.0437921535661122,-0.0252973194540588,3.08143908305318e-05,0.00101329636745611,-0.00164092144726163,-0.0505471508823452,0.491385145753186,-0.0002860006787806,0
0.38,0.000878775056666206,0.000505289198849188,-0.043789362951972,-0.0252972750085162,3.08573852955276e-05,0.00101321794124713,-0.00164229070188382,-0.0505446665024762,0.491383331579619,-0.000276464034862399,0
0.39,0.000878689616257246,0.000505288532880284,-0.043786663405876,-0.0252972544203083,3.08988813752837e-05,0.0010131422418932,-0.00164363454605759,-0.0505422737805126,0.491381585983733,-0.000267287885567952,0
0.4,0.000878607793159739,0.000505287892058353,-0.0437840843388113,-0.0252972128774298,3.09386257121072e-05,0.00101306974562507,-0.00164489972444592,-0.0505399774995069,0.49137990637304,-0.000258458603843307,0
0.41,0.000878528755592879,0.000505287275435249,-0.0437815864442873,-0.0252971922776972,3.09770124958693e-05,0.00101299971856718,-0.0016461418510825,-0.0505377627692352,0.491378290253357,-0.000249963077749811,0
0.42,0.000878452986090913,0.000505286682097978,-0.0437791960510122,-0.0252971507276307,3.10138156991031e-05,0.00101293258567064,-0.00164731168832296,-0.0505356330326527,0.491376735224473,-0.000241788690993514,0
0.43,0.000878379769289544,0.000505286111168429,-0.0437768795011454,-0.0252971301171751,3.10493744486649e-05,0.00101286771573746,-0.001648462168435,-0.050533578376188,0.491375238977498,-0.000233923304188532,0
0.44,0.000878309462871018,0.000505285561800704,-0.0437746566975328,-0.0252971095002138,3.10835215032506e-05,0.00101280542367425,-0.00164956554562091,-0.0505316064613363,0.491373799290037,-0.000226355236829507,0
0.45,0.000878241958855309,0.000505285033181108,-0.0437725242136274,-0.0252970679387096,3.11163092811035e-05,0.00101274561383773,-0.00165060508458806,-0.0505297043844808,0.491372414024271,-0.000219073249946524,0
0.46,0.000878176774710343,0.000505284524527078,-0.0437704598041309,-0.02529704731184,3.1147966871301e-05,0.0010126878603632,-0.00165162831031699,-0.0505278722893323,0.491371081122941,-0.000212066529413626,0
0.47,0.000878114151702256,0.000505284035085079,-0.0437684773442097,-0.0252970266789566,3.11783817936365e-05,0.00101263237556399,-0.00165261031350822,-0.0505261125258824,0.491369798606583,-0.000205324669888954,0
0.48,0.000878053857000404,0.000505283564129605,-0.043766566935847,-0.0252970060406637,3.12076652111103e-05,0.00101257895376354,-0.00165355586166945,-0.0505244163646023,0.491368564570768,-0.000198837659362977,0
0.49,0.000877995890604788,0.000505283110963554,-0.0437647302420781,-0.0252969853969333,3.12358183802477e-05,0.00101252759458398,-0.00165446426318238,-0.050522785268989,0.491367377182705,-0.000192595864290945,0
0.5,0.000877940019684762,0.000505282674915233,-0.0437629572499199,-0.0252969647482395,3.12629523653355e-05,0.00101247809237681,-0.00165534033244288,-0.050521210408261,0.491366234679115,-0.000186590015284748,0
0.51,4.61745951560815,-0.00531996578448185,9.12822986582322,0.271436599982079,-0.258756808749585,4.61020667587061,-0.230006322021605,9.12936774387728,0.0549159760127286,16.9331675859876,4529.2455684146
0.52,4.65281971602965,-0.0337543890313172,7.36166697915779,1.70127073214829,-1.17915775740508,4.50105072753069,-0.165079255003283,7.55388718843842,0.248961587921706,36.0389121670261,4529.2455684146
0.53,4.63535569815477,0.0336867302775179,8.23630099342478,-1.66859744443924,-2.52872644571799,3.88499675764847,-5.93487817502626,5.94962961313359,0.58427162241519,55.5270426354984,4529.2455684146
0.54,4.61875592259897,0.0717527727770304,9.06778723455248,-3.56764004163437,-4.00816810360239,2.29622367948087,-9.66231269470486,1.26195649193271,1.06608600837689,76.2193338204641,4529.2455684146
0.55,4.65183530806592,0.00690421281788955,7.41548011586,-0.319907230745507,-4.61143274638017,-0.611806690986648,-7.30706619251898,-1.30325348384128,1.70418193120041,97.5621151905125,4529.2455684146
0.56,4.61673726485734,0.0544348649873305,9.17198384585035,-2.69068347795015,-2.83900691880326,-3.64105284804215,-3.41288333287832,-8.92845409929485,2.49112980144474,116.931033852004,4529.2455684146
0.57,4.65518766228435,0.0510991515956953,7.25108512163016,-2.51366496180493,1.22861109988965,-4.49042292658567,4.40738847585082,-6.28264862969985,-2.86354559584998,136.794995518508,4529.2455684146
0.58,4.59561739959001,0.0176071580695907,10.2313271768315,-0.838493043446615,4.48891981803629,-0.984686834821519,10.178556640915,-1.33420803886213,-1.78290426517887,157.513358844548,4529.2455684146
0.59,4.5871435365223,0.0272998384268242,10.6567563596793,-1.30990633167064,2.45217146839262,3.87678812877847,4.53184783118436,9.73368717096998,-0.558042065097744,176.957266597038,4529.2455684146
0.6,4.54526508650505,-0.0327820386487482,12.752524222429,1.69624185145477,-3.33390240224093,3.08959611292349,-8.12891922004536,9.97119766007285,0.816200829886333,197.425528733908,4529.2455684146
0.61,4.55533711526476,-0.000684301010884791,12.2507700271165,0.0889570736491809,-3.28815595650723,-3.15263811872891,-8.90574019765171,-8.41291097957055,2.33500682652852,217.551884212967,4529.2455684146
0.62,4.5566314653836,0.000576040644661546,12.1879442909839,0.0457341402255144,3.4547047338043,-2.97117920115514,9.21173065158536,-7.98073280183919,-2.28096306792001,237.068272248375,4529.2455684146
0.63,4.6112034923162,0.0649229078583975,9.46131624207227,-3.17556738512609,2.13535067107445,4.08750414593745,1.42735240531901,9.8774186081692,-0.467335550560365,257.304948196053,4529.2455684146
0.64,4.53321948926734,0.0190281449907909,13.3624451170441,-0.879876324426616,-4.51772966502262,0.374912899150818,-13.3902771586954,0.172044952327034,1.49219650043637,277.530902853602,4529.2455684146
0.65,4.53813445707005,0.00569888935873886,13.1187894857616,-0.210698085551221,1.99513675860749,-4.07604295147139,5.97143454164579,-11.6828507124684,-2.68514156939427,297.501132310636,4529.2455684146
0.66,4.53444443842665,0.0571451872853155,13.3053761006471,-2.78271250910735,1.95495661985727,4.09177181085218,3.05844233037504,13.2447141380924,-0.433110308982889,317.397621470929,4529.2455684146
0.67,4.56353319817384,0.0289657488387149,11.8530492562075,-1.36653160632903,-4.2245017686387,-1.72634268678297,-10.4186135349628,-5.81503889155235,1.96508443010707,337.301552791572,4529.2455684146
0.68,4.56706658919827,0.0312654542047421,11.6784812779272,-1.4761016111448,4.46697310886763,-0.951433656883787,11.7362618403961,-0.90882283145996,-1.77380755467748,357.228972169825,4529.2455684146
0.69,4.53060056488787,0.0519300359150217,13.5039640679663,-2.50318749022427,-3.56326474849436,2.79860367671627,-12.2383963152877,6.23254753612789,0.916480305561686,377.068043983032,4529.2455684146
0.7,4.55754987038314,0.041464629928573,12.158644858688,-1.96485584223603,2.58031337705597,-3.75698855637737,8.58384163424872,-8.83238167645666,-2.53068057004016,396.814429989684,4529.2455684146
0.71,4.52490326652918,0.0811251929767223,13.7932038161756,-3.93481159426037,-1.89873659838502,4.1080567423461,-9.55205891545115,10.7001581424125,0.450878236510385,416.52104957198,4529.2455684146
0.72,4.44950309757716,0.0342258939943978,17.5655360261365,-1.60927717292336,1.84961900398012,-4.04699379382821,8.88275830452057,-15.239239935386,-2.70521167945214,436.573648159367,4529.2455684146
0.73,4.51986874193114,0.0797207355540523,14.0496036068678,-3.87139780164094,-2.36232979197301,3.85421416036009,-10.8165905111476,9.76629162798323,0.567502305134489,456.396285193805,4529.2455684146
0.74,4.5125756210717,0.0868136869845197,14.4166125532573,-4.20053219497695,3.31288693199875,-3.06523335619499,13.5612117463702,-6.44800156652313,-2.29814957630131,475.993464497778,4529.2455684146
0.75,4.52132593145452,0.0636140233510774,13.9815492575607,-3.06060581503671,-4.29202825650649,1.42299977784953,-14.2539587231615,1.29448380254067,1.26472513163712,496.024592644995,4529.2455684146
0.76,4.47690456237286,0.0899546202839074,16.2050934045492,-4.34724885958056,4.34969635709697,1.06344153358928,14.5439090737289,8.36530535918417,-1.31092330741019,515.539313149602,4529.2455684146
0.77,4.49081133988327,0.0482944215779764,15.5122327760758,-2.27629769345284,-2.57533667358229,-3.67931513454364,-6.87929339337225,-14.0885137362422,2.54165387690666,535.451704478925,4529.2455684146
0.78,4.44877746958466,0.141088736659829,17.6164815422614,-6.93426462665366,-0.987675486581045,4.34004886363083,-11.160822018223,15.2924981516705,0.25546499039608,555.241210754606,4529.2455684146
0.79,4.45704882057419,0.128212146612052,17.2054535361819,-6.24657531005798,4.19771354650853,-1.50363676630343,18.2943000174449,0.604914342410507,-1.88600261812338,574.754282359205,4529.2455684146
0.8,4.48441073920449,0.0985857652767769,15.8399694323057,-4.76703084393344,-3.10070101216963,-3.24118991485195,-7.17931008884913,-14.9025743189404,2.40032395976269,594.49874357417,4529.2455684146
0.81,4.49879450903141,0.095898781030447,15.1234484018551,-4.63918737815645,-2.2608890301578,3.89059499357186,-11.8360837307624,10.4951356833345,0.547732181251069,614.264716911769,4529.2455684146
0.82,4.43962941733536,0.0672954810974975,18.0843473256837,-3.21236564633199,4.09818064105999,1.70872861458068,15.303146911332,10.1575885844962,-1.1606086891517,633.998613181231,4529.2455684146
0.83,4.46153984442176,0.0596432411117276,16.9914992230259,-2.82656229940167,1.751834185644,-4.10365350457154,9.46397806244133,-14.3921374198594,-2.72474947208978,653.682987270091,4529.2455684146
0.84,4.42496374031461,0.0962657889336878,18.8230654617539,-4.65569319732496,-3.78275241213569,-2.29790238994168,-13.3679165511374,-14.0457139230058,2.13844090436617,673.305165287298,4529.2455684146
0.85,4.42642645443689,0.0678743170225604,18.752780038001,-3.22288132812333,-3.31679239539253,2.93202085349274,-16.3361641121631,9.75620137703647,0.862228341885771,692.861003055608,4529.2455684146
0.86,4.47110695183504,0.0860833861934441,16.5215279969946,-4.11470991069003,1.27684350234397,4.28577628845092,0.44631220299132,17.0203563541445,-0.270301929207445,712.415940694072,4529.2455684146
0.87,4.43131349802512,0.107853624829055,18.514083449085,-5.18652716934616,4.25104285600024,1.25570950407238,16.032906329334,10.6121281877318,-1.25924137590747,731.936116616501,4529.2455684146
0.88,4.4520044198024,0.0865038360126718,17.4824187547712,-4.15254187264866,2.23579563306457,-3.85084979644161,12.6200265569928,-12.7911492533734,-2.59613364885178,751.636626140591,4529.2455684146
0.89,4.42077687965677,0.061609036054564,19.0466764914974,-2.89841826420565,-0.748603699033673,-4.35736805822328,-0.0999817190644694,-19.265687567847,2.98538716792626,771.257051210505,4529.2455684146
0.9,4.42641874543931,0.148193010432634,18.7675135650368,-7.1928095205383,-3.01244148840114,-3.24658903424457,-6.86436559021902,-18.8901180318283,2.42705332013976,790.670332600302,4529.2455684146
0.91,4.37009161791167,0.0957813021274523,21.5869174039864,-4.61480248363422,-3.99258293201721,-1.7793696461792,-17.5496490603125,-13.39034065397,2.01195654214308,810.344484775713,4529.2455684146
0.92,4.43486645288643,0.109647257008996,18.3511468163216,-5.2568403499888,-4.38997629005561,-0.638882734667846,-17.2035676242029,-8.27261874734591,1.74003278965405,829.738982645066,4529.2455684146
0.93,4.43568831527802,0.148949833357761,18.3131496362171,-7.26291445328728,-4.43808889162784,-0.0297300043859657,-18.0059362400721,-7.99422517025294,1.61106231298126,849.373338906245,4529.2455684146
0.94,4.33574816706946,0.140981117292753,23.3132400405962,-6.81066282553723,-4.33701438012883,-0.0943085904626554,-22.9096760559575,-8.06467806702154,1.62504248095867,868.711731705248,4529.2455684146
0.95,4.46019332616356,0.114793858859042,17.0940698878024,-5.5137523184414,-4.38520825621882,-0.822466222027398,-15.5589799768319,-8.97367438894092,1.78192881220976,888.266867096205,4529.2455684146
0.96,4.38263594867904,0.129325372930938,20.9750740731657,-6.26919389341069,-3.88659427683372,-2.02943534955439,-15.2340816476598,-15.7219362929762,2.08151666971592,907.821869284375,4529.2455684146
0.97,4.33956072541054,0.136297688508359,23.1319860809681,-6.62161241831261,-2.62435517420477,-3.45877496652254,-7.99871935968442,-22.6926203791775,2.52391110489477,927.246403889367,4529.2455684146
0.98,4.39371837622601,0.163174931852977,20.427310556883,-7.8980480075198,-0.30673922163956,-4.3860344592672,7.22595976207509,-20.6746144929791,3.10889207553456,946.604667785029,4529.2455684146
