t,iq,id,vq,vd,ia,ib,va,vb,theta_e,omega,r
0,0,0,0,0,0,0,0,0,0,0,0
0.01,0.00140469597943635,0.000776236146137563,-0.0696759216560478,-0.0388582199566923,0.000211048213916341,-0.00159096574463999,-0.0101828049089958,0.0791265176853356,-2.50487069074338,-0.00275173831737011,0
0.02,0.00155478923404902,0.0008619475410707,-0.0772545035585004,-0.0431489242244509,0.000231337550259239,-0.00176261341868052,-0.0112370999275556,0.0877713823920752,-2.50489019723258,-0.00265076509999671,0
0.03,0.00160878139910169,0.000895755842586301,-0.0799939786973994,-0.0448413532527995,0.00023622190238952,-0.0018261312473244,-0.0115034067649814,0.0909805211140369,-2.50490805779615,-0.00237371619973779,0
0.04,0.00156442697366816,0.000876542163747793,-0.0778607152776615,-0.043879551840886,0.000225275012536856,-0.00177904724206377,-0.011007177535467,0.0886935628780848,-2.50492261197165,-0.00195248853100413,0
0.05,0.00159440251789488,0.000896365696468432,-0.079393450666796,-0.044871890487935,0.000227133053349405,-0.00181493840858335,-0.0111193370520632,0.0905161140806697,-2.50493547762131,-0.00173319100094551,0
0.06,0.00158995953254291,0.000897210258173769,-0.079218027924813,-0.0449141593120191,0.000223792613395715,-0.00181187042270849,-0.0109800638488521,0.0904003089202521,-2.50494648028709,-0.00147910465029188,0
0.07,0.00162748382792097,0.000921159224004873,-0.0811085617454714,-0.0461130423654727,0.000226826796253011,-0.00185628325710683,-0.0111391336558025,0.0926333156376095,-2.50495556445731,-0.00136045657973811,0
0.08,0.00158235989562365,0.000898264454906865,-0.078911097999363,-0.0449669377641482,0.00021839602343301,-0.00180639005953196,-0.0107536109909616,0.0901850693297118,-2.50496359578052,-0.00108233050223258,0
0.09,0.00157650055993462,0.000897277047300923,-0.0786479399199966,-0.0449175027418451,0.000215694851024101,-0.00180109295882498,-0.0106363260006368,0.0899441441975587,-2.50497017233796,-0.000923369069024022,0
0.1,0.00157320504019399,0.000897231185524453,-0.0785072571678833,-0.0449152393249056,0.000213762657955787,-0.00179841692186019,-0.0105540160087264,0.0898297328156177,-2.50497569976393,-0.000793371413799651,0
0.11,0.00157051484480485,0.000897226305335837,-0.0783929787614951,-0.0449149629947744,0.000212158960695812,-0.00179625179085101,-0.01048588459394,0.0897377247550034,-2.50498035287148,-0.00068412066505329,0
0.12,0.00156825359812327,0.000897223643266476,-0.0782969448826551,-0.0449148452866107,0.000210809817594033,-0.00179443273344779,-0.0104285382857208,0.0896604734222442,-2.504984270339,-0.000592151461108774,0
0.13,0.00164350918981743,0.000939859806992203,-0.0820310368073935,-0.0470492222417718,0.000221255370653932,-0.0018802938533034,-0.0109316966712566,0.0939319877418721,-2.50498815950038,-0.000672308920653261,0
0.14,0.00171527573867852,0.000983104951748907,-0.0856795927458686,-0.0492140595091135,0.00022913768909357,-0.00196371131414198,-0.0113595419916411,0.0981528250851936,-2.50499141573155,-0.000758797848229038,0
0.15,0.00157018527606472,0.000900905778000426,-0.0784324811350324,-0.0450991670418755,0.000208979289180796,-0.00179817704320194,-0.0103599953317263,0.0898791380777253,-2.5049942751724,-0.000374319234736035,0
0.16,0.00156186168418107,0.000897374301518143,-0.0780282092105227,-0.0449224035432288,0.000206867822483543,-0.00178938488357285,-0.0102616532296746,0.0894489924241503,-2.50499602686461,-0.00031701748771808,0
0.17,0.00156065751689406,0.000897221722930433,-0.0779744776004275,-0.0449147371694029,0.00020627210505961,-0.00178832617936731,-0.010235747675454,0.0894012429532193,-2.5049974682029,-0.00028235509973296,0
0.18,0.0015599390802537,0.000897214408793667,-0.0779438259031096,-0.044914376286341,0.000205848737636528,-0.00178774436837686,-0.0102177083280332,0.089376393024828,-2.50499867997423,-0.000253864845911291,0
0.19,0.00155934939933097,0.000897213453850302,-0.0779187677033656,-0.044914323523298,0.000205497140576612,-0.00178726983306346,-0.0102027635045938,0.0893562221383372,-2.50499970008821,-0.000229913944246691,0
0.2,0.00155885347005735,0.000897212873234474,-0.0778976950274068,-0.0449143222142251,0.000205201263110646,-0.0017868708746368,-0.0101901609830862,0.0893392850300745,-2.50500055892669,-0.00020975126888393,0
0.21,0.00155843631666215,0.000897212393930112,-0.0778799705151199,-0.0449142864192085,0.000204952376366925,-0.00178653529389566,-0.0101795886919452,0.0893250183657718,-2.50500128199008,-0.000192776227043419,0
0.22,0.00155808528716567,0.000897211990756938,-0.0778650549636325,-0.0449142475276448,0.000204742940913904,-0.00178625290666974,-0.0101706989282359,0.089313007444466,-2.50500189074329,-0.000178484794832646,0
0.23,0.00155778935941816,0.000897211651300843,-0.0778524758792895,-0.0449142485295393,0.000204566382069218,-0.00178601484620748,-0.010163174623242,0.0893028980665581,-2.50500240325802,-0.000166452712712404,0
0.24,0.00155753999779929,0.000897211365483299,-0.0778418726552826,-0.0449142493863676,0.000204417606573783,-0.00178581424600087,-0.010156832243519,0.0892943766157705,-2.50500283474858,-0.000156322797061004,0
0.25,0.00155733064574882,0.000897211124831375,-0.0778329731865626,-0.044914210079735,0.00020429270068158,-0.00178564583138926,-0.0101515410665501,0.0892872006287625,-2.50500319802427,-0.000147794332062858,0
0.26,0.00157382005139557,0.00090631658362223,-0.078648711220549,-0.0453700380220592,0.000206772540864763,-0.00180431827022501,-0.0102698958421165,0.0902141306346655,-2.50500344153341,-0.00017886983187788,0
0.27,0.00152168416562036,0.000876960241326419,-0.0760746349026604,-0.0439004818709979,0.000199385396161619,-0.00174494338835519,-0.00992138640303031,0.0872706621718929,-2.50500395796006,-5.2059836203277e-05,0
0.28,0.00151755270433137,0.000874057805264284,-0.0757874426499009,-0.0437551554593217,0.000199262968900774,-0.00173989583785689,-0.00986750503835622,0.0869533348239125,-2.50500418050484,-3.79778946593086e-05,0
0.29,0.00155478128275767,0.000896216098802312,-0.0777107810433746,-0.0448643936645787,0.000203575643143212,-0.00178300451218858,-0.0101188768963835,0.0891593384879982,-2.50500415178487,-0.000120980693195526,0
0.3,0.00154516557184821,0.000891303914786829,-0.0772327612067494,-0.0446185056020032,0.000201810835881798,-0.00177235202470052,-0.0100325048732528,0.0886287723696031,-2.50500342991861,-0.000115732200976765,0
0.31,0.00155645984319548,0.0008969571243975,-0.0777916800318304,-0.0449015102772263,0.000203978499200272,-0.00178479469361368,-0.0101371665406558,0.0892464506962465,-2.50500364410461,-0.000135964712870156,0
0.32,0.00155690759178326,0.000897199778747632,-0.0778147245371846,-0.0449136648493387,0.000204049125749299,-0.00178529903562907,-0.0101410708952874,0.0892722091476031,-2.50500387662264,-0.000131793749779374,0
0.33,0.00155682272567146,0.000897210075777872,-0.0778113148221064,-0.0449141890316281,0.000203990042234023,-0.00178523695399625,-0.0101386047475594,0.0892697809142968,-2.50500407504234,-0.000127201179894524,0
0.34,0.00155672804274161,0.00089721041289825,-0.0778072949664825,-0.0449141726659479,0.000203933187884361,-0.00178516105126414,-0.0101362133574356,0.0892665404003109,-2.50500424222932,-0.000123279546931592,0
0.35,0.00155664678484713,0.000897210338862562,-0.0778038322710306,-0.044914173002878,0.000203884691936902,-0.00178509569416616,-0.010134142102943,0.0892637575751126,-2.50500438299223,-0.000119975080341648,0
0.36,0.00155657844905336,0.000897210261159199,-0.0778009189222767,-0.044914173298995,0.000203843920291049,-0.00178504072136943,-0.0101323994304489,0.0892614162450085,-2.50500450150223,-0.000117192877666396,0
0.37,0.00155652082346917,0.000897210195078435,-0.0777984595857248,-0.0449141735612423,0.000203809539495393,-0.00178499436404054,-0.0101309283480107,0.0892594397887894,-2.50500460127662,-0.0001148505094855,0
0.38,0.00155647227828006,0.000897210139415121,-0.0777963856592912,-0.0449141737947839,0.000203780576374828,-0.00178495531148989,-0.010129687805995,0.0892577730747877,-2.50500468527757,-0.000112878448758578,0
0.39,0.00155643141650218,0.000897210092549862,-0.0777946381399811,-0.0449141740040377,0.000203756197332849,-0.0017849224399107,-0.0101286425034938,0.0892563686849963,-2.50500475599861,-0.000111218153486468,0
0.4,0.00155639707398231,0.000897210053092943,-0.0777931679492549,-0.0449141741926896,0.000203735707700318,-0.00178489481277738,-0.0101277630750608,0.0892551871774839,-2.50500481553915,-0.000109820336308167,0
0.41,0.00155636808656724,0.000897210019873483,-0.0777919245640229,-0.0449141743643922,0.000203718413225022,-0.0017848714936262,-0.0101270193261984,0.0892541879453085,-2.50500486566691,-0.000108643501742534,0
0.42,0.00155634375576502,0.000897209991905476,-0.0777908795368093,-0.0449141745213653,0.000203703896820743,-0.00178485192049756,-0.0101263942115179,0.0892533481294622,-2.50500490786981,-0.00010765271438134,0
0.43,0.0015563231502531,0.000897209968358799,-0.0777899917542897,-0.0449141746665535,0.000203691603288638,-0.00178483534425051,-0.0101258631767723,0.0892526346839992,-2.50500494340068,-0.000106818561795379,0
0.44,0.00155630592078551,0.000897209948534834,-0.0777892483416073,-0.0449141748010759,0.000203681323695967,-0.00178482148384632,-0.0101254184733564,0.0892520372672426,-2.50500497331447,-0.000106116281404319,0
0.45,0.00155629136887031,0.000897209931844491,-0.0777886182348756,-0.0449141749271334,0.000203672641709304,-0.00178480977743842,-0.010125041554156,0.0892515309101361,-2.50500499849903,-0.000105525025371937,0
0.46,0.00155627914526154,0.000897209917792868,-0.0777880872140778,-0.0449141750458171,0.000203665348780756,-0.00178479994404636,-0.0101247238983849,0.0892511041861822,-2.50500501970208,-0.0001050272417239,0
0.47,0.00155626878429792,0.000897209905962769,-0.0777876347475212,-0.044914175158608,0.000203659167307629,-0.00178479160909878,-0.0101244532435043,0.0892507405925126,-2.50500503755302,-0.000104608153295931,0
0.48,0.00155626016956412,0.000897209896002686,-0.0777872573135026,-0.0449141752658706,0.000203654027422776,-0.00178478467888185,-0.0101242274484155,0.0892504373028119,-2.50500505258185,-0.000104255319066185,0
0.49,0.00155625283539886,0.000897209887617268,-0.0777869335825568,-0.0449141753690804,0.000203649651752652,-0.00178477877885922,-0.010124033792702,0.0892501771708372,-2.50500506523474,-0.000103958264827808,0
0.5,0.00155624666538681,0.000897209880557897,-0.077786659346405,-0.044914175468613,0.000203645970623323,-0.00178477381534669,-0.0101238697409165,0.0892499568166168,-2.50500507588715,-0.000103708172253705,0
0.51,4.59698797895033,0.0367805148104747,10.151679318507,-1.83271396300479,-0.400341558462152,4.57967006687727,-2.78935914990266,9.93151091168155,0.0951962923827329,29.1604030578644,3347.84007362057
0.52,4.64988733791298,-0.0775833310240531,7.50794224069637,3.90494754031377,-2.0058199053679,4.19573091794101,0.425873562976414,8.45200826375561,0.429260319571778,62.065991140913,3347.84007362057
0.53,4.61586287468053,0.108889068579137,9.21070469044057,-5.41632783301164,-3.84751365503796,2.55238821134374,-10.6802202973974,0.326469735536774,1.00865393291763,96.5130943779214,3347.84007362057
0.54,4.59037742019447,-0.0767093936415719,10.4866667907406,3.86881687981818,-4.39035444724262,-1.34247421520157,-11.1474703216238,0.819652278776446,1.85083630194734,132.697578267079,3347.84007362057
0.55,4.54907248355609,-0.0185023091799574,12.553725329619,0.981210312682288,-0.875835782013397,-4.46400206978415,-3.42911717623173,-12.1161028685343,2.94378665459507,165.36496236863,3347.84007362057
0.56,4.57318893789495,0.0181555065764749,11.3499926310124,-0.867039154671607,4.15165040695694,-1.91785963577058,10.68300884319,-3.9303195386755,-1.99957428907873,200.552956790969,3347.84007362057
0.57,4.49746972357823,0.00478368158269049,15.1380787309333,-0.157223138012543,1.79547929743323,4.1235313616609,5.88443481622161,13.9484613371046,-0.409601932699227,233.416345094813,3347.84007362057
0.58,4.46373694724017,-0.00291445366931914,16.8271198850072,0.227086302581564,-4.41969446563633,0.625505282648144,-16.6275760925664,2.59369333174532,1.42955031745458,267.3929601725,3347.84007362057
0.59,4.44668191339606,0.0786158506475099,17.6823449630362,-3.85951762859545,1.54814819514497,-4.16922026963868,10.041160902501,-15.0577650216537,-2.76836733288853,301.443989911968,3347.84007362057
0.6,4.43777362238309,0.0837826996795052,18.1303105831838,-4.11600259717622,1.95138951306038,3.9865941896063,3.93170945224013,18.1711667210951,-0.43632539621354,335.173196883474,3347.84007362057
0.61,4.34760564790555,0.0739107518591336,22.6414671691379,-3.61200809938237,-3.69776783139904,-2.28771736322717,-17.096886235971,-15.276750934522,2.14183325647367,368.571577343827,3347.84007362057
0.62,4.39490746560527,0.0990592905068526,20.2792580564972,-4.84533146726401,4.2803128384174,1.00197124686681,18.4258939025729,9.75766253980903,-1.31831276132206,401.730174973006,3347.84007362057
0.63,4.38884948146528,0.00845832761306875,20.5851835796658,-0.27680991483653,-4.321069969317,-0.768391589315521,-20.2112653763974,-3.91550234610266,1.74870835541832,434.813569131784,3347.84007362057
0.64,4.35099527158177,0.0951193472822149,22.4811073222982,-4.67638353848134,4.12404267007322,1.39013653968582,19.5511024277075,12.042555513551,-1.22381861554601,468.44827088646,3347.84007362057
0.65,4.27188040721222,0.167384221867104,26.4400986115804,-8.24258179566052,-3.21330825402191,-2.81986342858805,-13.4997994292855,-24.1821087711,2.33023586820211,501.277174349597,3347.84007362057
0.66,4.2035876064815,0.0471613855469701,29.8580965387985,-2.26846173860246,0.704218071954253,4.14444807770403,2.4306718829027,29.8453293125973,-0.157092021011668,534.5242953997,3347.84007362057
0.67,4.25586422893384,-0.0210363360070946,27.2477366754193,1.23068841548393,2.88337451202756,-3.13033133804412,17.4516868522081,-20.9616882412048,-2.40217995921037,567.139188637385,3347.84007362057
0.68,4.25285140364651,0.160895913798179,27.4020074142008,-7.91479745815518,-4.10371682819902,-1.12789217150011,-23.7441721303795,-15.8027946570992,1.8768342614922,600.232043914221,3347.84007362057
0.69,4.15377850439155,0.106143317113513,32.3593468735005,-5.19914109302375,-0.363480408302732,4.13920575232655,-8.81914398843991,31.5655048667982,0.113137242427444,633.133424594901,3347.84007362057
0.7,4.15071034365876,0.123000439109186,32.5165809084306,-6.04495930911542,4.11712492834058,0.541117167915999,31.1347629106082,11.1577822851851,-1.41048960700055,665.8075291089,3347.84007362057
0.71,4.19081041829848,0.0487647290675217,30.5154331113701,-2.32072379450323,1.7675681534376,-3.80012799572242,15.2834649382056,-26.514017356627,-2.6945893508417,698.469266443756,3347.84007362057
0.72,4.09112847575417,0.0056823652910547,35.5035247607918,-0.150204716111755,-2.30787252156162,-3.3780303312171,-19.8632225922387,-29.4274569092892,2.54361956964761,731.009734973575,3347.84007362057
0.73,4.13136184510951,0.150392784815538,33.4958467500007,-7.34344652121037,-4.09916016488715,-0.536334436292892,-31.8157434449575,-12.7928271056108,1.73728400598322,763.424399984525,3347.84007362057
0.74,4.13498887544971,0.114864911694218,33.3186351492412,-5.49813604992385,-3.76082862883896,1.72264185846526,-32.8156344823161,7.96838012112554,1.16904110052715,795.719768239927,3347.84007362057
0.75,4.15948477189993,0.0325941335512518,32.0980358457482,-1.49068003391437,-3.07138605244444,2.80516731445009,-24.8661574802928,20.3514187290155,0.83850499934757,828.400368580327,3347.84007362057
0.76,4.04563827037976,0.0560435183225186,37.794639184781,-2.55534975582205,-2.70218614688908,3.01139833271323,-27.5069012132164,26.0448641603046,0.745184070906795,860.446385335966,3347.84007362057
0.77,4.08032327718632,0.0678939362521758,36.0647191154802,-3.24061677226184,-3.1232481935878,2.62658872954615,-30.0281847208662,20.2354561182269,0.888200118894564,892.904437733336,3347.84007362057
0.78,3.98634798102127,0.097188998960712,40.7677637132731,-4.58346762997909,-3.77528935187762,1.28359114865707,-40.2754354186254,7.80436003375477,1.26743516834125,924.94511601591,3347.84007362057
0.79,4.03064411736884,0.190704139350524,38.5572457708854,-9.26088420399215,-3.89476184583847,-1.05512569575683,-33.8563789983536,-20.6439041558532,1.88263342876843,957.030539044874,3347.84007362057
0.8,4.06157130977392,0.193615710115477,37.0151581542072,-9.42620819107707,3.61020691819823,1.87089672493589,27.2854027758013,26.7297985290722,-1.04504176003251,989.16885193538,3347.84007362057
0.81,4.01121585832498,0.258232396359954,39.5371589547119,-12.6658202912009,0.0957022452019786,4.01837998612263,-14.2553641262408,38.9922368618093,0.0404772451358647,1021.20774099345,3347.84007362057
0.82,3.88062360438919,0.14226846874121,46.0709585723906,-6.84263382611805,-3.76520352277477,0.950116997124553,-46.483668152992,2.93657223643181,1.36025997012405,1053.0829035988,3347.84007362057
0.83,3.91855618368672,0.231095180638526,44.1784250353978,-11.2442532219483,-1.1103211493707,-3.76505969308375,0.973715003341802,-45.5765109263514,2.91372641268295,1084.90069040651,3347.84007362057
0.84,3.85911604705403,0.0753970571294422,47.1544255244515,-3.60860934681322,3.85794590249072,-0.121304551888202,47.194020678195,3.04734641697493,-1.58269384777804,1116.83364426984,3347.84007362057
0.85,3.84796402657614,0.118713862415122,47.7159446686948,-5.72818665257213,-1.52104097536846,3.53657383384028,-25.3849674176562,40.8071921008685,0.437014343597799,1148.58017042879,3347.84007362057
0.86,3.78917202578205,0.132512711941708,48,-6.28750649655672,-1.77739202413369,-3.34906880376342,-15.3526204540345,-45.9111074048384,2.68863531075672,1180.04674848991,3347.84007362057
0.87,3.80493539490013,0.0546240258333439,48,-2.52308293523462,3.43411729478097,1.63931557341724,41.8967997536419,23.5589498471665,-1.11106782536397,1211.81818293589,3347.84007362057
0.88,3.76875985427628,0.162536411462116,48,-7.8136932749979,-3.77206701362081,0.0384625663383853,-47.7169604064553,-9.3885830754445,1.60370058322058,1243.204852812,3347.84007362057
0.89,3.82544509869099,0.240797038472139,48,-11.7067318443104,3.73533774595119,-0.859805408512977,49.2649299374891,3.74356096903435,-1.73417381780367,1274.60661113031,3347.84007362057
0.9,3.81340189137247,0.113846537742724,48,-5.41509837782147,-3.76679518464749,0.605185142080999,-48.297409170718,0.826775566724479,1.44134000399813,1306.02118537541,3347.84007362057
0.91,3.7101946764841,0.135099315823827,48,-6.52142133244489,3.69499936678359,0.361629702894955,46.6990061254088,12.8736849073722,-1.43684007752828,1337.32154117141,3347.84007362057
0.92,3.83061496566635,0.093980614346755,48,-4.45017899761948,3.8294344739908,-0.133697346536168,48.0435656553116,3.95220093550673,-1.58116607090722,1368.58418470237,3347.84007362057
0.93,3.75271013530411,0.106795448354941,48,-5.05707688127797,-2.91257943628538,-2.3687802039723,-33.0612594524555,-35.1642879922312,2.28204084838806,1399.80139192478,3347.84007362057
0.94,3.78007811698633,0.202424497601849,48,-9.76118406581956,-0.140885324097766,3.78287160411269,-14.0698677149007,46.9182217997657,0.0907250000010267,1430.89587500851,3347.84007362057
0.95,3.69515470866103,0.160842628150561,48,-7.63414766577717,3.48051774718413,-1.25141315460022,48.1007256338062,-6.97139900480454,-1.87245117509846,1461.99943740722,3347.84007362057
0.96,3.72385503882348,0.227127003662564,48,-11.1447975342729,-1.87634110985911,-3.22459719428899,-11.6143367477349,-47.8885549373767,2.67551732455193,1493.17886332948,3347.84007362057
0.97,3.70137568400577,0.255049222385863,48,-12.3518549562137,-3.30496944878623,1.68594454315035,-48.9994254791562,7.45819170925207,1.16788013807381,1524.09348319872,3347.84007362057
0.98,3.77951394080149,-0.00945635833417957,48,0.7121145974342,0.41443781792786,3.75673479853143,6.09034079932981,47.6173797698687,-0.112376330317226,1555.19648116205,3347.84007362057
0.99,3.62417415401188,0.259980275479083,48,-12.5700230881042,3.43295690807451,1.19039275432498,39.1521193227363,30.4814211114523,-1.16540350235012,1586.10931854105,3347.84007362057
