t,iq,id,vq,vd,ia,ib,va,vb,theta_e,omega,r
0,0,0,0,0,0,0,0,0,0,0,0
0.01,0.000845533943001207,0.000473503568722698,-0.0416279366868945,-0.0237041875844613,-6.35033595665406e-06,0.000969068084085704,-2.83916817369646e-05,-0.0479037870711683,0.517045368079238,-0.00290807059692797,0
0.02,0.000936767313404669,0.000525267947551353,-0.0462392875319588,-0.0262955651989369,-6.42770126347425e-06,0.00107396373348669,-2.69989401308068e-06,-0.0531933121106899,0.517024290235832,-0.00292948035343942,0
0.03,0.000971107718120425,0.000545561929724777,-0.0479693106960938,-0.0273115071178216,-5.73802524380946e-06,0.00111384697980664,-3.18267921868912e-05,-0.0551993856556438,0.517004044465753,-0.0027506880993409,0
0.04,0.00094734062314399,0.000533984362534944,-0.0468508024772177,-0.0267319297455583,-4.03584730215899e-06,0.00108746368565909,-8.17968555770349e-05,-0.0539405883352708,0.516986525635134,-0.00239590820603859,0
0.05,0.000966787352970687,0.000545903775045076,-0.0478424726716029,-0.027328626699487,-3.26789581017836e-06,0.0011102603470941,-0.00011126315371637,-0.0550975829698872,0.516970268000319,-0.00222192501312925,0
0.06,0.000965580128904545,0.000546378565778272,-0.0478200525275951,-0.0273523950039999,-2.24222115966562e-06,0.00110944557997295,-0.00014381397403964,-0.0550898380260613,0.516955611603123,-0.00199497944747181,0
0.07,0.000989697493711252,0.000561088889325331,-0.0490315774673914,-0.0280888096284912,-1.35915305671285e-06,0.00113768186391699,-0.000185947827972668,-0.0565070105269399,0.516942742727908,-0.00188989797248946,0
0.08,0.000963097636284023,0.00054698202056884,-0.0477603511185503,-0.0273825905819693,-4.63286418089684e-07,0.00110758574079262,-0.000200932223969184,-0.05505285671233,0.516930875091066,-0.00161028351177414,0
0.09,0.000960428353878897,0.000546413627291893,-0.0476557370803403,-0.0273541499160398,3.73256170963475e-07,0.00110498431468716,-0.000228479842004435,-0.0549478533817428,0.516920493080804,-0.0014427383596516,0
0.1,0.000958996235562337,0.000546388662187085,-0.0476087761995987,-0.0273529004060311,1.06951438190992e-06,0.0011037269617656,-0.000251109366721573,-0.0549064083321034,0.516911250759983,-0.0012971168695603,0
0.11,0.000957762955403286,0.000546385733625585,-0.0475690204320806,-0.0273527421523444,1.68553258583472e-06,0.00110265334880565,-0.000271070854607067,-0.0548717662255565,0.516903015689308,-0.00116752456119714,0
0.12,0.000956665678535493,0.000546383898048749,-0.0475336715482879,-0.0273526503569147,2.23428440494972e-06,0.00110169850345179,-0.000288862540600267,-0.0548409880549282,0.516895677765813,-0.00105205748574984,0
0.13,0.00100216069515316,0.000572407143015035,-0.0497764250624706,-0.0286554273347694,2.38314761667855e-06,0.00115411018403441,-0.000313520093560518,-0.0574345515599185,0.516888521580555,-0.00111364576528023,0
0.14,0.0010476207892323,0.000599486776583781,-0.0521187603976207,-0.0300110512781186,3.46743431230763e-06,0.0012070135418585,-0.000334899175878769,-0.0601408033430254,0.516882169996621,-0.00118731298838168,0
0.15,0.000957963044405454,0.000548509796752037,-0.0476452639144711,-0.0274590841266739,3.46261434787864e-06,0.00110387689616252,-0.000327305534775914,-0.054990593246866,0.516876381084187,-0.000764058763192724,0
0.16,0.00095330039403341,0.000546463544610503,-0.0474283734396752,-0.027356657393354,3.99270850063449e-06,0.00109881213368408,-0.000345683897609965,-0.0547514183698794,0.516871912265345,-0.000678796327529552,0
0.17,0.000952530153946014,0.000546380521459584,-0.0474005468513848,-0.0273524820252128,4.30549352082942e-06,0.00109810146668348,-0.000356021051550675,-0.0547251620715806,0.516867961296263,-0.000615953187890156,0
0.18,0.000951995979942488,0.000546376364452397,-0.047383184885526,-0.0273522721760628,4.56970953065358e-06,0.00109763500090589,-0.000364610730736615,-0.0547099630972677,0.516864442141898,-0.000560546898338149,0
0.19,0.000951526504978209,0.000546375461385803,-0.0473680275119015,-0.0273522420449337,4.8043591712005e-06,0.00109722639077519,-0.000372246165265339,-0.0546967696308049,0.516861306427252,-0.00051120315190435,0
0.2,0.000951108862874342,0.000546374768927827,-0.0473545510531053,-0.0273521949456834,5.01320138229783e-06,0.00109686294721399,-0.000379017458526386,-0.0546850292086779,0.516858512320834,-0.000467236115780375,0
0.21,0.000950736536504333,0.000546374156288254,-0.0473425291467514,-0.0273521733415207,5.19938445324891e-06,0.00109653893998584,-0.000385075442948208,-0.0546745660194833,0.516856022604969,-0.000428058908697302,0
0.22,0.000950404780873725,0.000546373610469671,-0.0473318129856297,-0.0273521516460318,5.36527875360019e-06,0.00109625023763245,-0.000390473238775193,-0.0546652380478119,0.516853804119163,-0.000393149674643901,0
0.23,0.000950109172197138,0.000546373124039777,-0.04732226006106,-0.0273521269581116,5.51309667017345e-06,0.00109599299063964,-0.000395280374024656,-0.0546569199630308,0.51685182731571,-0.000362043457720707,0
0.24,0.000949845868775235,0.000546372690538415,-0.0473137485060564,-0.0273521051063169,5.64476016336353e-06,0.00109576385598279,-0.00039956358667614,-0.0546495086929568,0.516850065865482,-0.000334325956593537,0
0.25,0.000949611203522256,0.000546372304212238,-0.0473061574409662,-0.0273520831882125,5.76210229423252e-06,0.00109555964275905,-0.000403381376746365,-0.0546428977089363,0.516848496307913,-0.00030962800407154,0
0.26,0.000959372732103417,0.000551914147537177,-0.0477868336060493,-0.0276295095992483,5.75795835768364e-06,0.00110678458214361,-0.000407121364579346,-0.0551978760368703,0.516847165943641,-0.000325954677783402,0
0.27,0.000927325750833187,0.00053380590056576,-0.0462233117909369,-0.0267229818433244,5.85234809392698e-06,0.00106997548460651,-0.000391684815451536,-0.0533906255303884,0.516845654140414,-0.000183126184530992,0
0.28,0.000924206757819968,0.000531844890624905,-0.0459767590243542,-0.0266248266491647,5.68990119618475e-06,0.00106629486724278,-0.000428241886347856,-0.0531277740298649,0.516844528582197,-0.000154377080501352,0
0.29,0.000947786211613755,0.000545788330332744,-0.0472286030507693,-0.0273228401560681,6.16139871662707e-06,0.00109368443420322,-0.000416539680742171,-0.0545610212057614,0.516843754910954,-0.000230843620254962,0
0.3,0.000942255623170052,0.00054292553248488,-0.0469580319975336,-0.027179522612265,6.40536326292806e-06,0.00108746161520352,-0.00042563920557049,-0.0542549725811256,0.516843795949013,-0.000210776873576528,0
0.31,0.000948484321272819,0.000546232701921567,-0.0472646949061727,-0.0273450955660797,6.20363377599125e-06,0.00109451093520205,-0.000418097124179537,-0.0546033957816396,0.516842961096746,-0.000221408288228871,0
0.32,0.000948651703843645,0.000546365199835765,-0.0472748244220316,-0.0273517136365502,6.23698357742492e-06,0.00109472192214867,-0.000418888710676718,-0.0546154721231798,0.516842167859038,-0.00020999545495143,0
0.33,0.000948558455476498,0.000546370348922574,-0.0472719968664085,-0.0273519817213334,6.28831374910625e-06,0.00109464339341538,-0.000420557702801003,-0.0546131460642994,0.516841458817281,-0.000198886345522203,0
0.34,0.000948464508321898,0.000546370406879264,-0.0472689422318747,-0.0273519907998836,6.3354785168454e-06,0.00109456174187283,-0.00042210951060867,-0.0546104946324265,0.516840826919119,-0.00018894519509773,0
0.35,0.000948380484497396,0.000546370276762799,-0.0472662009119135,-0.027351971419443,6.3775008649023e-06,0.00109448862496971,-0.000423477994464946,-0.0546081015561208,0.516840263855506,-0.000180085133518613,0
0.36,0.000948305396611594,0.000546370153524067,-0.0472637429476112,-0.0273519688051088,6.41504641711138e-06,0.00109442328058391,-0.000424717686321189,-0.0546059631342625,0.516839762131972,-0.000172190202798547,0
0.37,0.000948238457801654,0.000546370043414242,-0.0472615467871663,-0.0273519690777259,6.44851676083512e-06,0.0010943650276878,-0.000425827534985615,-0.0546040537694303,0.516839315066398,-0.000165155343135408,0
0.38,0.000948178853156978,0.000546369945284751,-0.04725958753746,-0.0273519693292289,6.47832010808042e-06,0.00109431315721466,-0.000426817638526825,-0.0546023503807424,0.516838916704249,-0.000158886861940863,0
0.39,0.000948126028635119,0.000546369857842634,-0.047257851638107,-0.0273519469567419,6.50473492700608e-06,0.00109426718682318,-0.000427675337162901,-0.0546008300081577,0.516838561739908,-0.000153301269995326,0
0.4,0.000948078647599215,0.000546369779924332,-0.0472562848364941,-0.0273519471741829,6.52842586943851e-06,0.00109422595386135,-0.00042846700583242,-0.0545994678251727,0.516838245445241,-0.000148324173254127,0
0.41,0.000948036505252784,0.000546369710492793,-0.0472548881604868,-0.0273519473764361,6.54949784862122e-06,0.00109418927974726,-0.00042917271433841,-0.054598253553797,0.516837963608231,-0.000143889282159285,0
0.42,0.000947998903103898,0.000546369648623895,-0.0472536366532438,-0.0273519475655142,6.56829932493163e-06,0.00109415655674477,-0.000429805001672914,-0.0545971654964245,0.516837712474405,-0.000139937528750713,0
0.43,0.000947965375491268,0.000546369593493847,-0.0472525159727824,-0.0273519477427544,6.58506334632811e-06,0.00109412737958871,-0.000430371138648206,-0.0545961911836663,0.516837488699116,-0.000136416279935817,0
0.44,0.00094793557316893,0.000546369544369278,-0.0472515165831268,-0.0273519479091849,6.59996511455157e-06,0.00109410144427009,-0.000430876001057384,-0.0545953223243895,0.516837289302207,-0.000133278636481013,0
0.45,0.000947909030475598,0.000546369500595512,-0.0472506222721016,-0.0273519480661398,6.6132370686266e-06,0.00109407834561043,-0.00043132774615575,-0.0545945448235355,0.516837111627727,-0.000130482808362528,0
0.46,0.000947885281749986,0.000546369461589897,-0.0472498160861018,-0.0273519482149959,6.6251113928348e-06,0.00109405767846824,-0.000431734881779427,-0.0545938439415848,0.516836953308942,-0.000127991558168073,0
0.47,0.000947864471441369,0.000546369426833281,-0.0472491108586809,-0.0273519257570404,6.63551856732152e-06,0.00109403956815661,-0.00043207153459349,-0.0545932196682295,0.516836812237859,-0.000125771705134927,0
0.48,0.000947845612159265,0.000546369395862779,-0.047248462215591,-0.0273519258921762,6.64494814974403e-06,0.00109402315601139,-0.000432399030224642,-0.0545926557590661,0.516836686534845,-0.000123793683216012,0
0.49,0.000947828848352951,0.000546369368265918,-0.0472478818497645,-0.0273519260211889,6.65333023679691e-06,0.0010940085674007,-0.000432692034776052,-0.0545921512120647,0.516836574526275,-0.000122031147294321,0
0.5,0.000947813947191782,0.000546369343675193,-0.0472473620999892,-0.0273519261447581,6.66078119184593e-06,0.00109399559971384,-0.000432954415996178,-0.0545916993663823,0.516836474719895,-0.000120460622293689,0
0.51,4.66169944023592,0.0346515447559697,6.91625911952495,-1.72572681066833,-0.719438328480581,4.60597990574893,-2.82114369783045,6.54629066492338,0.162377704888144,49.9230507439574,1259.26357679462
0.52,4.62631138034993,-0.031436661367098,8.68710218365885,1.59472637796983,-3.12725856226029,3.40939864732813,-4.64595128789551,7.51159325312714,0.735467105635853,106.561361845322,1259.26357679462
0.53,4.55190197864316,0.0183274857918885,8.80176704862635,-0.883968780042637,-4.49594982174835,-0.711746247079668,-8.54616066104782,-2.28377799663919,1.73182801162072,166.039995752038,1259.26357679462
0.54,4.40441445592246,-0.0198260480180137,8.90421505001701,1.02452258965835,0.163329510615074,-4.40142968166947,-0.733842510069396,-8.93287005189736,-3.1090027601363,225.954833671329,1259.26357679462
0.55,4.25238257523725,-0.00683707625311314,10.5033478210205,0.393941059025659,4.04344185317021,1.31657977039926,10.1138342487669,2.86109451011171,-1.25762181576521,278.966004874722,1259.26357679462
0.56,4.08266263640937,0.00473957716446693,12.1525275264353,-0.194069119928689,-3.41673156386196,2.23474877488146,-10.2840536007071,6.47764074658835,0.992732899659142,334.609539077066,1259.26357679462
0.57,3.90724746762695,0.010736082686202,14.9410084792677,-0.469851753510936,1.8203892423962,-3.45729389015699,7.41243897085092,-12.9811495466017,-2.65419467173989,385.289681310746,1259.26357679462
0.58,3.82183725691522,-0.0135379353704629,12.9040593496163,0.74902466075348,-1.35759111009229,3.57261384308992,-3.83987354878437,12.3422508794054,0.359604240363529,435.37090780746,1259.26357679462
0.59,3.69870104121799,0.0576305677754483,12.778747388668,-2.81754331041961,2.01966547969372,-3.09913891666422,9.47917754046445,-9.02109351940405,-2.54845306211753,484.495280275889,1259.26357679462
0.6,3.55944054112416,-0.0166984895932527,13.6746093287764,0.901920589044572,-3.29204620158186,1.35363496261118,-12.2757620347989,6.0921316063092,1.17599507352065,531.593055705674,1259.26357679462
0.61,3.41386109211432,0.0903314766421863,15.0073847563664,-4.45398087971039,2.9972566116525,1.63678347249406,10.7391339459798,11.3899317378442,-1.04450297123669,576.932080756828,1259.26357679462
0.62,3.34064502610318,0.0341582065046133,12.8715655709133,-1.63188382213349,0.639926024955072,-3.27895877621002,4.19294420135807,-12.2784145548014,-2.93862926343358,620.42401889932,1259.26357679462
0.63,3.16395117378338,0.0423496201942088,16.0599625876653,-2.02929748106315,-3.11283603457777,-0.56800734348241,-15.3681292698649,-5.0853760262717,1.76466749165605,662.274792292947,1259.26357679462
0.64,3.06528837772509,0.074062454572476,15.4076566387426,-3.60769738707969,-1.37131620254345,2.74243868818168,-10.4086250697019,11.919391246725,0.487832822865671,703.050148671152,1259.26357679462
0.65,2.91982831169278,0.0472118526116626,17.0465048526814,-2.30575268120087,1.43022981885298,2.54599076865049,6.07921887123701,16.0917034845585,-0.49565738359785,742.694633095573,1259.26357679462
0.66,2.83803299069449,0.0372120304879742,15.7719182917464,-1.77251961235246,2.65639945600445,0.999678909261661,14.0411484347921,7.39874198832717,-1.197750266927,779.92056590095,1259.26357679462
0.67,2.72338624316591,-0.00183326706599404,16.26632736668,0.146898901537355,2.71878553541827,-0.15824412385256,16.229570139953,-1.1027412931518,-1.62960786570548,816.420468458766,1259.26357679462
0.68,2.610089303154,0.00209151408736255,16.6732780528596,-0.0183663811868306,2.54145466021309,-0.594624885916543,16.2420424441377,-3.76757157792093,-1.79983092531895,851.157427572112,1259.26357679462
0.69,2.4288223350832,0.064716049431532,20.7040950316212,-3.19144615878578,2.39214048669393,-0.425476197187059,20.9484922295679,0.0745182565690676,-1.7201810137395,884.832730046108,1259.26357679462
0.7,2.37357830842661,0.0688238578177893,18.5273447225753,-3.34303715400556,2.35073835086226,0.335618705413773,17.68953068418,6.44351643558511,-1.39999539124367,916.569877500798,1259.26357679462
0.71,2.30023139816756,0.0860402601005761,17.2855851565219,-4.23628135081073,1.78342820201992,1.45528391034673,10.1756371903399,14.6011623392512,-0.848985342629982,947.707213262997,1259.26357679462
0.72,2.13797489609413,0.0325707116395895,20.6978243839348,-1.58678235567556,0.196260789063537,2.12919684629242,0.00349784109260187,20.758559686009,-0.0766830431758166,977.372157744424,1259.26357679462
0.73,2.03596681859406,-0.0171144031596895,21.2125089690559,0.937811060589766,-1.61533106744667,1.23941894924723,-16.1431034096498,13.7931228752953,0.90791858692427,1005.53119626243,1259.26357679462
0.74,1.99270921008662,0.059375996316809,18.8476088457717,-2.86920868352757,-1.75388239290308,-0.947793256341911,-14.8684750444942,-11.9328608273161,2.09602492372067,1032.57892199745,1259.26357679462
0.75,1.89177866931878,0.0310612440519495,19.4697956696356,-1.45982388465072,0.596932969275044,-1.79540033551408,7.82268048507359,-17.8888149193849,-2.80419357195514,1058.6196139864,1259.26357679462
0.76,1.78347703502699,0.0076937400951248,20.5655805115692,-0.298424392665302,1.68603563128387,0.581492371529093,19.3141649681253,7.07072771926727,-1.23436956948464,1083.52742731722,1259.26357679462
0.77,1.74298737307577,0.0415591208701487,18.4039430379233,-1.99589419982699,-0.819686615247187,1.53878068483253,-10.7759043662258,15.0521957896509,0.513292151899385,1107.27052116569,1259.26357679462
0.78,1.61483444866215,0.0662852054636674,20.7320201737381,-3.23479707695418,-1.1037299283233,-1.18062029051376,-11.0736370989746,-17.8228823149784,2.43086605585218,1129.9228884033,1259.26357679462
0.79,1.56751694265869,0.019827720117326,19.1519103112619,-0.902906177106034,1.53165143560132,-0.333985604221975,18.9435108440427,-2.95876748611883,-1.77284305817076,1151.42405041675,1259.26357679462
0.8,1.49310648310072,0.0907483248830084,19.0175301753506,-4.44877659359463,-0.582798669986747,1.37766031321518,-12.4428191234586,15.0543787454342,0.460908711682552,1171.98862723298,1259.26357679462
0.81,1.42134808351467,0.0824153502673349,18.8602727336569,-4.04666699259922,-0.498768346603199,-1.33351145510536,-1.70761804452497,-19.2137826039259,2.84159499638975,1191.59918183415,1259.26357679462
0.82,1.2775521893677,0.0484656473826354,22.3829090679679,-2.41459220904563,1.04656218092813,0.734299746006612,16.3614535450274,15.4637547760825,-0.921058881917983,1210.31942897141,1259.26357679462
0.83,1.24511030368005,-0.0134525172810694,20.4519651454333,0.700746778426169,-1.17196876304765,0.420677854173471,-18.9298044796878,7.77408687360025,1.21536698446821,1227.93160673663,1259.26357679462
0.84,1.19723572197745,0.0752502978929357,19.4127076410192,-3.70659076215788,0.852346710525484,-0.844121476073336,17.0608529782862,-9.9759374841216,-2.28857528648693,1244.58506501197,1259.26357679462
0.85,1.06346093988935,0.0127785112229031,22.7733104847747,-0.558638402675846,-0.599006411469395,0.878808158836712,-13.5093629189954,18.3421062264879,0.610293692634892,1260.46900084223,1259.26357679462
0.86,0.977959094202606,0.00675862100709534,23.8230577514107,-0.340820703681246,0.446223689484576,-0.87024944000802,11.3181725593175,-20.965524302927,-2.66088332183615,1275.50669135776,1259.26357679462
0.87,1.06189648650865,0.0294536079440654,16.4859619944554,-1.4374433800446,-0.442736787597507,0.965647865418952,-8.57325540491856,14.1545921211279,0.45761877399822,1289.60816971211,1259.26357679462
0.88,0.918205037963794,0.0439336872493618,20.6322763143226,-2.12459546839661,0.430881499533623,-0.812017114337545,12.3579345226647,-16.6579166208869,-2.60593063909709,1302.97959434503,1259.26357679462
0.89,0.876349020664411,0.00636832986419572,19.7927619692653,-0.325418538053549,-0.565709630224102,0.669328600850465,-13.1330016846439,14.8116032335478,0.708961551603401,1315.67037566002,1259.26357679462
0.9,0.780272907447604,0.0677985050253396,21.7414478186926,-3.35317853351348,0.606225398687347,-0.495896373617287,19.8472974018495,-9.48784197660802,-2.16974779877727,1327.42524192037,1259.26357679462
0.91,0.647864715696002,0.0689283536672002,25.6218946758793,-3.41550502420607,-0.610175056072268,0.228399231019584,-25.6637225928325,3.08553140161731,1.3186184982935,1338.5682113948,1259.26357679462
0.92,0.657939112410786,-0.019326191893812,22.4464286218949,0.976783638178701,0.644682823780364,0.132821060286331,22.2771294952228,2.91989136899131,-1.39697923466112,1349.00859918382,1259.26357679462
0.93,0.647843851648142,0.0389872279608254,20.4055128736156,-1.88642921032991,-0.53071030885335,-0.373588313707952,-14.773604508344,-14.2015555708491,2.24426930378642,1358.66967261406,1259.26357679462
0.94,0.605139147814703,0.00629135346014731,20.0743336515155,-0.321276924558187,0.201537255286114,0.570627465232796,6.184076849642,19.1007665797041,-0.329113549865922,1367.71458652751,1259.26357679462
0.95,0.546308747936001,0.0678295179795441,20.6454179371031,-3.3367157222441,0.098286238666425,-0.541658478074095,9.34553159503822,-18.7090350583581,-2.83856393730421,1376.0739813345,1259.26357679462
0.96,0.462643840204554,-0.00559446392842756,22.5325747673577,0.263237701025159,-0.390944713026276,0.247452727329214,-18.748580453247,12.5010779823953,0.994400984534168,1383.92576540437,1259.26357679462
0.97,0.433227514824051,-0.0169508617799656,21.8090763127956,0.902725672261871,0.424123998531725,0.0899569073788544,21.6477093574168,2.79774960164614,-1.40090019477064,1391.11195078718,1259.26357679462
