t,iq,id,vq,vd,ia,ib,va,vb,theta_e,omega,r
0,0,0,0,0,0,0,0,0,0,0,0
0.01,0.00124700127040107,0.000710943019249643,-0.0617331564519496,-0.0356051655273142,-0.000510884164772979,0.00134143561723472,0.0250310571644666,-0.0667244827254399,0.882049215801428,-0.0015551085487421,0
0.02,0.0013810081963129,0.000787992677426276,-0.0684708636371241,-0.0394639530796829,-0.000565355753387757,0.00148609857347089,0.0277794774122663,-0.0739862378729345,0.882037757653689,-0.00165181594989997,0
0.03,0.00142393309221467,0.000812592458259801,-0.070606356897616,-0.0406959406896049,-0.000582842397349317,0.00153237942239409,0.0286442425563788,-0.076294984050963,0.882026144762093,-0.00162922768184673,0
0.04,0.00139872844355728,0.00079878870909307,-0.0693847900777279,-0.0400046304566464,-0.000572141108133678,0.00150570887391099,0.0281397458721839,-0.0749851602275551,0.882015459761432,-0.0015244448908519,0
0.05,0.00142292571540489,0.00081274559305134,-0.0705960130019654,-0.0407036121956111,-0.000581934789065522,0.00153186973723622,0.0286297594896191,-0.0762949406521228,0.882004893356363,-0.00148460038221158,0
0.06,0.001422696304913,0.000812951157632405,-0.0706033700748864,-0.0407138984791619,-0.000581611543585852,0.00153188849890475,0.0286281301749193,-0.0763078472897168,0.881994788554648,-0.00141615531021366,0
0.07,0.00146235744351212,0.000835868536135168,-0.072574209266381,-0.0418616501904588,-0.000597648697875767,0.00157479571253653,0.0294193617620065,-0.0784468913394597,0.881985260562133,-0.00140339074042493,0
0.08,0.00142218280893366,0.000813290838371209,-0.0706126582596483,-0.0407309246410889,-0.000580970473217482,0.00153183525192967,0.0286230465554748,-0.0763274323850545,0.881976025437819,-0.00128895009956482,0
0.09,0.00142102086021313,0.000812947342689479,-0.070571485747026,-0.0407137154930179,-0.00058027847204426,0.00153083655627527,0.0286015365253866,-0.0762882254229057,0.881967326885679,-0.00122877844369604,0
0.1,0.00142050114446575,0.000812938552948567,-0.0705611552135343,-0.0407132908898372,-0.000579870181779672,0.00153050421906685,0.0285932002801442,-0.0762815677466617,0.881959054104387,-0.00117231223439542,0
0.11,0.00142001662532662,0.000812934975139171,-0.0705518116526981,-0.0407130856877047,-0.00057948637287722,0.00153019803739847,0.028585517398443,-0.0762756951378058,0.881951184982606,-0.00111861323720351,0
0.12,0.00141955558303176,0.000812931643373258,-0.0705429136680696,-0.0407129173354147,-0.000579121123379988,0.00152990674048103,0.028578184444623,-0.0762701231190178,0.881943699804104,-0.00106753446350456,0
0.13,0.00148703114053663,0.000851587859889637,-0.0738798505218291,-0.0426488809388901,-0.000606626737521714,0.00160264390847151,0.0299230225458495,-0.0798859942680068,0.88193621771527,-0.0011046786181505,0
0.14,0.00158456644426443,0.000908232545772878,-0.0788233383716126,-0.0454857633793367,-0.000645902512420143,0.00170837557871191,0.0319353660389385,-0.0852185762507551,0.881929173841341,-0.00118380531559797,0
0.15,0.00142086609685614,0.000814356096930958,-0.0706467374613363,-0.0407842599363769,-0.000579194727594226,0.00153185175044156,0.0286113579120958,-0.0763918030348472,0.88192240244573,-0.000925606219065836,0
0.16,0.00141791005763095,0.000812941028523097,-0.0705123731901735,-0.0407133918790023,-0.00057780298523674,0.00152888382738477,0.0285522182263068,-0.0762518582433298,0.881916315906978,-0.000880720632552527,0
0.17,0.00141751312014965,0.000812917203758487,-0.070503484693225,-0.0407121954356392,-0.000577502869297995,0.0015286164535015,0.028545676222086,-0.0762454495698027,0.881910531940228,-0.00084119793436438,0
0.18,0.00141717330449482,0.000812914434151073,-0.0704968868527773,-0.04071207749252,-0.000577233898804719,0.0015284014781119,0.0285402385071558,-0.076241321444771,0.881905030268204,-0.000803653747053253,0
0.19,0.00141685110659919,0.000812912098731593,-0.0704906602642416,-0.0407119432364321,-0.000576978664897296,0.00152819787946093,0.0285351182602285,-0.0762374090092913,0.881899797030044,-0.000767942173736069,0
0.2,0.00141654435290548,0.000812909881544453,-0.0704847216663365,-0.040711842773579,-0.000576735670199726,0.00152800403990968,0.0285302183510019,-0.0762336983967438,0.881894819127329,-0.00073397301891392,0
0.21,0.00141625250037009,0.000812907772406297,-0.0704790675000679,-0.040711742315281,-0.000576504482657373,0.00152781961393322,0.0285255565557306,-0.0762301616239319,0.881890084102017,-0.000701661255808914,0
0.22,0.00141597508332855,0.000812905765997992,-0.0704736969589073,-0.0407116389487783,-0.000576284727813623,0.00152764430856429,0.0285211331949855,-0.0762267962741809,0.881885580103614,-0.000670926018326541,0
0.23,0.00141571128687989,0.000812903857322046,-0.0704685907021367,-0.040711538494232,-0.0005760757623298,0.001527477608708,0.028516928775172,-0.0762235948728763,0.881881295860285,-0.000641690386101518,0
0.24,0.00141546041252907,0.00081290204162681,-0.0704637340931228,-0.0407114380404046,-0.000575877033436425,0.00152731907310767,0.0285129330269152,-0.0762205461792729,0.881877220649853,-0.000613881191798416,0
0.25,0.00141522137351193,0.000812900314388837,-0.0704590921695945,-0.0407113713278899,-0.000575687689325692,0.00152716801352612,0.0285090967314507,-0.0762176543086806,0.881873344273323,-0.000587428837989818,0
0.26,0.00142836558349669,0.000820461145966334,-0.0711131766105694,-0.0410900107461082,-0.000581022003481325,0.00154136243746524,0.0287730198082965,-0.0769258487237723,0.881869682942798,-0.000579801581054334,0
0.27,0.00137568264904997,0.00079049245746571,-0.0685252099782579,-0.0395891445620633,-0.000559400513660142,0.00148473975548717,0.027729139365841,-0.0741221937057319,0.881866059285715,-0.000486965302789849,0
0.28,0.00136081627911251,0.000781782652279413,-0.0676825748133565,-0.0391529492273422,-0.000553456749052599,0.00146856756325025,0.0273557347934986,-0.0732499019826799,0.881862691662679,-0.000444953103821692,0
0.29,0.00141352750312483,0.000812426101522428,-0.0704008584848707,-0.0406876254649619,-0.000574660690385789,0.00152573302495901,0.0284781960424053,-0.0761626948811171,0.881859640855457,-0.000492813698450703,0
0.3,0.00140940459275651,0.000810241992314702,-0.0702024644055948,-0.0405782304949874,-0.000572862758882869,0.00152142750457534,0.0283944037520624,-0.0759521996672117,0.881857117328819,-0.000470442044749206,0
0.31,0.0014139680852286,0.0008128519098813,-0.0704325127782735,-0.0407089379022229,-0.000574721836731036,0.00152634490985072,0.0284886698974224,-0.0761994236780332,0.88185423227339,-0.000456909852743994,0
0.32,0.00141387340374501,0.000812889968535055,-0.0704329050401855,-0.0407108381977999,-0.00057462035125338,0.00152631567989321,0.0284875547317098,-0.0762012183929829,0.881851477690381,-0.000438209907119552,0
0.33,0.00141371290607622,0.000812889391475849,-0.0704298072039719,-0.0407108342033298,-0.0005744928279784,0.00152621470775963,0.0284849663294286,-0.0761993205844447,0.881848857344027,-0.00042033022418497,0
0.34,0.00141355943230904,0.000812888289167185,-0.0704268190004697,-0.0407107673899796,-0.000574371256108401,0.0015261177213739,0.0284825122415668,-0.0761974403271852,0.88184636484449,-0.000403321453918637,0
0.35,0.00141341352553253,0.000812887232266378,-0.0704239785477336,-0.0407106976554098,-0.000574255682494898,0.00152602551016105,0.0284801833372937,-0.0761956482691497,0.881843993956717,-0.000387142536871044,0
0.36,0.00141327444824311,0.000812886226762591,-0.0704212601864646,-0.0407106645150674,-0.000574145524920912,0.00152593761338086,0.0284779342353295,-0.0761939587709968,0.88184173874716,-0.000371753006269638,0
0.37,0.00141314251130719,0.000812885270276275,-0.0704186901278568,-0.0407105976663228,-0.000574041016188217,0.00152585423013777,0.0284758294306778,-0.0761923343907198,0.881839593572011,-0.000357114347458437,0
0.38,0.00141301670536349,0.000812884360421124,-0.0704162281162948,-0.0407105644959979,-0.000573941370430427,0.00152577472005601,0.0284737945995607,-0.0761908017073643,0.881837553062174,-0.000343189924600551,0
0.39,0.00141289695301619,0.000812883494925555,-0.0704138799926631,-0.0407105313103518,-0.000573846521509063,0.00152569903516938,0.0284718552807674,-0.0761893385721607,0.881835612111024,-0.000329944889355346,0
0.4,0.00141278325426529,0.00081288267162854,-0.0704116549206504,-0.0407104981091393,-0.000573756463342187,0.00152562717665209,0.0284700181770268,-0.0761879509499944,0.881833765861168,-0.000317346093669337,0
0.41,0.00141267529888246,0.000812881888474084,-0.0704095462334736,-0.0407104312134193,-0.000573670950678718,0.00152555894839538,0.0284682992003216,-0.0761866087381974,0.881832009691683,-0.000305362006819124,0
0.42,0.00141257231033599,0.000812881143505453,-0.0704075233564994,-0.0407103950763312,-0.000573589378612946,0.00152549385778413,0.0284666334391523,-0.0761853423770473,0.881830339207879,-0.000293962636497919,0
0.43,0.00141247444406754,0.000812880434862932,-0.0704056019946112,-0.0407103618359615,-0.000573511861902265,0.00152543200464139,0.0284650504098568,-0.076184140463766,0.881828750228612,-0.000283119453756962,0
0.44,0.00141238135082696,0.000812879760775755,-0.0704037722759758,-0.0407103285827114,-0.000573438125989609,0.00152537316788521,0.0284635440385704,-0.0761829945904212,0.88182723877767,-0.000272805321604175,0
0.45,0.0014122927977836,0.000812879119559841,-0.0704020296942025,-0.040710295317351,-0.000573367986425423,0.00152531720039809,0.0284621105575813,-0.0761819020010483,0.881825801071942,-0.000262994427090765,0
0.46,0.00141220866852214,0.000812878509612663,-0.0704003752669738,-0.0407102620396206,-0.000573301348854809,0.00152526402902594,0.0284607504780312,-0.0761808634454386,0.881824433513518,-0.000253662216711926,0
0.47,0.0014121284973813,0.000812877929411122,-0.0703987922307178,-0.0407102287513104,-0.000573237849559518,0.00152521335854118,0.0284594505978146,-0.0761798683655882,0.881823132679825,-0.00024478533495055,0
0.48,0.00141205201251507,0.000812877377504548,-0.0703972731022867,-0.0407102291172978,-0.000573177274639022,0.00152516501688962,0.0284581834900152,-0.0761789380831044,0.881821895315331,-0.000236341565833086,0
0.49,0.00141197964120046,0.000812876852513703,-0.0703958451724478,-0.0407101958051755,-0.000573119950043332,0.00152511927644348,0.0284570127903422,-0.0761780380627466,0.881820718323241,-0.000228309777326173,0
0.5,0.00141191076234077,0.000812876353126935,-0.0703944829483936,-0.0407101595728377,-0.000573065392673843,0.00152507574303908,0.0284558990420537,-0.076177175923803,0.881819598757972,-0.0002206698684521,0
0.51,4.68133793526441,-0.0362698846801851,5.93447997069841,1.82159148298561,-0.380896237794355,4.66595739636727,1.37964209455012,6.05250656707216,0.073704812875075,22.6437266634846,2817.95005028312
0.52,4.61366805323549,-0.0293294118753039,9.31953615274347,1.48004824299878,-1.53569708625159,4.35068127758459,-1.64733444274955,9.29142540935606,0.332968846263141,48.0813606439051,2817.95005028312
0.53,4.61533827183001,0.0527413190009238,9.23764323284651,-2.62313783370419,-3.20785530674465,3.31870356331188,-8.36072477632208,4.72368349982928,0.779842518452974,73.9615044147813,2817.95005028312
0.54,4.63276734511518,-0.0303625933342737,8.3679257456725,1.54644985210638,-4.58534342832468,0.661876729730825,-8.04311513983859,2.77884639328405,1.42088655320191,101.311030211678,2817.95005028312
0.55,4.59990630389645,-0.0317756409066159,10.0129152502174,1.61405300209716,-3.50316539129945,-2.98127153026743,-8.70758317956286,-5.20015711999253,2.2689757546756,129.769238063705,2817.95005028312
0.56,4.61240517257297,0.0763510208807321,9.38985384067151,-3.79083918933414,0.725435617763699,-4.55563981443301,5.36319613764099,-8.58929240960848,-2.96712756945848,155.618686193307,2817.95005028312
0.57,4.59204188603373,0.0585843685926569,10.4099004164776,-2.88844499013983,4.52271867082594,-0.797054976707394,10.7391149416083,1.17496868595324,-1.73248157056068,181.662751139883,2817.95005028312
0.58,4.48072907567178,0.00879883710745166,15.9775665425021,-0.403508804056626,1.32003794606251,4.28188162961799,4.29121056814716,15.3958099441002,-0.297076157669268,209.463787366338,2817.95005028312
0.59,4.49300202136732,0.0051032574810792,15.3659281124211,-0.198353339940031,-4.36373153847953,1.0700188163424,-14.9749836975631,3.44977594363414,1.33146932763913,235.014501028639,2817.95005028312
0.6,4.52722242795517,0.0706276882680567,13.6570313101572,-3.48895831331802,-0.00363197184789583,-4.52777185725064,3.69065544401627,-13.6039110814588,-3.12679540648719,262.508945647807,2817.95005028312
0.61,4.4471465764699,-0.0280423776031882,17.662943907803,1.47371127125084,3.96895502896479,2.00631379041383,16.4698461798245,6.54947167442754,-1.10906261299638,288.567052932777,2817.95005028312
0.62,4.55041948414121,0.0150007290665608,12.5016007046798,-0.679909619656701,-4.06033692841272,2.05431412673243,-11.4786018658605,4.99939961147503,1.10569921931758,314.951064737723,2817.95005028312
0.63,4.44916343986559,0.0233231263937876,17.5667914450706,-1.10669178777643,1.59273503050444,-4.15437051855818,7.40572299613876,-15.9678487997663,-2.77024654869036,341.896589258139,2817.95005028312
0.64,4.42277198830362,-0.0582937819014571,18.8888707840085,2.97845311753654,0.690202335796796,4.36897367366664,6.12869751890366,18.1135222745361,-0.169862859870169,368.285413426701,2817.95005028312
0.65,4.48452947303761,-0.0111392964428383,15.8034802792196,0.643804225755165,-2.20865912055751,-3.90294165568054,-8.37694948800244,-13.4160795351041,2.62414324310916,394.30129641896,2817.95005028312
0.66,4.49944409912351,0.0348872299712555,15.060324616398,-1.64501170726875,2.82777504305856,3.49998608937344,8.08605074484527,12.8115270135969,-0.671809525815271,420.423487145932,2817.95005028312
0.67,4.42062783231379,0.0925448588787487,19.0037762935874,-4.52835353629183,-2.69095605464392,-3.50845699627449,-7.59737498070906,-17.998038575602,2.50823721212561,446.679570363935,2817.95005028312
0.68,4.50641762626233,0.124075855671721,14.7168931619722,-6.0994459623022,1.87873427916621,4.09799367355957,0.150252778140095,15.9300850434205,-0.402334326795929,473.007138279933,2817.95005028312
0.69,4.43386848805048,0.0818360391589342,18.3470696489804,-3.98004411945075,0.0120384539316808,-4.43460730868689,4.36752320833148,-18.258709070523,-3.12042306607926,499.355864958127,2817.95005028312
0.7,4.3970284671973,-0.00334022873552664,20.1917203394894,0.249826258056982,-2.61867663813374,3.53219523290602,-11.8121693232678,16.378053587219,0.637197721093989,525.892468286126,2817.95005028312
0.71,4.31061083096176,0.0520772811427674,24.5154069097917,-2.52008658074283,4.2705274646739,-0.588789395864074,24.6383604244066,-0.554263406819324,-1.69572471536245,552.160575779798,2817.95005028312
0.72,4.39750126049675,0.0344107689216044,20.1737549918459,-1.60862486352486,-2.84357816849636,-3.35458859425999,-11.6886548344542,-16.5209991399906,2.44627877532535,578.06707825958,2817.95005028312
0.73,4.34886297621192,0.0786843133572257,22.6085977238989,-3.80048220550916,-2.00077641489077,3.86208417109883,-14.1036164107628,18.0743010977891,0.496079060853909,603.992856481234,2817.95005028312
0.74,4.35477044523026,0.00262716050988643,22.3162123488111,-0.0341317497255931,4.15023907292711,1.31891931905345,21.2536400796151,6.80421060371791,-1.26249285153801,630.47117383542,2817.95005028312
0.75,4.46566891648759,0.0767668214973056,16.7742507459805,-3.70326518739016,1.29679196890378,-4.27392356107978,8.67028098133285,-14.8295613165697,-2.82981286749369,656.253838352831,2817.95005028312
0.76,4.28608137046869,-0.00829024789122057,25.7567847723827,0.516682875880211,-3.74542240581323,-2.08383618466545,-22.7822152519754,-12.027035845034,2.07658183816018,682.471991597058,2817.95005028312
0.77,4.32621258917301,0.0560725671464598,23.7533034454105,-2.65868480026473,-3.32869182534448,2.76388679786099,-20.1417063794288,12.868554447248,0.890798128439534,708.248546750638,2817.95005028312
0.78,4.33704471169334,0.0813607843409438,23.2148894987044,-3.9610876680932,0.5341253388821,4.30479808246796,-1.51350522911463,23.5017150836448,-0.104688543048076,734.498412338895,2817.95005028312
0.79,4.35281588484137,0.111377206428411,22.4295246690874,-5.40229923185715,3.50464980361585,2.583958351726,14.3906578311418,18.0326753716336,-0.909894765296905,760.152595153466,2817.95005028312
0.8,4.38861908605228,0.110798102283686,20.6425842581902,-5.38598920808005,4.38906259173605,0.0915601865180737,20.3724515530222,6.33153870127961,-1.52469703583401,786.145382652403,2817.95005028312
0.81,4.36514754316636,-0.0147518195371723,21.8195276844816,0.877339706925608,4.06077172403699,-1.60151918347942,19.9461568112786,-8.88888867041837,-1.94983477554106,812.185481213433,2817.95005028312
0.82,4.21554770651466,0.0476808811820524,29.3028549722248,-2.26626626735526,3.41657579251557,-2.46984327161217,25.2470515107069,-15.0459184609482,-2.18541654315592,838.108259501667,2817.95005028312
0.83,4.3053735539763,0.10690528047416,24.8148775427835,-5.22652226411807,3.33461556733099,-2.72543743211719,22.8037531586205,-11.094301434582,-2.23118192100984,863.932868774334,2817.95005028312
0.84,4.32686756639552,0.0417753251116255,23.7436748689279,-1.93748631243911,3.74131591933447,-2.17395568185005,21.6009065557275,-10.045734690055,-2.08752369140722,889.648799544754,2817.95005028312
0.85,4.25767867784316,0.0231252989582631,27.2065420935957,-1.00002136061426,4.18170838889711,-0.801047722323514,26.9309110162025,-3.99023899655926,-1.75463202991264,915.470333418702,2817.95005028312
0.86,4.24359512412236,0.0145480437049461,27.9141983011725,-0.592751048060866,4.00814595794131,1.39394304147962,26.1370542602509,9.81876851742927,-1.2326745976866,941.318975892503,2817.95005028312
0.87,4.30553946308861,0.0376007909343912,24.820502346311,-1.74077942402234,2.17798831446462,3.71422277061403,10.8584183465409,22.3871034468024,-0.521620185272832,967.144763353033,2817.95005028312
0.88,4.26825435120448,0.0498298876840533,26.6883413362855,-2.33555776807354,-1.52977394539758,3.98500563365541,-12.0253510406557,23.9397854150595,0.378209246122388,992.841034655566,2817.95005028312
0.89,4.34676084850821,0.125314694556257,22.7666628858841,-6.07341151272461,-2.29328181288922,3.69471137891271,-17.6245468615142,15.6391372616484,0.584317672970283,1018.39666416995,2817.95005028312
0.9,4.17443927254475,0.0698656024658164,31.3863489018943,-3.27013352316453,-4.02015797969824,-1.12656746839255,-29.1412000493346,-12.1073172228793,1.86075293408588,1044.05053006712,2817.95005028312
0.91,4.20684327397817,0.0674921200140495,29.7698821530305,-3.22821509416128,0.703474003046745,-4.14815740360907,8.62140904541828,-28.6764461217054,-2.95756178602604,1069.91834254594,2817.95005028312
0.92,4.30548449595852,0.15319324414149,24.8415730773645,-7.45468263568077,4.19427851964405,0.984221832028899,22.007513060996,13.7238994104027,-1.30474235674858,1095.38406233721,2817.95005028312
0.93,4.13421809228812,0.0861951892636932,33.4086621257635,-4.16195517447355,-2.03672593047425,3.59874093668722,-20.6362964134919,26.6008241647181,0.535856452810946,1121.10247621307,2817.95005028312
0.94,4.23654776949787,0.120230656273845,28.2960649846378,-5.80461332242928,-2.41297153659795,-3.48430205026969,-10.5796046556278,-26.8781099552849,2.56427186313529,1146.58963468706,2817.95005028312
0.95,4.22089200506418,0.15840538753183,29.0827059938866,-7.77036603422184,4.22196439724868,0.126642068754622,28.4923921203886,9.71421471301984,-1.50329802740725,1172.28076754183,2817.95005028312
0.96,4.17002822410806,0.207935967443884,31.6297629024327,-10.1622560550698,-3.13685726332802,2.75544901348598,-31.0917773022149,11.7053292812457,0.89986099590246,1197.66235868596,2817.95005028312
0.97,4.11790391741861,0.0949020535923577,34.2399556981816,-4.55492603634939,1.31714143210137,-3.90272693391551,15.9746171801923,-30.6257003733198,-2.79306132296982,1223.30798184001,2817.95005028312
0.98,4.07995440798201,0.124977751831536,36.1414743345349,-6.09388918907032,0.190287279810242,4.07743033794657,-5.51443447808563,36.2344127164966,-0.0160120270507054,1248.82235479201,2817.95005028312
