t,iq,id,vq,vd,ia,ib,va,vb,theta_e,omega,r
0,0,0,0,0,0,0,0,0,0,0,0
0.01,0.000965835645679834,0.00054460307388909,-0.0473933021879054,-0.027271762746421,0.00108630633475622,0.000222192595789612,-0.0536642743685198,-0.0104890319892458,-0.855612197070323,-0.00300258399409086,0
0.02,0.00106650474681221,0.000602696056094563,-0.0525129131303041,-0.0301808514137076,0.00120040887910321,0.000244322397612463,-0.0594373458864035,-0.0116486802457271,-0.855633860610379,-0.00305355896486436,0
0.03,0.00110048593984448,0.000622584971983567,-0.0542274667185134,-0.0311768361908551,0.00123911147567745,0.000251563316045136,-0.0613851708663651,-0.0120197362402864,-0.8556548795039,-0.00288901965580382,0
0.04,0.00107803404088606,0.000611273752066957,-0.0531922594461804,-0.0306103918944339,0.00121474774264604,0.000245358747574841,-0.0602323735681644,-0.0117674861914382,-0.855673230097927,-0.00257025384832697,0
0.05,0.00109721170793649,0.000622741865198613,-0.0541765594669324,-0.0311846708119355,0.00123675121281755,0.000249253686629277,-0.061352301169503,-0.0119782482245715,-0.855690603720656,-0.00240431263300202,0
0.06,0.00109605948620158,0.00062295977073596,-0.0541685303582177,-0.031195583211974,0.00123602807303362,0.000248314067101865,-0.0613535838257865,-0.0119637721825743,-0.855706450487816,-0.00219031173602632,0
0.07,0.0011257960976885,0.00064052257665342,-0.0556560299007491,-0.0320750721409407,0.00126999951675773,0.000254533400968343,-0.0630535389700685,-0.0122741655728476,-0.855720626435952,-0.00210224893598681,0
0.08,0.00109397365895685,0.000623296903541853,-0.0541498512570226,-0.0312124642380337,0.00123468100338591,0.000246658096024167,-0.0613508756990792,-0.0119371003985198,-0.855733808254076,-0.00182053731115252,0
0.09,0.00109213565665606,0.000622960504619777,-0.0540961074029907,-0.0311956441578108,0.00123307553873087,0.000245692487958567,-0.0612994079909137,-0.0119138419722675,-0.855745562409017,-0.00165850213033669,0
0.1,0.00109104872542775,0.000622951269443026,-0.0540754653438478,-0.0311951671162285,0.00123225139079349,0.000244973703171778,-0.0612836357857318,-0.0119000163212023,-0.855756197581125,-0.00151382574557388,0
0.11,0.00109007674807401,0.000622948623671334,-0.0540573508917265,-0.0311950304368737,0.00123151810009982,0.000244326571522933,-0.0612699829824968,-0.0118876530363765,-0.855765823636534,-0.00138291826146412,0
0.12,0.00108919737263489,0.000622946338596693,-0.0540409693088039,-0.0311949284836715,0.00123085473275197,0.000243741018681404,-0.061257650321952,-0.0118764558673838,-0.855774536396344,-0.00126443182299606,0
0.13,0.00114136174984896,0.000652734009369787,-0.0566012052800607,-0.0326865699724518,0.00128977495442399,0.000255438638320097,-0.064168907973793,-0.0124281754562139,-0.855783118964414,-0.00132589176011196,0
0.14,0.00120976884322378,0.000692912645926301,-0.060124246382404,-0.0346985994520968,0.0013677723746492,0.000269939474819987,-0.0681483447016063,-0.0132182041677425,-0.855790765409205,-0.00145433952513287,0
0.15,0.00108945770558749,0.000624294467625858,-0.0541240011385355,-0.0312624336842342,0.00123194083913664,0.00024286507249814,-0.0613648812100257,-0.0118784937254167,-0.855797821193075,-0.00095654760626514,0
0.16,0.00108632870649358,0.000622964950895409,-0.0539891749673567,-0.0311958532782689,0.00122870787360179,0.000241810566239581,-0.0612194909439392,-0.0118400255058879,-0.855803513262331,-0.000870556962871952,0
0.17,0.00108575578658972,0.000622937899843608,-0.0539768523573954,-0.0311944879240276,0.00122825876834772,0.00024144906947756,-0.0612093518112389,-0.0118326631872268,-0.855808650453935,-0.000800512010850426,0
0.18,0.00108528524877238,0.000622936182070631,-0.0539680262486328,-0.0311944112935119,0.00122790345960355,0.00024113616906074,-0.0612026919536039,-0.0118266500224775,-0.855813299925667,-0.000737279061783001,0
0.19,0.0010848604622029,0.000622935067701177,-0.0539600868932979,-0.0311943607760671,0.00122758298442601,0.000240853352417359,-0.0611967135404653,-0.0118212255543122,-0.85581750826166,-0.000680049033900324,0
0.2,0.00108447607174909,0.000622934067411726,-0.0539529008703946,-0.0311943101877342,0.00122729298912226,0.000240597425983325,-0.0611912991670849,-0.0118163195058157,-0.855821317322069,-0.000628248909724358,0
0.21,0.00108412811928674,0.000622933162047868,-0.0539463904487671,-0.0311942566235562,0.00122703048202201,0.000240365762112667,-0.0611863886922483,-0.0118118807794619,-0.855824764989106,-0.000581363440688938,0
0.22,0.00108381304768698,0.000622932342466973,-0.0539404865648383,-0.0311942317483433,0.00122679277982591,0.000240155993043972,-0.06118195113862,-0.0118078380786817,-0.855827885550836,-0.000538926336258169,0
0.23,0.00108352819233076,0.000622931600548988,-0.0539351544222543,-0.0311941809696206,0.00122657787296905,0.000239966339474521,-0.0611779248143913,-0.0118042079074602,-0.855830710042011,-0.00050051554780241,0
0.24,0.00108326993140388,0.00062293092894261,-0.0539303019864645,-0.0311941530560942,0.00122638302880868,0.000239794397697525,-0.0611742725329809,-0.0118008913773012,-0.855833266553135,-0.000465749069532957,0
0.25,0.00108303646694364,0.00062293032099157,-0.0539259200598649,-0.0311941279927642,0.00122620689166971,0.000239638962529345,-0.0611709745324235,-0.0117978960109629,-0.855835580509362,-0.000434281139316062,0
0.26,0.00109361426546837,0.000628926900191621,-0.0544459722540747,-0.0314944160960723,0.00123812616675539,0.000242042976795793,-0.0617605653675849,-0.0119119564052377,-0.855837624241539,-0.000442721616901731,0
0.27,0.00105352979502232,0.000606319784897899,-0.0525049325663713,-0.0303623345173986,0.00119303715231955,0.000232832694748106,-0.0595526943082046,-0.0114941681638623,-0.855839759229645,-0.00027973197948794,0
0.28,0.00104474692717082,0.000600988269043513,-0.0519204863240369,-0.0300953507928854,0.00118291016547549,0.000231098640791173,-0.0589363557678713,-0.0113125155590716,-0.85584152121307,-0.000226858448742636,0
0.29,0.00108149943563301,0.000622503770166291,-0.0538730200799124,-0.0311727616707975,0.00122476834167527,0.000238944517358666,-0.061117106684552,-0.0117789062830163,-0.855842833195878,-0.000332945482696866,0
0.3,0.0010776534183038,0.000620507115765347,-0.0536875321973832,-0.0310727805845112,0.001220555257965,0.000237930311123402,-0.0609114998052916,-0.0117327745298457,-0.855843280919766,-0.000314086873248169,0
0.31,0.00108202595321829,0.000622881085444724,-0.053903968689947,-0.0311916538850815,0.00122541371539162,0.000239002586121674,-0.0611528831494204,-0.0117848205385927,-0.855844618001937,-0.000311047847665122,0
0.32,0.00108199761535144,0.000622926714005519,-0.0539062888768476,-0.031193927341414,0.0012254225254117,0.000238948037994733,-0.0611561401853237,-0.0117845492526696,-0.855845854390961,-0.000294557425990273,0
0.33,0.00108188643877286,0.000622927309087832,-0.0539042302560361,-0.0311939714160942,0.00122533923069624,0.000238873331547889,-0.0611546277551919,-0.0117830979087749,-0.855846974033281,-0.000279338094627633,0
0.34,0.00108178440721261,0.000622927059889276,-0.0539022948359416,-0.0311939489286379,0.0012252622626096,0.000238805388246246,-0.0611531634659825,-0.0117817840943582,-0.85584798745905,-0.000265556463148046,0
0.35,0.00108169174061661,0.00062292681907605,-0.0539005227622792,-0.0311939492952256,0.00122519234867293,0.000238743696033455,-0.0611518363714885,-0.0117805659912746,-0.855848904733861,-0.000253082261170882,0
0.36,0.00108160768875082,0.000622926600807206,-0.0538989053664354,-0.0311939467247962,0.00122512893385769,0.000238687741165823,-0.0611506231258196,-0.0117794568335455,-0.855849734979937,-0.000241791574404663,0
0.37,0.00108153208346474,0.000622926403234282,-0.0538974604431868,-0.0311939212536895,0.00122507189197593,0.00023863740465504,-0.0611495241764224,-0.0117784828566078,-0.855850486454604,-0.000231572116972774,0
0.38,0.00108146328200967,0.000622926224400936,-0.0538961295871516,-0.0311939215481408,0.00122501998306502,0.000238591601849085,-0.0611485274126446,-0.0117775685645066,-0.855851166631031,-0.00022232225363324,0
0.39,0.00108140129731598,0.000622926062530442,-0.0538949348666326,-0.0311938960395329,0.00122497321735694,0.00023855033425788,-0.0611476157717688,-0.0117767669515828,-0.855851782274231,-0.000213949991960862,0
0.4,0.00108134506871565,0.000622925916013785,-0.0538938426664024,-0.0311938962961505,0.00122493079433123,0.000238512900230445,-0.061146797749271,-0.0117760166650561,-0.85585233950687,-0.000206372067515648,0
0.41,0.00108129407880479,0.000622925783395263,-0.0538928447249252,-0.0311938965363201,0.0012248923236606,0.000238478954866527,-0.0611460502702667,-0.0117753314182471,-0.855852843870546,-0.000199513115759218,0
0.42,0.00108124786192211,0.000622925663356674,-0.0538919336261766,-0.0311938967614887,0.00122485745405246,0.000238448187729755,-0.0611453677949036,-0.0117747060413673,-0.855853300381402,-0.000193304922535213,0
0.43,0.00108120648274011,0.000622925554705251,-0.0538911270479727,-0.0311938711944218,0.0012248262346522,0.00023842063654766,-0.0611447468269826,-0.0117741713109292,-0.855853713579534,-0.000187685745659241,0
0.44,0.00108116876417591,0.000622925456360187,-0.0538903791462498,-0.0311938713938169,0.00122479777688665,0.000238395525429359,-0.0611441865973235,-0.0117736579877383,-0.855854087574795,-0.000182599700875435,0
0.45,0.00108113453807136,0.000622925367344852,-0.0538896933506908,-0.0311938715821613,0.00122477195402616,0.000238372740311136,-0.0611436728405956,-0.0117731875580943,-0.855854426086007,-0.000177996206072523,0
0.46,0.00108110357159582,0.000622925286773774,-0.0538890686396377,-0.0311938717602007,0.00122474859047975,0.000238352125094964,-0.0611432048255318,-0.011772759145693,-0.855854732480134,-0.000173829478232396,0
0.47,0.00108107539908799,0.00062292521384657,-0.0538884914278201,-0.0311938719294076,0.00122472733481724,0.000238333371374047,-0.0611427723303763,-0.0117723636568999,-0.855855009804099,-0.000170058078103087,0
0.48,0.00108105002054788,0.00062292514783731,-0.0538879704340373,-0.0311938720897698,0.00122470818722325,0.000238316476314678,-0.0611423819714971,-0.0117720066388083,-0.855855260816332,-0.000166644498075436,0
0.49,0.00108102720314485,0.000622925088090268,-0.0538875019843871,-0.0311938722420265,0.00122469097204768,0.000238301284714027,-0.0611420310045418,-0.0117716855296448,-0.855855488013351,-0.000163554789159796,0
0.5,0.00108100654588985,0.000622925034011437,-0.0538870731664287,-0.0311938466149823,0.00122467538664192,0.000238287531374032,-0.0611416928106606,-0.0117714111868498,-0.855855693654235,-0.000160758223353594,0
0.51,4.63558823995136,-0.0160291265854967,8.22202909686929,0.812050903868768,-0.839104820509871,4.55903919301771,-0.661181228448068,8.23553450137799,0.178558118494588,54.8616577410751,5534.65672594656
0.52,4.6619268077295,0.0467968916442936,6.90675165287142,-2.32173411114871,-3.33678266167796,3.25601489222944,-6.59615820153589,3.0958625062532,0.807686224309732,117.044789804288,5534.65672594656
0.53,4.54945761296247,0.0602738824401834,12.5319687394803,-2.98362667080514,-4.31985890235186,-1.42829148874381,-10.8712448193336,-6.91146183351715,1.90336317409629,182.978509020529,5534.65672594656
0.54,4.58300701222737,0.0857165568491136,10.8565409816631,-4.25751839980086,1.51739989004025,-4.325366825594,7.77524888744928,-8.6911707927869,-2.78549177151451,250.502372540201,5534.65672594656
0.55,4.58880232447317,-0.0186906276017943,10.5688482875343,0.995137280896258,3.02232424079715,3.45297151684465,7.73937691391739,7.26587209611268,-0.723062836336314,312.476907771462,5534.65672594656
0.56,4.51450974403397,0.0674695734212827,14.2857001878865,-3.32440924333509,-4.3971637548852,-1.02484207809751,-13.0599184717991,-6.67618575125888,1.81472139408197,378.992594926489,5534.65672594656
0.57,4.49584221387682,0.00461532202668224,15.2214818321873,-0.174919380999737,4.46975852424431,0.483608569216458,15.1124797825712,1.82676237612747,-1.46199331989563,443.023210761122,5534.65672594656
0.58,4.54750056155451,0.0165938563563108,12.6410152771104,-0.735185251944445,-4.10766529884646,-1.95118489796841,-11.0805669226067,-6.1283604058875,2.0179023690142,506.050345300342,5534.65672594656
0.59,4.41314782455433,0.0975446394337858,19.3611839780788,-4.78126533432671,1.46107963217379,4.16540934200923,1.45750649576907,19.8894851126177,-0.315256543367612,570.085360284324,5534.65672594656
0.6,4.43199280359308,0.0266541436671415,18.4216202384304,-1.2186035936358,3.61848963867022,-2.55925836704928,15.8013900960637,-9.54762577604448,-2.18037257558139,634.022679048112,5534.65672594656
0.61,4.40288853748466,0.092420877076222,19.8796328329583,-4.50149340710603,-1.94476863594133,-3.95118261343262,-4.32309718909412,-19.9191886170371,2.70519307703006,698.089530686112,5534.65672594656
0.62,4.40300934048966,0.0855440743579995,19.8765028451592,-4.19043364667197,-4.32937532318308,-0.806423184258982,-18.6187985812718,-8.12252663220091,1.77437975575054,762.397403928632,5534.65672594656
0.63,4.42832919356882,0.0838022115134442,18.6135123103952,-4.06731783902674,-4.25588460662328,1.22660852449974,-19.0320704789837,0.886683830853691,1.3091083463381,825.200406770853,5534.65672594656
0.64,4.42224387569507,0.0234931386116691,18.9209126537932,-1.0341468513802,-4.26261139420565,1.17768286294426,-18.5342651906429,3.94352750790616,1.30655107111686,888.453672914968,5534.65672594656
0.65,4.35554240423725,0.0413359285320652,22.2592083422179,-1.92192513979836,-4.27882407365643,-0.81493732323079,-21.4481607985879,-6.25640077226271,1.76849065023919,951.491885536536,5534.65672594656
0.66,4.32517651583558,0.124394524506512,23.7808565396499,-6.10736095209425,-1.9944382908447,-3.83990127410527,-4.85154795842669,-24.0684747743944,2.69129972865816,1014.89657286923,5534.65672594656
0.67,4.25176678832577,0.08891421468626,27.4547136736904,-4.29226536948459,3.36448224186625,-2.601093194034,24.6206105376344,-12.8845016069899,-2.20801124324367,1077.3651656872,5534.65672594656
0.68,4.29396957212159,0.114931806733425,25.3480099548383,-5.55341785712601,1.63304556741577,3.97297699228787,3.81485417948309,25.6672738356785,-0.363226280696865,1139.88606005823,5534.65672594656
0.69,4.3337721172314,0.0755294949162238,23.361400106367,-3.56782376761746,-4.06753265968456,-1.49748573652443,-20.4881349934751,-11.7779754565749,1.94097949648759,1202.5658568794,5534.65672594656
0.7,4.2598910435284,0.0947122583961699,27.0590555982409,-4.52572003193468,4.2590158468865,-0.128164466969695,27.0937639367717,4.31307169133972,-1.57864992516428,1265.31835430496,5534.65672594656
0.71,4.27878792564439,0.0931328791828909,26.1179419296724,-4.5111499087983,-4.27436299503811,-0.215686885261894,-25.7245990463669,-6.38297485856337,1.64297690106676,1328.07869916299,5534.65672594656
0.72,4.24671993488118,0.10404776862326,27.7251372473098,-5.01565938138054,3.54231251567251,2.34467016545667,19.8676578069982,19.9778939749969,-0.961602498552989,1390.12944983074,5534.65672594656
0.73,4.26379296962782,0.0930737736209042,26.8753492927174,-4.40683626978093,0.0397299760583706,-4.26462363452932,5.24149782723918,-26.7251062868096,-3.11045134726678,1452.04575127128,5534.65672594656
0.74,4.26385160990853,0.0969061084842402,26.8763880263022,-4.65271085783733,-4.23733398876628,0.484584371216372,-27.1883077433636,-2.18720683044702,1.47965377921519,1514.44269046284,5534.65672594656
0.75,4.10777084492396,0.193615126890128,34.6844744227135,-9.50358134897731,-0.790595916387249,4.0356196833646,-17.4931738029705,31.4216437306447,0.240553471892647,1576.28186581243,5534.65672594656
0.76,4.17461990779532,0.182662361944828,31.3460316658304,-8.8749509396763,2.31736676554326,3.47715806183553,8.63374721989039,31.4133230384806,-0.544127975271709,1637.98470440392,5534.65672594656
0.77,4.14198849886657,0.136725745766018,32.981753623092,-6.59353307740186,3.26776295908996,2.54882088376132,21.0984215314579,26.1940328964069,-0.875378838905027,1699.90322475013,5534.65672594656
0.78,4.12350538673481,0.125140641232114,33.9101460355192,-6.01859791739545,-0.292725309899466,4.11500531560571,-9.41880001260955,33.1271449322754,0.101355252376495,1761.63900246006,5534.65672594656
0.79,4.15809906762771,0.174523490057415,32.1847607101935,-8.47181141698843,-2.45916840294741,3.35748969778514,-26.7086430901773,19.8564547424497,0.67411665995676,1823.16443517748,5534.65672594656
0.8,4.12399417801338,0.185773457117121,33.8943404840317,-9.00021415385262,-4.1142259532684,-0.33909373794013,-32.4780971274892,-13.2288842552974,1.69804681165378,1884.56370051524,5534.65672594656
0.81,3.96562734838543,0.193416973773453,41.8171543180366,-9.38322763758263,-0.071459674304783,-3.96969821358682,10.6638605582299,-41.5090524362073,-3.11085725461089,1945.9984114877,5534.65672594656
0.82,4.07924541010379,0.169027199550111,36.1407185507034,-8.23286040520216,3.84584747989697,1.37050008077734,30.4299216201474,21.1648623431476,-1.18705606191243,2007.48086776518,5534.65672594656
0.83,4.06500534576158,0.148718839705754,36.8572015552535,-7.11113873142789,-3.71116359782205,1.66542802442919,-36.8280007320398,7.26085137040213,1.18554150529038,2068.39544781547,5534.65672594656
0.84,4.08866472962086,0.193049273028492,35.6787376040433,-9.41713087538456,2.9867363196468,-2.79890218656621,33.2637747830514,-15.9742279351688,-2.27655961902469,2129.85738185071,5534.65672594656
0.85,4.01304090628044,0.155764404394315,39.4644271569466,-7.52774624646424,-3.27462100896793,2.32499830382353,-37.1571120333356,15.2792997129859,0.99218198703038,2190.72376331849,5534.65672594656
0.86,3.94735687361553,0.141626011119927,42.7531595922298,-6.7368476074943,3.94672815558086,-0.158180531832618,42.7810388396088,6.55747562779731,-1.57499047884267,2251.53535092118,5534.65672594656
0.87,3.99500102650444,0.151034450624209,40.3754202446444,-7.21791398387473,-2.23017104415513,-3.31800869812888,-15.1027464823963,-38.1337106888213,2.58759727818093,2312.45146529466,5534.65672594656
0.88,3.96611328789001,0.20545072906023,41.8242172765542,-9.94242109673674,-3.01252400636949,2.58784924705761,-39.1729152774677,17.7087435106388,0.912838310869663,2373.2453887736,5534.65672594656
0.89,3.95079669029122,0.15140932735486,42.5944116870702,-7.21034331805914,1.37454814420088,3.70706577655429,6.41654492854268,42.7211997597434,-0.316770851527454,2433.91875529465,5534.65672594656
0.9,3.93056572025696,0.250547005751445,43.6102435665761,-12.149957996684,1.20003853089398,3.75127021257066,-1.16588455610133,45.2561104875256,-0.245956850479415,2494.59956049302,5534.65672594656
0.91,3.86041607755756,0.167081057459942,47.1219241410092,-8.12078941511111,2.2762084320698,3.12243551501087,19.3230019914047,43.7383647329867,-0.58666165850706,2555.31138292516,5534.65672594656
0.92,3.90329154063384,0.243790783631247,44.9823228588168,-11.8527694242053,2.03381689386704,3.34046518311272,10.4634955355173,45.3256304310974,-0.484519202897742,2615.46703221343,5534.65672594656
0.93,3.86458236346231,0.138605441729805,46.9218113575626,-6.68492779894286,-0.0905863786289044,3.86600600367717,-9.45296222208133,46.4433649295534,0.0592774298928176,2675.79962123738,5534.65672594656
0.94,3.85639673047101,0.221431713441661,47.3350828422122,-10.6968734744862,-3.22289251483994,2.12927019992624,-46.300075737685,14.5374054250713,1.04431272076858,2735.74081914058,5534.65672594656
0.95,3.89383587382731,0.15272031492028,45.4670337070953,-7.34201048454463,-2.54429253721203,-2.95158547089205,-22.5688924400266,-40.1472460588247,2.46936901908047,2795.92042518644,5534.65672594656
0.96,3.82765432162552,0.120872074694302,48,-5.7867049121858,3.51231805378891,-1.52616170615301,46.7429321582581,-12.3524996251445,-1.94913207859683,2855.93134806781,5534.65672594656
0.97,3.72114532852955,0.22311826392595,48,-10.9097541593112,-1.08433918598121,3.56663887231105,-26.9151126293042,41.2140685684934,0.355031115675823,2915.66266940899,5534.65672594656
0.98,3.71865017121044,0.172653312904953,48,-8.3779588207172,-0.339629981153361,-3.70713093081459,6.21191866792199,-48.3280690744494,3.096628081636,2975.26662475128,5534.65672594656
