t,iq,id,vq,vd,ia,ib,va,vb,theta_e,omega,r
0,0,0,0,0,0,0,0,0,0,0,0
0.01,0.00057346918914123,0.000313682725173647,-0.0276138809262108,-0.0156996186088808,1.7359935277318e-05,0.000653423595850221,-0.00136538666822319,-0.0317354716920594,0.473969014517207,-0.00392961411439393,0
0.02,0.000644698376722504,0.000352965170483904,-0.0312972752092774,-0.0176656839035303,1.98221240633177e-05,0.000734729536578584,-0.00143454806489367,-0.0359101363845114,0.473940956548909,-0.00377303099783623,0
0.03,0.000669015896542878,0.000368600390962783,-0.0326040425021305,-0.0184482118520263,2.26548926916802e-05,0.000763501980273867,-0.00153536754715904,-0.0374299713399985,0.473915620459511,-0.00331862417577625,0
0.04,0.000648316562665169,0.000360326900798263,-0.03174792249727,-0.0180341394941547,2.47548695259948e-05,0.000741307653609223,-0.00155837957792793,-0.0364792026129737,0.473895392013217,-0.00264193141588594,0
0.05,0.000660500248735943,0.000369107468813485,-0.032430919728598,-0.0184735998124419,2.7020786869277e-05,0.000756155261299626,-0.00163836579742066,-0.0372874536806533,0.473878084051223,-0.00229685687251399,0
0.06,0.000658138938720382,0.000369720437794734,-0.0324077284038062,-0.0185042792390245,2.86546784243227e-05,0.000754333463520954,-0.00167678671261579,-0.0372807939396555,0.473863624583992,-0.00191045072325923,0
0.07,0.000671134463934905,0.000378742668963728,-0.0330937796510688,-0.0189558242865751,3.07614410879328e-05,0.000770013773719116,-0.00176595263472245,-0.0380972825444141,0.473852078038905,-0.00171833061826354,0
0.08,0.000653971064981423,0.000370391497992565,-0.0323425754473168,-0.0185378662222868,3.11699190620974e-05,0.000750930390757875,-0.00173720762180432,-0.0372381092473762,0.473842041269833,-0.00132863718042837,0
0.09,0.00065064412262029,0.000369802597475989,-0.0322336578337164,-0.0185083886727194,3.21699467618423e-05,0.000747701029774371,-0.00176097246083372,-0.0371277271670882,0.473834106958861,-0.00110070973455972,0
0.1,0.000648841381426508,0.000369759452132468,-0.0321878909874015,-0.0185062333737576,3.29589698252152e-05,0.000746077004739338,-0.00178017777074118,-0.0370860076983946,0.473827644218234,-0.000922156087112719,0
0.11,0.000647446620499051,0.000369754971731824,-0.0321541985713474,-0.018505996242384,3.35953397152457e-05,0.000744833685238162,-0.00179553615605374,-0.0370559095503143,0.473822363240149,-0.000776862929558975,0
0.12,0.000646313033790822,0.000369753471000906,-0.0321269613701512,-0.0185059245873135,3.41144604916346e-05,0.00074382415297601,-0.00180806033803455,-0.0370316325527858,0.473818046479084,-0.000658150161804547,0
0.13,0.000676466946895764,0.000386812004566423,-0.0335811756725627,-0.0193596959280502,3.55382193357193e-05,0.000778439523717557,-0.00190440184388221,-0.0387151964943367,0.473813732752829,-0.000784338515632444,0
0.14,0.000699860614507527,0.000401135134599486,-0.0348571340206967,-0.0200765689149371,3.76122099450393e-05,0.000805791286631998,-0.00196024704267083,-0.0401776784180561,0.473810120368406,-0.000875475087894703,0
0.15,0.000648181590072169,0.000371955133683524,-0.0322830633803055,-0.0186161278362457,3.5229217015354e-05,0.000746491056510725,-0.0018353064781199,-0.0372208012670823,0.473807003931943,-0.000391787736328878,0
0.16,0.000643403268674311,0.000369904568592516,-0.0320665973826792,-0.0185134921179011,3.5585973240262e-05,0.000741303442940168,-0.00184280507368668,-0.0369813483740497,0.473805402391566,-0.000313644949269966,0
0.17,0.000642707501959726,0.00036976016164926,-0.0320411563323418,-0.0185062670308876,3.577584545816e-05,0.000740618389658231,-0.00184802943426861,-0.03695541104821,0.473804174271759,-0.000276950796283207,0
0.18,0.000642413903514385,0.000369749740923763,-0.0320333416901645,-0.0185057452432705,3.59012723438632e-05,0.000740352343810615,-0.00185116758730482,-0.0369482173509274,0.473803177291897,-0.000249284442181436,0
0.19,0.000642197489243,0.000369748784088043,-0.0320280624429947,-0.0185056945782598,3.59997678492453e-05,0.000740159303960573,-0.00185356137195439,-0.0369434950419773,0.473802362906658,-0.000226868187636489,0
0.2,0.000642022635296894,0.000369748533162674,-0.0320238395058184,-0.0185056757523513,3.60798183087423e-05,0.000740003573451052,-0.00185549602198772,-0.0369397274794762,0.473801697239374,-0.000208561140285304,0
0.21,0.000641879735489906,0.000369748365346591,-0.0320203842270642,-0.0185056764615519,3.61452728280199e-05,0.000739876319232651,-0.00185709330054593,-0.0369366521469059,0.473801153094597,-0.000193597524826759,0
0.22,0.00064176308920943,0.000369748230771405,-0.0320175635516777,-0.018505660299897,3.61987045667452e-05,0.000739772445159932,-0.00185838234311094,-0.0369341339953669,0.47380070828445,-0.000181365655228635,0
0.23,0.000641667628645906,0.000369748120936222,-0.0320152479066835,-0.018505660802488,3.62424317321877e-05,0.000739687437185508,-0.00185945278223336,-0.0369320729937244,0.473800344674844,-0.0001713667342418,0
0.24,0.000641589572172926,0.000369748031157126,-0.0320133494063311,-0.0185056612280522,3.6278186607653e-05,0.000739617927609972,-0.00186033036898846,-0.0369303832720091,0.473800047442701,-0.000163193125425696,0
0.25,0.000641525776574239,0.000369747957763095,-0.0320117935883193,-0.0185056601352861,3.63074090735213e-05,0.000739561117369976,-0.0018610482439694,-0.0369289978907836,0.473799804470644,-0.00015651161570047,0
0.26,0.000648157528526726,0.000373405712205817,-0.0323263379089269,-0.0186887156414776,3.65364206757527e-05,0.000747131245269539,-0.00188042446901376,-0.0372924150296876,0.473799715411887,-0.000206137701204797,0
0.27,0.000629318364544021,0.000362708913044109,-0.0314377094872315,-0.0181533556048933,3.56141378223005e-05,0.000725486728163358,-0.00180951471400541,-0.0362574068849535,0.473799151654737,-4.43767630916874e-05,0
0.28,0.000628703997890445,0.000362226242827582,-0.0312707686205524,-0.018129199693989,3.54650399674702e-05,0.00072471980716448,-0.00186419415704648,-0.0360978341706187,0.473799034612957,-3.65914410477928e-05,0
0.29,0.000640288876779094,0.000369219327481154,-0.0319567639072182,-0.0184791972755259,3.64018113598763e-05,0.000738219253096524,-0.00186263081383444,-0.0368679548906749,0.473799211256093,-0.000131737039131092,0
0.3,0.000634828054698266,0.000366473364281602,-0.0316910996662333,-0.0183417621064164,3.64491031590109e-05,0.000732107129209083,-0.00186150768641851,-0.036568850465347,0.473800369038399,-0.000118466925047786,0
0.31,0.000641041643069855,0.000369517994037106,-0.0319863658980054,-0.0184941457840938,3.6323385521429e-05,0.000739025403982277,-0.00186238981527646,-0.0369011183546021,0.473800194692009,-0.000162651701100271,0
0.32,0.000641509942658177,0.000369731832093198,-0.0320101032619011,-0.0185048517392225,3.63001872563743e-05,0.000739539674796047,-0.00186109529871064,-0.0369271251658898,0.473799935753303,-0.000159727941941693,0
0.33,0.000641497896877715,0.000369746794702654,-0.0320108676307786,-0.0185055888560398,3.63191616519722e-05,0.000739535774921211,-0.00186141064106319,-0.0369281412449821,0.473799714108483,-0.000153992521432547,0
0.34,0.000641454066602462,0.000369747795676445,-0.0320098837340758,-0.0185056415140814,3.63401854469495e-05,0.000739497223044216,-0.00186191314376437,-0.0369272894207227,0.473799532070583,-0.00014901745352627,0
0.35,0.000641415242100557,0.000369747824891047,-0.0320089333321032,-0.0185056461321936,3.63580360112675e-05,0.000739462683323493,-0.00186235639118601,-0.0369264455438268,0.473799383190715,-0.000144926026240264,0
0.36,0.000641383344302503,0.000369747793334289,-0.032008144613488,-0.0185056463541755,3.63726519473369e-05,0.000739434280524346,-0.00186272095183793,-0.0369257435841088,0.473799261482915,-0.000141579387745435,0
0.37,0.000641357267270517,0.00036974776364239,-0.0320074953604405,-0.01850564655027,3.6384597266105e-05,0.000739411058938827,-0.00186302103492353,-0.0369251657561015,0.473799161992406,-0.000138843500525206,0
0.38,0.000641335846851386,0.000369747739096588,-0.0320069549712459,-0.0185056467256337,3.63944090570411e-05,0.000739391984006462,-0.00186327075748537,-0.0369246848239713,0.473799080664193,-0.000136607036314678,0
0.39,0.000641318384553181,0.00036974771901203,-0.032006511143418,-0.0185056468833763,3.64024078653088e-05,0.000739376433748134,-0.0018634758580266,-0.0369242898357234,0.473799014182582,-0.000134778839161839,0
0.4,0.000641304181883974,0.000369747702592379,-0.0320061474717465,-0.0185056470266111,3.64089136884149e-05,0.000739363786155533,-0.00186364392462759,-0.0369239661897108,0.47379895983743,-0.000133284380791898,0
0.41,0.000641292482144177,0.00036974768916988,-0.0320058412218061,-0.0185056471587088,3.64142728305444e-05,0.000739353367501176,-0.00186378541515619,-0.0369236936533216,0.473798915413119,-0.000132062737017319,0
0.42,0.000641282994295486,0.000369747678197694,-0.0320055902105679,-0.0185056472809634,3.64186189368109e-05,0.000739344918491975,-0.00186390139370342,-0.0369234702812287,0.473798879098495,-0.000131064105315474,0
0.43,0.000641275194468954,0.000369747669228407,-0.0320053783496514,-0.0185056473956957,3.64221917294516e-05,0.000739337972709814,-0.00186399925763961,-0.0369232817556304,0.473798849413465,-0.000130247774652437,0
0.44,0.000641268791626279,0.000369747661896525,-0.0320051993598225,-0.0185056475042104,3.64251245705704e-05,0.000739332270966034,-0.00186408191785757,-0.0369231224873464,0.473798825147423,-0.000129580465824638,0
0.45,0.000641263552936817,0.000369747655902981,-0.0320050483190166,-0.0185056476075455,3.64275241589403e-05,0.000739327605905899,-0.00186415165758757,-0.0369229880951523,0.473798805311501,-0.000129034974772365,0
0.46,0.000641259303774997,0.000369747651003548,-0.0320049220486178,-0.0185056462512822,3.6429470551925e-05,0.000739323821999496,-0.00186420866281106,-0.0369228750854697,0.473798789096619,-0.000128589063559693,0
0.47,0.000641255811315356,0.000369747646998702,-0.0320048134024297,-0.018505646346842,3.64310702918448e-05,0.000739320711954009,-0.00186425880922618,-0.0369227784264802,0.473798775841988,-0.000128224553803993,0
0.48,0.000641252959139983,0.000369747643724942,-0.0320047202578748,-0.0185056464395527,3.64323767509315e-05,0.000739318172081689,-0.00186430179083573,-0.0369226955646962,0.473798765006997,-0.000127926585606032,0
0.49,0.000641250807330345,0.00036974764104882,-0.032004648623885,-0.0185056312401463,3.64333627235161e-05,0.00073931625576856,-0.00186432127722293,-0.0369226248702597,0.473798756150152,-0.000127683011748589,0
0.5,0.000641248886477542,0.000369747638861094,-0.0320045774990789,-0.0185056313264163,3.64342425565112e-05,0.000739314545252137,-0.0018643540734066,-0.0369225616063236,0.473798748910358,-0.000127483902498914,0
0.51,4.68017397429818,-0.0171488308060267,5.99235906091091,0.886774256415302,-1.3012769220654,4.49566467657409,-0.792297505587353,6.00558076786601,0.278087278450283,86.1804962021692,2726.8599878364
0.52,4.61397609642527,0.0475820554433795,9.30359212933477,-2.32663602373946,-4.41229494512564,1.35007140092763,-9.58181815721551,0.398525404506771,1.2841751304793,190.991593909714,2726.8599878364
0.53,4.62727637439117,0.0603722039076047,8.64004498111783,-2.9232236568107,-0.447053800652789,-4.60602587349716,2.19058166555935,-8.85420610726859,3.05788353994539,291.899252432471,2726.8599878364
0.54,4.59439002752906,0.0838588381195544,10.2860818332704,-4.06922484186732,3.03551147428382,3.44980030136246,3.54931330181203,10.4768528375646,-0.703353334413181,394.924330453096,2726.8599878364
0.55,4.56446093601537,0.0524324691128215,11.7844202420213,-2.47536354880678,-2.52093634864562,-3.8055134642128,-4.31558390775388,-11.2416956316411,2.56800632730465,497.226482804753,2726.8599878364
0.56,4.51846430346025,0.124062785731923,14.0862586174604,-6.0421048211935,-1.21470663223666,4.35389469717038,-9.92946892841243,11.6762733484601,0.299524723545928,599.035186733999,2726.8599878364
0.57,4.54862951982543,0.0708049857410058,12.5802035868956,-3.34267599780114,4.30410896844202,1.47298670815799,10.7062237106108,7.4034977525742,-1.2254970577495,699.976741969154,2726.8599878364
0.58,4.52144309776969,0.120285264958198,13.9419516608621,-5.7619739655692,4.03775362576331,-2.03824971212323,15.0676108273223,-0.738555380505198,-2.01167789931237,799.759786355281,2726.8599878364
0.59,4.48557999098151,0.1338293577128,15.7376963713284,-6.42790768815803,3.89321288823871,-2.23186728085061,16.9097945628151,-1.74697800987649,-2.0615038697752,900.383160171684,2726.8599878364
0.6,4.44171206291594,0.18482366203863,17.9338155755933,-8.9453082675618,4.39471927968832,0.670379212564153,15.8855608812267,12.2183974640679,-1.37783434517407,1000.18147052674,2726.8599878364
0.61,4.35591503922479,0.154970732768181,22.2265359316285,-7.45042701284552,-0.00597575290395178,4.35866677406482,-8.26605410646215,21.9362738791881,0.0369330838236396,1100.01007199194,2726.8599878364
0.62,4.37928929550762,0.18066817725913,21.0608135939725,-8.66951891461039,-3.69214219606572,-2.36196988296903,-12.2892090775429,-19.1753427009606,2.18114889008876,1199.05141567953,2726.8599878364
0.63,4.34223163978385,0.237400376084239,22.9168730006529,-11.4790885143115,4.17336318868904,1.22244601001441,17.7849205626041,18.4566828501037,-1.23123290450501,1298.00768702369,2726.8599878364
0.64,4.34392945192025,0.226247229525386,22.8352674875432,-10.9576562488754,-3.20815621726313,-2.93745545970726,-8.20689983412186,-23.961770944754,2.36421165314863,1397.18840609648,2726.8599878364
0.65,4.32386851018487,0.274326833900448,23.8417286485183,-13.2680863952463,-1.42558211162358,4.09130905068109,-21.4823597909485,16.8219606275111,0.398645626918948,1495.19665474664,2726.8599878364
0.66,4.25641007546014,0.202878479050695,27.2181946460408,-9.67013020573873,3.32213795467429,2.66862995146443,13.9761220512099,25.2786382227245,-0.846426202294039,1593.35164260501,2726.8599878364
0.67,4.25145320552097,0.284356089457497,27.4697701096385,-13.7978388664943,4.01196271099135,-1.43522400689267,30.1945853283419,5.76677068311285,-1.84756135162935,1691.37993490488,2726.8599878364
0.68,4.27691199505715,0.358712798414216,26.2007061096506,-17.4101386747937,4.22796143468965,-0.738236542028976,27.6473065613478,15.0072105743433,-1.65998569073101,1788.46243502602,2726.8599878364
0.69,3.87005617582833,0.323242117831551,30.3868742141596,-15.6589502597098,2.9158274224877,2.56510637461217,9.77971714711299,32.7554877885475,-0.765969863189428,1882.40738473196,2726.8599878364
0.7,3.47216762342953,0.276353322812019,30.7575232628423,-13.4417735496095,-2.25552185779829,2.65423064431403,-31.2339167116006,12.2942653410467,0.783792042006315,1967.57283434422,2726.8599878364
0.71,3.15699950480453,0.290919288262852,28.9016932522587,-14.1187413971685,-0.96339054010072,-3.0204566828319,7.5693175020289,-31.2626320715524,2.92472874103887,2043.89070912823,2726.8599878364
0.72,2.80277035097138,0.18035241222462,30.7314205293957,-8.67019204375083,1.91242846658309,2.05685828220665,12.7217856799951,29.2873455086383,-0.684768050806577,2113.03066508383,2726.8599878364
0.73,2.4929843469206,0.1833278853269,31.8255165453474,-8.86114075887578,-2.34643349273647,-0.861875821504535,-25.3317434507703,-21.2058032781394,1.99621623859634,2175.4224789766,2726.8599878364
0.74,2.25275402372172,0.141155602269602,30.8893965637667,-6.74390763422279,1.55601060499334,1.63513198017614,14.6863932356815,27.9990171966714,-0.698031866890316,2231.50619835926,2726.8599878364
0.75,1.95185461801136,0.230082001902836,34.1815520848624,-11.1889161204734,0.046366848450768,-1.96482169491703,15.8793047735668,-32.2710090760938,-3.00066135554508,2282.23191443804,2726.8599878364
0.76,1.80613284916428,0.210855561351686,30.9277022139428,-10.3292631790713,-1.7056357386489,0.630382949981077,-32.4905652878595,-2.75310903020154,1.33299674681632,2328.04092674221,2726.8599878364
0.77,1.55750822637806,0.218135115461779,33.8092517803689,-10.7217149330665,0.665784675189481,1.42483176905756,-0.323324926465302,35.4671134721483,-0.297975705445019,2369.28365928677,2726.8599878364
0.78,1.42725507455844,0.131926915650229,31.740983409342,-6.35195794522727,1.41432369714855,-0.232702038258921,32.1112124262823,4.08747281877631,-1.64169557912753,2406.37387678929,2726.8599878364
0.79,1.27099600039151,0.133269554538786,31.8019197383154,-6.46206651489575,-0.208116082520659,-1.26090416105842,4.57220501620174,-32.1281083161616,3.08248705508876,2439.89315010381,2726.8599878364
0.8,1.12344736499909,0.119932576397448,32.1631804174977,-5.82134375669775,-0.960836432701791,-0.594399827050466,-21.8308646225226,-24.326355410033,2.23115131070907,2470.1752876673,2726.8599878364
0.81,1.01222777272534,0.114067100122323,31.3850569601123,-5.53062059018531,-1.01428531633724,0.0940301242659836,-31.269564701574,-6.15011283442441,1.59057051237308,2497.50087299387,2726.8599878364
0.82,0.879996685531811,0.140736272684139,32.2878929691738,-6.87057102547302,-0.740804885223249,0.49538771384176,-32.2066977113426,7.24164353825081,1.1399618757606,2522.04765390806,2726.8599878364
0.83,0.741669471591311,0.0944657486269805,34.0411588864852,-4.70535591318319,-0.500779543597733,0.555173154491674,-28.879327804789,18.6259307995117,0.860619173160848,2544.29456255116,2726.8599878364
0.84,0.6664168492443,0.1094956062157,33.1642247961542,-5.430567480685,-0.0665517806677875,0.67206514954072,-13.8215400834716,30.6320404023812,0.261553935417832,2564.23593317707,2726.8599878364
0.85,0.592594873567965,0.139401361397721,32.6525945898237,-6.85880865158141,-0.0270809900484944,0.608167775960354,-15.4836978772371,29.5548691354375,0.27553775648939,2582.27552480973,2726.8599878364
0.86,0.469235702295191,0.0342569094389134,35.0312316646481,-1.73755194487778,-0.157834858837252,0.443219852317777,-15.7137930037657,31.3573434483566,0.414983767854494,2598.49764963132,2726.8599878364
0.87,0.456799875215721,0.0196104450602964,32.244977179087,-0.905617916572723,-0.26722923137995,0.370997619195383,-20.6623570009649,24.7714694811458,0.667123687253631,2613.0699991677,2726.8599878364
0.88,0.377856091730132,0.109615872703292,33.0875394796085,-5.52788496535824,-0.26493028432277,0.290865621988454,-31.1013366605826,12.5717794655326,1.0211177926847,2626.31990650934,2726.8599878364
0.89,0.303793658220704,0.0935545414603392,34.0203421908975,-4.62038690445555,-0.203389518929492,0.244286189934269,-31.0218490493311,14.7097430124778,0.993035868316034,2638.10093035241,2726.8599878364
0.9,0.276974255396258,-0.00379124528155647,32.8496068743727,0.150619142626115,-0.276822115392435,0.00993116925410153,-32.8018332614617,1.77738364294929,1.5212488475363,2648.76977242673,2726.8599878364
0.91,0.196502334690255,0.0615580031361064,34.5890918393302,-3.02716700510927,-0.199545462818859,-0.0508346688514182,-27.8430326024643,-20.7445064979756,2.12382762913399,2658.46531033226,2726.8599878364
0.92,0.175223730842201,0.0318060073516487,33.5859004515743,-1.58006743897284,-0.0896342655971397,-0.153885270200805,-9.96394641705941,-32.1127559398556,2.79372064236523,2667.16547154112,2726.8599878364
0.93,0.125764311242675,-0.0165808697591545,34.2185558866502,0.754971870823064,0.062293598569933,-0.110503822565206,12.0628202345964,-32.0307339516494,-2.75935907787724,2674.93439934775,2726.8599878364
0.94,0.0727672690168319,0.0776640011508905,35.1948607744003,-3.899768363163,-0.0132876035795329,-0.105594564756178,25.4784839229474,-24.5913252022712,-2.44883279171416,2681.92825727779,2726.8599878364
0.95,0.0626253939691734,0.0422217275413348,34.1808753729755,-2.09726682060873,0.0606749778871014,-0.0449795654132924,34.2404642970173,0.566898672068718,-1.61552251984866,2688.26598221074,2726.8599878364
0.96,0.0640521166947576,-0.017444188721118,32.7881884371131,0.82777260462938,0.0302322127806746,0.0591014947662142,22.6897684645906,23.6838534764907,-0.738724314198626,2693.80377066969,2726.8599878364
0.97,-0.00261172414950078,0.0981599008113843,34.9049283316779,-5.02178849927409,0.0970905339541,0.0146838498644478,-11.0793093068203,33.478669132073,0.176701764743734,2698.84677291635,2726.8599878364
