t,iq,id,vq,vd,ia,ib,va,vb,theta_e,omega,r
0,0,0,0,0,0,0,0,0,0,0,0
0.01,0.000572972140283219,0.000326737158437333,-0.0280558785858592,-0.016354734062401,4.16700237028536e-05,0.000658268830622443,-0.00236006080814801,-0.032388883316011,0.455038843849663,-0.00150417164358443,0
0.02,0.000639852939683229,0.000364646205700204,-0.0314023334201861,-0.0182522620222222,4.63360175549214e-05,0.000735004498782133,-0.00259415764564063,-0.0362287449309241,0.455027489284255,-0.00162390564207457,0
0.03,0.000666375959378928,0.000379780237594095,-0.032707816296207,-0.0190097970062702,4.82825706349389e-05,0.000765479419369388,-0.00270131094788718,-0.0377342887603417,0.455015800687378,-0.00163275896022555,0
0.04,0.000651287027914955,0.000371389017473718,-0.0319893948957116,-0.0185897763664101,4.73845867447221e-05,0.000748237459613872,-0.0026401610839638,-0.0369043455516778,0.455004797550164,-0.00153282189512201,0
0.05,0.000666470108163237,0.000380145363566394,-0.0327424633090743,-0.0190280715615076,4.85859240163228e-05,0.000765723390333365,-0.00270332605733646,-0.0377733826804492,0.454993921177183,-0.00151538999332907,0
0.06,0.000667065155919811,0.000380622388723263,-0.03278587700591,-0.0190519455316156,4.87610056598553e-05,0.00076646701779448,-0.00270609170565244,-0.0378228426650735,0.454983372682367,-0.00146029004586877,0
0.07,0.000683871034196607,0.000390409434387774,-0.0336166323572662,-0.0195418391218838,5.01749809579294e-05,0.000785863594498428,-0.00278146330278051,-0.0387843384525825,0.454973343937392,-0.00145180170859684,0
0.08,0.000667549126338538,0.000381180344057712,-0.0328366683644018,-0.0190798694914694,4.90647746172053e-05,0.000767145969593182,-0.00270960805170929,-0.0378806841713732,0.454963487457814,-0.00135469581746938,0
0.09,0.000666383251441381,0.000380674276744547,-0.0327928488170304,-0.0190545397474004,4.91296812049029e-05,0.000765875849731061,-0.00270646495272533,-0.0378301660845091,0.454954118564483,-0.00130117795556819,0
0.1,0.000666088464444021,0.00038064516513015,-0.0327908643929377,-0.0190530813544331,4.92399539458736e-05,0.000765597812913387,-0.00270636721221591,-0.0378277183193398,0.454945122290069,-0.001252017459066,0
0.11,0.000665851995049041,0.000380642185533342,-0.0327912291676816,-0.0190529425841309,4.93478008942585e-05,0.000765383660176573,-0.00270640924363267,-0.0378279616216309,0.454936478594406,-0.00120491043555603,0
0.12,0.000665627639975346,0.000380640688745301,-0.0327917168038577,-0.019052860725914,4.94513941525528e-05,0.000765181056119409,-0.00270643561466546,-0.0378283412146125,0.45492817336192,-0.00115965520192343,0
0.13,0.000696755383086148,0.000398523555010474,-0.0343163379797875,-0.0199479898808824,5.18446083288907e-05,0.000801000140040521,-0.00284093600172033,-0.0395911913847629,0.454919896776468,-0.00119929779914352,0
0.14,0.000725109576522178,0.000415066525902704,-0.0357898652294379,-0.0207760325447271,5.42531796410876e-05,0.000833738994762716,-0.00293763879301803,-0.0412786659154901,0.454911930025351,-0.00123310857782626,0
0.15,0.000668387019667333,0.000382518852721495,-0.0329587393241356,-0.0191468710851191,4.99444876542501e-05,0.000768483850773784,-0.00271840630396118,-0.0380196191110994,0.454904206623672,-0.00103826919845994,0
0.16,0.00066498346392566,0.000380738302647962,-0.0328029577846452,-0.0190577435430382,4.9845856393529e-05,0.000764643742535186,-0.00270705674007613,-0.037840500421895,0.454897143438827,-0.00099109798017656,0
0.17,0.000664617995507426,0.000380639870630868,-0.0327944647323031,-0.0190528280630886,4.99231814107033e-05,0.000764271854135704,-0.00270662869882843,-0.0378306930331255,0.454890377155048,-0.000953735136776912,0
0.18,0.000664432108378107,0.000380633444404983,-0.0327943357329174,-0.0190524988731051,5.00040475655425e-05,0.000764101721546576,-0.00270663556714797,-0.0378304149247616,0.454883876962352,-0.000918287852067065,0
0.19,0.000664262803544188,0.000380632089037012,-0.0327946620396236,-0.0190524372497716,5.00819867832439e-05,0.000763948724704026,-0.0027066731203659,-0.0378306640712148,0.454877631351372,-0.000884254240593861,0
0.2,0.000664100898180024,0.000380631050104615,-0.0327950115062092,-0.0190523728968449,5.01567706294085e-05,0.000763802525282082,-0.00270668879794385,-0.0378309334862875,0.454871630291531,-0.000851554681203949,0
0.21,0.000663945155740216,0.000380630066150944,-0.0327953365379808,-0.0190523258447773,5.02287150427903e-05,0.000763661897225547,-0.00270672186651705,-0.0378311891892431,0.454865864203826,-0.000820135559290498,0
0.22,0.000663795583311121,0.000380629121414332,-0.0327956505834369,-0.0190522787999198,5.02978099708154e-05,0.000763526839609543,-0.0027067512300143,-0.0378314356380983,0.454860323888225,-0.000789946660791707,0
0.23,0.000663651831646772,0.000380628213622424,-0.0327959487744638,-0.0190522317619428,5.03642137398139e-05,0.000763397037345498,-0.00270677936097776,-0.0378316684355715,0.45485500050423,-0.000760939811755378,0
0.24,0.000663513602623486,0.000380627341294423,-0.0327962280711694,-0.0190522005493799,5.04280626449194e-05,0.000763272221625508,-0.0027068221260953,-0.0378318917772774,0.454849885557871,-0.000733068728688648,0
0.25,0.000663380852204809,0.000380626503046144,-0.032796497888195,-0.0190521535200787,5.04893811716036e-05,0.000763152351946859,-0.00270684727269445,-0.0378321001971254,0.454844970887885,-0.000706288940568859,0
0.26,0.000669990501699394,0.000384466888579764,-0.033124227941873,-0.0192443758139888,5.10391466088013e-05,0.00077077692382106,-0.00273572558857279,-0.0382109445410503,0.454840291758758,-0.000698999313622688,0
0.27,0.000649315443413666,0.000372656918494974,-0.0321254978982673,-0.0186532390402844,4.95163185575707e-05,0.000747015299812635,-0.00264362321366092,-0.0370540442895207,0.45483561477734,-0.000617972291836435,0
0.28,0.000647860678560635,0.000371838131739004,-0.0319813609211751,-0.018612260114397,4.94231296061454e-05,0.00074534851532698,-0.00267029313666738,-0.0369065469463171,0.454831247808708,-0.000590563770085971,0
0.29,0.00066203874336694,0.000380143121109116,-0.0327556013545249,-0.0190279526724829,5.06583324958956e-05,0.000761733433422869,-0.00270374675969921,-0.0377846815053696,0.454827158818608,-0.000606903871996594,0
0.3,0.000657572342280448,0.000377714879934708,-0.0325433329343835,-0.0189064063640089,5.04417626064482e-05,0.000756654177574829,-0.00268794156534925,-0.0375405872386199,0.454823607070219,-0.00057573729302888,0
0.31,0.000662402587630265,0.000380463218105653,-0.0327834175836166,-0.0190439746605038,5.07916917188675e-05,0.000762200532985195,-0.00270620004669183,-0.0378166883880514,0.454819754461107,-0.000568081974982373,0
0.32,0.000662582355916237,0.000380612872104023,-0.0327972528264399,-0.0190514668950526,5.08500057884385e-05,0.000762427579311045,-0.00270699402304342,-0.0378323983798795,0.454816021460692,-0.000548499284555208,0
0.33,0.000662501345508496,0.000380620476259205,-0.0327982111259844,-0.0190518459643624,5.08951603584743e-05,0.000762357962115197,-0.00270704934813633,-0.0378334160702043,0.454812432849942,-0.000528988231856213,0
0.34,0.000662409216974061,0.000380620336951208,-0.0327984356673734,-0.019051838021607,5.09381351839564e-05,0.000762274962213125,-0.00270707403097673,-0.0378336049619805,0.454808984651136,-0.000510201617826523,0
0.35,0.000662319642466004,0.000380619795998218,-0.0327985980713659,-0.0190518225882899,5.09795237663817e-05,0.000762194086869331,-0.00270711417434427,-0.0378337351080982,0.454805671460875,-0.000492148348887439,0
0.36,0.000662233683914389,0.000380619253939343,-0.0327987577056442,-0.0190517913597144,5.10192235175127e-05,0.000762116465779237,-0.00270713643754857,-0.0378338561787738,0.454802487998652,-0.000474801829787821,0
0.37,0.00066215115961417,0.000380618731858577,-0.0327989127137635,-0.0190517601283369,5.10573371295616e-05,0.000762041944741403,-0.00270715601525431,-0.0378339734299986,0.454799429185462,-0.000458134508134837,0
0.38,0.000662071713238358,0.000380618230125928,-0.0327990521448546,-0.0190517446792969,5.10940252376201e-05,0.000761970203590394,-0.00270719208313295,-0.0378340839449171,0.45479649014015,-0.000442119796736883,0
0.39,0.00066199559177994,0.000380617748009872,-0.0327991949408423,-0.0190517134405797,5.11291823089504e-05,0.000761901463676634,-0.00270720813496166,-0.0378341908583141,0.454793666173759,-0.000426732142965424,0
0.4,0.000661922199000411,0.00038061728474748,-0.0327993177232553,-0.0190516979809302,5.11630730526671e-05,0.000761835188826226,-0.00270724297059967,-0.0378342870233571,0.454790952780068,-0.000411946994340454,0
0.41,0.000661851898305232,0.000380616839602682,-0.032799444754815,-0.019051665280092,5.11955405136648e-05,0.000761771704981805,-0.00270725643190843,-0.0378343797197828,0.454788345629629,-0.000397740759716142,0
0.42,0.000661784209876006,0.000380616411867701,-0.0327995579550021,-0.0190516498097414,5.12267980365583e-05,0.000761710580592901,-0.00270728758625165,-0.0378344678361133,0.454785840562552,-0.00038409077165804,0
0.43,0.000661719140791369,0.000380616000862249,-0.0327996633382311,-0.0190516343337896,5.12568449816874e-05,0.000761651821533017,-0.00270731845871331,-0.0378345491932023,0.454783433581625,-0.000370975250277381,0
0.44,0.000661656814546459,0.000380615605933024,-0.0327997724897055,-0.0190516030769397,5.12856294742734e-05,0.000761595538278001,-0.00270732993369142,-0.0378346272587406,0.454781120846275,-0.000358373268479414,0
0.45,0.000661596809527869,0.000380615226451642,-0.0327998695571659,-0.0190515875910763,5.13133389924092e-05,0.000761541351619031,-0.00270735745896462,-0.0378347016414421,0.454778898666506,-0.000346264718570195,0
0.46,0.000661539074607902,0.000380614861814254,-0.0327999570082472,-0.0190515721001795,5.13399981811093e-05,0.000761489215191999,-0.00270738591218649,-0.0378347676186031,0.454776763496139,-0.000334630280174389,0
0.47,0.000661483667994219,0.0003806145114411,-0.0328000425727902,-0.019051556603739,5.13655835715551e-05,0.000761439180871977,-0.00270741202628867,-0.0378348321249378,0.454774711929,-0.000323451389408701,0
0.48,0.000661430415061775,0.000380614174774269,-0.0328001221569953,-0.0190515396472203,5.1390173886256e-05,0.000761391091381972,-0.00270743641665313,-0.0378348908349582,0.454772740691112,-0.000312710209259895,0
0.49,0.000661379257607021,0.000380613851278437,-0.0328001972833112,-0.0190515241409119,5.14137966282149e-05,0.000761344894048743,-0.00270746114797413,-0.0378349463862194,0.454770846637297,-0.000302389601125838,0
0.5,0.000661330137420247,0.000380613540438781,-0.0328002693379852,-0.0190515086296777,5.14364792260752e-05,0.00076130053620791,-0.00270748441840986,-0.0378349993767031,0.454769026745332,-0.000292473097466931,0
0.51,4.71778564855772,0.0299482911959714,4.11180316668177,-1.49325410225897,-0.464127372104026,4.69499564518931,-1.91551832339123,3.93287714633955,0.104883485482328,32.5098240343162,1880.37282544337
0.52,4.68404561991238,-0.0192322673390944,5.79999201903158,0.975475014668809,-2.17440603476049,4.14880846093484,-1.80545346549426,5.59748128259558,0.478638252127949,69.4926087981541,1880.37282544337
0.53,4.62794209149859,0.0291170431632179,8.60643202544046,-1.43742702042691,-4.16484527088709,2.01810794409921,-8.38718687029232,2.40665017199773,1.12587017298832,107.365021143682,1880.37282544337
0.54,4.65515433972288,0.0021015687932775,7.24713133606612,-0.0798371492829605,-4.11007093677907,-2.18581409041944,-6.35949036668977,-3.4762291133608,2.06002543453166,148.178913407034,1880.37282544337
0.55,4.62684359274153,0.0244848243264038,8.66402890498472,-1.19503492045962,0.689781599916939,-4.57520299907356,2.5176766786396,-8.37584679118254,-2.98666252726662,188.284882290507,1880.37282544337
0.56,4.68219940641331,-0.00979157873499803,5.89760727245728,0.53190724734766,4.65775963839753,0.477872689475103,5.92123703485654,0.0604056037569095,-1.4706481743575,225.310998001008,1880.37282544337
0.57,4.59425348493877,0.0043709440355103,10.2963664558125,-0.177360029437636,-1.46854148676496,4.35322525154327,-3.46848754503452,9.69619579641229,0.326308652014807,265.706899037685,1880.37282544337
0.58,4.61621652644786,0.0131605823378673,9.19968593809054,-0.604151984369352,-3.08061709431294,-3.4379392865792,-5.6687080020489,-7.27083011541495,2.41380677709752,303.30900194199,1880.37282544337
0.59,4.62617610935012,0.0135615127191417,8.70328117396406,-0.624515440005222,4.61597276657838,0.307383681342654,8.6389937445714,1.22674765503684,-1.50137171980888,343.250684401722,1880.37282544337
0.6,4.62867452566039,0.0258508347882469,8.57992958070006,-1.22284683841759,-4.21702474904553,1.90840205305228,-8.33433038161322,2.37686412950314,1.151411177545,380.855293116385,1880.37282544337
0.61,4.58947441563738,0.00838660855875584,10.5415686498232,-0.345700642715837,3.72402669418308,-2.68234429706647,8.76648418318998,-5.86454888283739,-2.19317682032569,419.743613557754,1880.37282544337
0.62,4.61010724289702,0.0506755136667343,9.51160584024923,-2.46109595038549,-3.92023883659772,2.42639326217493,-9.41447601125249,2.8098541547238,1.02755834102036,458.957276695178,1880.37282544337
0.63,4.60251182653546,0.0218377800452207,9.89312531170046,-1.01472091503114,4.52325310441163,-0.850748702888582,9.91404555093025,-0.784402819022287,-1.75196306094872,497.759076092047,1880.37282544337
0.64,4.61799635977829,0.0466239738845862,9.1206172109813,-2.25043293521315,-4.15005198677032,-2.02611270194184,-7.14751050404399,-6.09616275206964,2.03506641077083,536.380684452499,1880.37282544337
0.65,4.57464852066146,0.0741924783130057,11.2898139568385,-3.62551837191856,0.882703098955048,4.48929268933576,-1.57005791025303,11.7532634107977,-0.177930637771411,574.913446040816,1880.37282544337
0.66,4.58473941212283,0.0618848225003433,10.7870947002666,-3.00192376919578,3.90664282442588,-2.40037643937155,10.8030691826345,-2.94391824339517,-2.10826475247205,613.401002783528,1880.37282544337
0.67,4.59889541190549,0.0654372895088158,10.0812066374937,-3.16870873841023,-2.70550559909089,-3.71945701706465,-3.22476619045756,-10.063415193343,2.52694590710068,651.656606295975,1880.37282544337
0.68,4.5568637780571,0.0983658982974722,12.1847042666252,-4.80355793546447,-4.13967972266573,1.90728475468843,-13.0895165355069,0.453589871105509,1.16063619161305,689.765165750246,1880.37282544337
0.69,4.55495870283074,0.0373824781610375,12.2819371297316,-1.73977262469994,-0.30750560654105,4.54472073246671,-2.66444444838946,12.1150123493863,0.0757659840610124,728.237439640059,1880.37282544337
0.7,4.55317353611992,0.0507120907353082,12.3731431289493,-2.42077466856288,3.06269301750329,3.36955077817594,6.41040024725314,10.8564077647921,-0.726590842701629,767.134431126242,1880.37282544337
0.71,4.54998096510678,0.104992451156898,12.5347780444102,-5.11404145535063,4.34785484640419,1.34517970258014,10.2622536810142,8.82950904729042,-1.24767665757812,804.997308268175,1880.37282544337
0.72,4.54257214185547,0.102009859316799,12.9073102086697,-4.97998257497943,4.53538582868446,0.27503283499875,12.4498915990039,6.03316520932244,-1.48777631010913,843.838420647785,1880.37282544337
0.73,4.58102013611637,0.0664537389850537,10.9869936390797,-3.1691288615952,4.55402928431372,0.50097790823727,10.5103422239701,4.50445482845653,-1.44672397283326,881.642945919779,1880.37282544337
0.74,4.55838508471436,0.0718467358015724,12.1208521475569,-3.45144381885404,4.14338473538348,1.90168332499994,9.44597755245116,8.34272313433864,-1.12474908351154,920.346312964711,1880.37282544337
0.75,4.51408093194191,0.0932376335152965,14.3382089911164,-4.52658998108678,2.33322544663158,3.86544679585892,3.23163128032613,14.6843730951588,-0.522418367389781,958.636496111634,1880.37282544337
0.76,4.47981108187189,0.0974160751185695,16.0539361322752,-4.70146336877108,-1.4890743335209,4.22621045976215,-10.062188683869,13.3635692102554,0.360502465944523,996.478373971304,1880.37282544337
0.77,4.53475459769596,0.0670896724417733,13.3090057158028,-3.17928441303474,-4.52648798048585,0.281792207113908,-13.4446490565911,-2.54536721659999,1.52341598885461,1034.68475923989,1880.37282544337
0.78,4.5436699905046,0.105082876614814,12.8655245529959,-5.07960690167213,-0.896613320859341,-4.45556550242809,2.75580896498253,-13.5546908945862,2.96613358522272,1072.92157522868,1880.37282544337
0.79,4.51230788895248,0.0836876244604072,14.4359174467259,-4.00525022439463,4.50903998207104,-0.191009275364819,14.527114661957,3.66069412639897,-1.59458802399696,1111.10512891118,1880.37282544337
0.8,4.55489878907196,0.0933164958893682,12.3087289921309,-4.47665761345758,-1.71836471058261,4.21936413082808,-8.98565606281979,9.52907434699517,0.407230735067209,1149.16660479487,1880.37282544337
0.81,4.50172863625442,0.146135960338509,14.9696062189306,-7.1108777541618,-2.10263232443535,-3.98319642267573,-0.162116966170834,-16.5718861592083,2.68834482110367,1187.19313861856,1880.37282544337
0.82,4.44699151440205,0.111993314806146,17.7088982109066,-5.39537202502292,3.88079751545809,2.17432441823648,12.4716139277835,13.6811535028654,-1.03491786326177,1225.30174685061,1880.37282544337
0.83,4.46279199732765,0.0891379280668134,14.7276833635995,-4.28196739094771,-4.36266670078251,-0.94424426898724,-13.3401051040767,-7.56845412272365,1.80391690234523,1263.52762502709,1880.37282544337
0.84,4.24460291963188,0.122641469158412,14.4546833415488,-5.94582911213353,4.18095882048919,0.742481122102427,12.944799422751,8.75916218823975,-1.36615682063749,1299.97856934585,1880.37282544337
0.85,4.01892347339412,0.103170493045902,15.2599042561868,-4.95726078915525,-4.01651813766847,0.173124479533672,-15.3438974847177,-4.69083387236822,1.55338540585005,1334.66148075936,1880.37282544337
0.86,3.84621171152059,0.0915663929000915,13.7493149162276,-4.41467883306253,3.47959357476527,1.64138889011688,10.3141386476517,10.1070071644234,-1.10622634128592,1367.95919155079,1880.37282544337
0.87,3.62793758377464,0.0769185660006988,15.108782512388,-3.65497809415897,-1.44418810890341,-3.32898907833327,-2.33478065082047,-15.3682456119096,2.7534721924697,1399.16194474463,1880.37282544337
0.88,3.47336072323167,0.0563914630305169,13.6088754343166,-2.66227443072487,-1.78200592392065,2.9819238081988,-9.43264532599022,10.1643690352777,0.554888957556632,1429.24981850986,1880.37282544337
0.89,3.26518890853412,0.0962588473546141,15.3409339445092,-4.66095038638188,3.24641582969301,0.362641192953779,14.5355954856741,6.76647446392575,-1.43008060810054,1457.62612063155,1880.37282544337
0.9,3.12612359885247,0.12198084509544,13.89492312882,-5.93609054200728,-0.340844019040686,-3.10987997140673,4.94735252964976,-14.2768961131646,3.07142804442146,1484.53459695245,1880.37282544337
0.91,2.92830459936223,0.0843668243248907,15.8332345192074,-4.08702334858738,-2.90947513031692,0.342111171638736,-16.1318175236777,-2.67573140933168,1.48255145304547,1510.30886936575,1880.37282544337
0.92,2.80008482058321,0.086408440862737,14.7220079381556,-4.20746368340095,-0.128772243824606,2.79845656216658,-5.32506634005164,14.3556238754122,0.0768324477991348,1534.68255495099,1880.37282544337
0.93,2.64871971708029,0.109568743648848,15.0625388426399,-5.32732744912724,2.46718601877882,0.96990442723857,11.6261274563714,10.9587250400979,-1.15489041344839,1557.69095860785,1880.37282544337
0.94,2.53514461134724,0.0822004275783942,13.8230038655392,-3.96398500261724,1.96769138121553,-1.60059543265221,13.4007772241307,-5.21610800855446,-2.22126478088212,1579.6334838757,1880.37282544337
0.95,2.3791144233591,0.0777401476273744,15.0402467353661,-3.75638918134866,-0.0520448754759917,-2.379815182094,3.91858146319424,-14.9988066478222,-3.13079399734342,1600.50587853732,1880.37282544337
0.96,2.28124736142527,0.0564952845349764,13.6779215853719,-2.70513494882982,-1.59608252164329,-1.63088988754277,-7.3423322673538,-11.8529933292286,2.39174048048196,1620.28537066768,1880.37282544337
0.97,2.14552460117498,0.0726557433063362,14.5000253793478,-3.5263514376095,-2.11669280900174,-0.358003105576982,-13.5015369189597,-6.35565821054195,1.77219486955906,1639.08760459389,1880.37282544337
