t,iq,id,vq,vd,ia,ib,va,vb,theta_e,omega,r
0,0,0,0,0,0,0,0,0,0,0,0
0.01,0.000463025468205759,0.000262571945369894,-0.0225955127317038,-0.0131353721713224,-0.000118559794958158,0.000518922138400331,0.00554804973574949,-0.0255404452157238,0.740478745144058,-0.00151057738227277,0
0.02,0.00057343609653427,0.000323237433225878,-0.0280250820290101,-0.0161702054068449,-0.000148259526083054,0.000641350534397955,0.0069705246263936,-0.0315957679454882,0.740466458521382,-0.00180314955802518,0
0.03,0.000616555764673797,0.000347010035573234,-0.0301415201720465,-0.0173594525046129,-0.000159792412348225,0.000689219385026976,0.00752004167796837,-0.0339604299546313,0.740453118168179,-0.00186274136436862,0
0.04,0.000608158400022692,0.00034227618487475,-0.0297564838288352,-0.0171226372794503,-0.000157612941821661,0.000679829233573326,0.00743466322036464,-0.033516545467263,0.740440213492314,-0.00175191809582166,0
0.05,0.00062274338339023,0.000350844656879709,-0.0304864003546348,-0.0175512782806467,-0.000161118423417194,0.00069637787763032,0.00761023297703835,-0.0343446113663115,0.740427672013689,-0.0017206868324573,0
0.06,0.000625277028792874,0.000352570337610287,-0.0306306124656063,-0.0176376133243153,-0.000161545279067112,0.000699414275311711,0.00764336940025706,-0.034509400574444,0.740415536643647,-0.00165153799519207,0
0.07,0.000634487271173341,0.000358251290890996,-0.031097714919263,-0.0179218066144716,-0.000163556708310917,0.00071004738424457,0.00774828439841731,-0.0350460142442406,0.740404074975524,-0.00160914776128595,0
0.08,0.00062673658782264,0.000354060092613071,-0.0307410358636779,-0.0177121354810866,-0.000161414286482624,0.000701500340567307,0.00766206469177267,-0.0346413595854924,0.740392894154306,-0.00151153091600424,0
0.09,0.000624622300492102,0.000353213363012147,-0.0306568811622124,-0.0176697825493496,-0.00016060570335858,0.000699370078092488,0.00763619577041043,-0.034550746621329,0.740382327165116,-0.00143679298429295,0
0.1,0.000623722186412052,0.000353041041157558,-0.0306307588017815,-0.017661162447827,-0.000160118702176947,0.000698590970294788,0.00762459086993506,-0.0345257245810649,0.740372277087252,-0.00136944530168498,0
0.11,0.00062310019294611,0.000353004771766744,-0.0306172990590816,-0.0176593427945555,-0.000159719220993911,0.000698108866713974,0.00761652435712459,-0.0345146337996825,0.740362705159797,-0.00130609273479008,0
0.12,0.000622557252652104,0.000352996005343345,-0.0306068834560511,-0.0176589086362934,-0.000159353086482124,0.000697703594979068,0.00760950427900775,-0.0345067212836139,0.740353585779271,-0.00124590267321894,0
0.13,0.000645696028069039,0.000366449806695236,-0.0317456619996819,-0.0183319339399268,-0.000165022863580359,0.000723862055910411,0.0078804991845532,-0.0358014607296706,0.740344662446738,-0.00126658636900416,0
0.14,0.000659114982111217,0.000374436130989135,-0.0324622804241,-0.018731457159586,-0.000168172331622733,0.000739156981100873,0.00806862970069823,-0.0366000594590681,0.740336014293571,-0.00125635300978086,0
0.15,0.000628997928523216,0.000357312966995541,-0.0309647631573287,-0.0178748684253807,-0.000160492466891053,0.000705374452713506,0.00769057976517362,-0.0349167934021673,0.740327698837373,-0.00110187764791069,0
0.16,0.000622294111560819,0.00035385930680637,-0.0306525619575048,-0.0177020859013725,-0.000158514918255381,0.000698096978210939,0.00760728553821532,-0.0345698221944849,0.740320135354911,-0.00103093147249157,0
0.17,0.000620556078245637,0.00035316182476886,-0.030580649414885,-0.0176671925971753,-0.000157852525245295,0.000696344527511605,0.00758429290158436,-0.0344932502684912,0.740313004834023,-0.000979452061406107,0
0.18,0.000619882990259216,0.000353020112361165,-0.0305598131826011,-0.0176601150775072,-0.000157498419071607,0.000695753095094906,0.00757522984170838,-0.0344731451879803,0.740306226898521,-0.000933809956982106,0
0.19,0.000619449601560692,0.000352990508179332,-0.0305500460193108,-0.0176586254250882,-0.000157223459301503,0.000695414187073913,0.00756951904731234,-0.0344649785300667,0.740299772235531,-0.000891042348357182,0
0.2,0.000619080598049587,0.000352983556295075,-0.0305428691419939,-0.0176582824266163,-0.000156975420733284,0.00069513804037886,0.00756471949884778,-0.0344594952456774,0.740293622908974,-0.000850445418948474,0
0.21,0.000618738253921167,0.000352981217830404,-0.0305364774090872,-0.0176581663925848,-0.000156742163121414,0.000694884638847679,0.00756029204033067,-0.0344547424481568,0.74028776394256,-0.000811796605791934,0
0.22,0.000618414070639203,0.000352979853528318,-0.0305304827927877,-0.0176580969230798,-0.000156520630796035,0.000694645256153552,0.00755610764057613,-0.0344503121006126,0.740282181513775,-0.000774978574343336,0
0.23,0.000618105661642381,0.000352978727566698,-0.0305247922721886,-0.0176580361906518,-0.000156309747769166,0.000694417636456125,0.00755213102546425,-0.0344461101192116,0.740276862546028,-0.000739899554360196,0
0.24,0.000617811694347411,0.000352977689625425,-0.0305193625587993,-0.0176579916497676,-0.000156108717204364,0.000694200696815071,0.00754832705846179,-0.0344421096728583,0.740271794600499,-0.000706476340663123,0
0.25,0.000617531923519777,0.000352976707528064,-0.0305142033175237,-0.017657933832222,-0.000155917388901588,0.0006939942366198,0.00754472360032264,-0.0344382981159209,0.7402669658296,-0.000674630549991015,0
0.26,0.000621624322814564,0.000355487272266464,-0.0307207623422967,-0.0177835277465455,-0.000156820960836125,0.000698709657655131,0.00759116275410552,-0.0346755439185128,0.740262430303566,-0.000659362103167485,0
0.27,0.000611402835313815,0.000349672805255648,-0.0302325099877223,-0.0174926568476956,-0.000154216406376046,0.000687242168212621,0.00747643810378046,-0.0341189181690935,0.74025788986001,-0.000595937128834837,0
0.28,0.000610751509900964,0.00034945728748749,-0.0301596412621927,-0.0174818748272152,-0.000153933346681673,0.000686616579616165,0.00743510765483932,-0.0340578784233476,0.740253709316191,-0.000566991350966465,0
0.29,0.000615266118376385,0.000352264157616523,-0.0304341230004431,-0.0176222859657534,-0.00015490333345624,0.000691843472504704,0.00751643954031887,-0.0343552607631149,0.740249806991389,-0.000557194555107151,0
0.3,0.000606982801062215,0.000347810394246232,-0.0300378280494053,-0.0173994883402031,-0.000152602411701899,0.00068272446497384,0.00741352844595268,-0.0339124299395893,0.740246486400089,-0.000508093418495286,0
0.31,0.000614161109480571,0.000351931006148801,-0.0303924041192332,-0.0176056316897989,-0.000154399275190185,0.000690803999198078,0.00750036241067263,-0.034313278174086,0.740242965592036,-0.000509694344047338,0
0.32,0.000615522343581085,0.000352761274072134,-0.0304644756559886,-0.0176471577226633,-0.000154702007712201,0.000692369526150856,0.00751819497881992,-0.0343945227753392,0.740239521376619,-0.000492227343764243,0
0.33,0.00061566093729181,0.000352928148104651,-0.0304769462885485,-0.0176555101915953,-0.000154669994066121,0.000692584912026818,0.00752032572278094,-0.0344093881989185,0.740236220769341,-0.0004715692779705,0
0.34,0.0006155481212231,0.000352961289376942,-0.0304769471390895,-0.0176571706552576,-0.000154567254718766,0.000692524458130271,0.00751899200741195,-0.0344105324233761,0.740233071926148,-0.000451037198467395,0
0.35,0.000615388853219852,0.000352967490360529,-0.0304744342177026,-0.0176574825324165,-0.000154453178578044,0.000692411514596482,0.00751696361595084,-0.0344089100127881,0.740230070841363,-0.000431294615790156,0
0.36,0.000615226208718566,0.000352968282118009,-0.0304715095779964,-0.0176575223523696,-0.000154340917460534,0.000692292407348946,0.00751486327955184,-0.0344067990588488,0.740227211209454,-0.000412445808206487,0
0.37,0.000615068919228354,0.000352968004816469,-0.0304686084493616,-0.0176575068745229,-0.000154233151423749,0.00069217651132262,0.00751282428154812,-0.0344046671423938,0.740224486495705,-0.00039447851936754,0
0.38,0.000614918614637004,0.000352967532535263,-0.0304658211642607,-0.0176574797408054,-0.000154130329940059,0.000692065620475178,0.00751087510645485,-0.0344026104408503,0.740221890363057,-0.000377357473891081,0
0.39,0.000614775294961881,0.000352967040545374,-0.0304631582526136,-0.0176574511355941,-0.000154032319338229,0.000691959854042208,0.00750901512690739,-0.0344006436444662,0.740219416749228,-0.000361044072156981,0
0.4,0.000614638558959475,0.000352966563265012,-0.0304606100912291,-0.0176574371680013,-0.000153938819512174,0.000691858939950979,0.00750722575860483,-0.0343987705576979,0.740217059873626,-0.000345500481415041,0
0.41,0.000614508394212251,0.000352966106755853,-0.0304581861789145,-0.0176574070721551,-0.000153849813730724,0.000691762874033238,0.00750553593233786,-0.0343969774862501,0.740214814227213,-0.000330690431369364,0
0.42,0.000614384289271808,0.000352965671403488,-0.0304558705846635,-0.0176573930635919,-0.000153764953069836,0.000691671279800435,0.00750391093628862,-0.0343952744360647,0.740212674560785,-0.00031657931629867,0
0.43,0.000614266173512133,0.000352965256487873,-0.0304536689625259,-0.017657364389282,-0.000153684186911023,0.000691584105443644,0.00750237711642806,-0.0343936448789292,0.740210635872882,-0.000303134153677941,0
0.44,0.000614153535477776,0.000352964861103558,-0.030451564469346,-0.0176573488875833,-0.0001536071676267,0.000691500973511541,0.00750090239433817,-0.03439209519118,0.740208693397748,-0.00029032351543639,0
0.45,0.000614046136135408,0.000352964484343356,-0.0304495535411184,-0.017657334822252,-0.000153533731485767,0.000691421707647838,0.00749949287444775,-0.0343906148608113,0.740206842594781,-0.000278117456258372,0
0.46,0.00061394402748132,0.000352964125333213,-0.0304476466866508,-0.0176573061007105,-0.000153463911167818,0.000691346346357092,0.00749816737638432,-0.0343892008264954,0.740205079138009,-0.000266487443957581,0
0.47,0.000613846639853462,0.000352963783238728,-0.030445823035651,-0.0176572905458106,-0.000153397320196745,0.000691274469146691,0.00749689113944783,-0.034387856475515,0.74020339890475,-0.000255406292862791,0
0.48,0.000613753792425718,0.000352963457264562,-0.0304440807037824,-0.0176572764293682,-0.000153333834453879,0.000691205942605222,0.00749567141633787,-0.0343865725366724,0.740201797967795,-0.000244848100284983,0
0.49,0.000613665368780053,0.000352963146652176,-0.0304424207989247,-0.0176572622964005,-0.000153273373363844,0.000691140680869121,0.00749450989923037,-0.0343853488752554,0.740200272584796,-0.000234788185972719,0
0.5,0.000613581136083053,0.000352962850678142,-0.0304408381981398,-0.0176572466925143,-0.00015321577793569,0.000691078512115209,0.0074934040836983,-0.0343841807551677,0.740198819189796,-0.00022520303442294,0
0.51,4.74875467266481,0.0295816553428385,2.56292055918527,-1.4748180673327,-0.313431722858421,4.73849201440656,-1.65605125015219,2.44972332749943,0.0722789328391171,22.4725460170209,1215.94016735337
0.52,4.74432300301898,0.00548136517852416,2.78522205428186,-0.262862273507093,-1.53477081300876,4.48922146411554,-1.15268226690681,2.54909436036604,0.330577242056702,48.0313051463558,1215.94016735337
0.53,4.70986768354296,0.0156785959136891,4.50869103220198,-0.766613676791798,-3.29351633706529,3.36687533958954,-3.70975916298287,2.67463610720551,0.777713261422197,74.115336370358,1215.94016735337
0.54,4.73107212376714,0.0285509163101807,3.44923927949306,-1.40375811880773,-4.67395436670433,0.733491085885948,-3.61995760369263,-0.873896681984962,1.42116900226916,101.857608455684,1215.94016735337
0.55,4.72721273348663,0.020107971385869,3.64299855269781,-0.978058959736881,-3.61796127149738,-3.04258127189668,-2.14545459048617,-3.10242846554788,2.27427570374153,130.420966318781,1215.94016735337
0.56,4.74185569351258,-0.00516993148773026,2.91168943996669,0.29475733942591,0.87485616492537,-4.6604558614991,0.244319651870464,-2.91635477808666,-2.95712341471604,156.288843459141,1215.94016735337
0.57,4.68674539973879,-0.00907967928330561,5.66802951939226,0.497983773607747,4.63913602650683,-0.666394635418824,5.53710805973635,-1.30957275715458,-1.71540395849985,183.08624366357,1215.94016735337
0.58,4.71371823332491,0.0510717177946491,4.32030403165057,-2.50888163165252,1.30442090053996,4.52992649143148,-1.26786389765937,4.83239434489276,-0.269536965747162,210.6459609364,1215.94016735337
0.59,4.68994473896535,0.040833299029376,5.50983657361822,-1.98653658637313,-4.58668571880313,0.979572932346436,-5.79611232531918,-0.842442039111949,1.36909488389995,236.950142378863,1215.94016735337
0.6,4.71944841005256,0.0608556962638186,4.03561159160333,-2.98534551588412,0.256267891315666,-4.71287847061602,3.24965969029235,-3.82598492741172,-3.07437611542217,264.17364345443,1215.94016735337
0.61,4.7163895589419,-0.0076703522067465,4.18955134490191,0.444753263976026,4.06504237403623,2.39161447630865,3.83931162939476,1.73488678298641,-1.04062308526746,291.421807338433,1215.94016735337
0.62,4.68629925987981,0.0238718381831757,5.6950485688368,-1.11927431588903,-4.3443920725177,1.75733552233307,-5.7047107747396,1.06893787106121,1.19150486602893,317.556991943635,1215.94016735337
0.63,4.67739340569335,0.0450030215091153,6.14141839980504,-2.17308110157617,2.11765300536469,-4.17080089340626,4.76098345228266,-4.44660972006563,-2.66215675404067,344.520599884733,1215.94016735337
0.64,4.69632322661078,0.0533684098317404,5.19602195100765,-2.58878922755106,0.226034904425195,4.69118409977197,-2.39595967672368,5.28770753801228,-0.0367822939378975,371.635550002904,1215.94016735337
0.65,4.68061935648776,0.0699756878880566,5.98231465087894,-3.41660505750065,-1.69988906492252,-4.36159045809899,1.11273915433401,-6.79875652420881,2.78491069507709,398.591958798616,1215.94016735337
0.66,4.68235683832183,0.0370981067971854,5.89651817554997,-1.76703009628857,2.1945756578142,4.13638483618685,1.15474583241149,6.04631160446673,-0.479868224541908,425.440427839168,1215.94016735337
0.67,4.66214368572287,0.0773432312031795,6.90835381304151,-3.77532012470461,-1.91471869652457,-4.2515194971819,0.735610981106453,-7.83819309118118,2.73502664254143,452.176808122274,1215.94016735337
0.68,4.66103180941037,0.0257019356558716,6.9652035484397,-1.18429647241253,0.662795787172809,4.61373816577596,-0.220772172468398,7.06171921373466,-0.137166667419308,478.803858637332,1215.94016735337
0.69,4.65690556825805,0.0488491435065668,7.17271877676007,-2.33316180867429,1.45485453597811,-4.4240879274307,4.5206665301439,-6.03780695279167,-2.81339466469026,505.367239112228,1215.94016735337
0.7,4.63786408149604,0.0451891480140612,8.12604961941748,-2.13969979059076,-3.85073791096294,2.58527422889761,-7.96571475636342,2.67551603085146,0.989287078414951,531.910979499877,1215.94016735337
0.71,4.64371180523399,0.0855751186480162,7.83499681898902,-4.16332023165052,4.49224125133608,1.1794706315952,6.40890811071641,6.13565867150643,-1.29560832611376,558.831587519317,1215.94016735337
0.72,4.5474906993037,0.0760615271711889,7.64417950438041,-3.68755755912804,-1.16851568565843,-4.3954553926231,1.73898100915408,-8.30707566456893,2.89848077642373,585.455552510611,1215.94016735337
0.73,4.39504642698894,0.0637976684704942,8.63762874556125,-3.06116532386057,-3.66442312389416,2.42744853847826,-8.92277576133051,2.08888396019622,1.00024264086703,610.795817691207,1215.94016735337
0.74,4.26984200762548,0.0723472202702871,8.29181322154212,-3.50407563996997,2.84626341064197,3.18364091687564,2.76949303796544,8.5651982408017,-0.712563566675263,636.068858690941,1215.94016735337
0.75,4.16172886297395,0.0381189803214501,7.32271789122681,-1.77524388887432,3.22680117296259,-2.62853464419598,6.82809807217083,-3.18602650589975,-2.24521409266603,659.924328282916,1215.94016735337
0.76,4.0120024709721,0.0967533689484952,8.52772008610313,-4.72466503745695,-1.87479768684326,-3.54833181578278,0.428532528897807,-9.73965242987507,2.67962635860863,683.677313936465,1215.94016735337
0.77,3.94097202928925,0.0689112929936365,6.07808358893858,-3.31123105438905,-3.92279346964267,0.38431848312448,-6.32375227765754,-2.81380673474495,1.49062144908203,706.13115931824,1215.94016735337
0.78,3.8293099972677,0.0421161913564489,5.64713945321459,-1.98059664703231,-1.68333980887229,3.4397319541811,-4.30723860614959,4.1545929610472,0.466114391467328,728.332078453914,1215.94016735337
0.79,3.6537141618647,0.0874938375066054,8.66720003448026,-4.26429265516079,1.50109500968617,3.33226591377513,-0.559208853736656,9.6432273510716,-0.399305029613955,749.858995466338,1215.94016735337
0.8,3.54765893539272,0.104413106619294,8.41401332512712,-5.09991068248385,3.22470363915234,1.48258978087107,5.27228098325612,8.3070910936576,-1.11043262228041,770.440149829064,1215.94016735337
0.81,3.4539724807583,0.0365893714447791,7.59495313639938,-1.69828804551058,3.43268164912426,-0.384657478419328,7.72748257906524,0.923855194210709,-1.67179520658954,790.435518658147,1215.94016735337
0.82,3.36159450646894,0.100927121468764,6.84750620480658,-4.92202744891086,2.87160790092868,-1.75053476774788,8.38579779434144,0.890556446899843,-2.0882308530945,809.928553672065,1215.94016735337
0.83,3.26124474733327,0.0390290187210116,6.64732425079722,-1.83077443018375,2.25958664466293,-2.35191597672453,5.96730373846024,-3.4539746383565,-2.364246393389,828.83959426053,1215.94016735337
0.84,3.14559599568377,0.0700157800636516,7.35431394079989,-3.38619879263405,1.81594624915204,-2.56943877095959,7.09828632257731,-3.89443283236364,-2.50409735721179,847.153696658364,1215.94016735337
0.85,3.0404492914197,0.0621298566148796,7.68411894143571,-2.99461056186857,1.73963090559617,-2.49436892320928,6.94423415117778,-4.44870637118275,-2.51216655007557,864.840178334484,1215.94016735337
0.86,2.92674372173097,0.0804946572069788,8.56637343116385,-3.91497015403487,1.93382095385221,-2.19832771009526,8.69999915763032,-3.60829041602329,-2.39262297754165,881.975860800465,1215.94016735337
0.87,2.86696308740021,0.046862833675138,6.88562679779468,-2.22972300853567,2.37468649880775,-1.60702753619084,6.98418646040376,-1.89859436942555,-2.14939089501555,898.54442627303,1215.94016735337
0.88,2.76813834062565,0.0548405148375398,7.2949775167922,-2.62667659858539,1.5512489904615,-2.29329978949582,6.35224509070233,-4.44579680504046,-2.52705482840621,914.553264183735,1215.94016735337
0.89,2.66511181677408,0.0416482603735936,8.03414485673867,-1.96564979893127,2.34766309343585,-1.26215433811409,8.0385135309374,-1.94770709400448,-2.0484603683446,930.092840976751,1215.94016735337
0.9,2.57935800521968,0.0297742893384603,8.01591502493191,-1.38900759331026,2.56624957822284,0.261414096153105,7.80803346244951,2.28448007880819,-1.45773751174157,945.199985480034,1215.94016735337
0.91,2.50897390160112,0.03260819362148,7.32124592410578,-1.54399853266775,1.74976377996989,1.79842710375269,3.91625728129888,6.3755393698721,-0.758688161827287,959.790583747953,1215.94016735337
0.92,2.43694212459214,0.0502375205010872,6.82156160516942,-2.41760970547795,-0.0596022136968336,2.43673106911702,-2.72247888526546,6.70571757088132,0.0450670935188996,973.790050472893,1215.94016735337
0.93,2.30438973619245,0.0776235526244197,9.4932342175411,-3.77896530251658,-1.82952742390025,1.40323443422261,-9.92054598646766,2.44639367173352,0.950180555353574,987.328713524889,1215.94016735337
0.94,2.25090771822106,0.057550752514556,8.32735138341586,-2.80125574466734,-2.10977202678397,-0.786612763729392,-6.68036911143482,-5.70652988644564,1.95323641424524,1000.52951788513,1215.94016735337
0.95,2.1775833406355,0.0594778044541349,8.18265933174252,-2.89404832159243,-0.255793203878295,-2.16332536884437,2.1436317280864,-8.41048586238668,3.05120525398589,1013.28732562105,1215.94016735337
0.96,2.08671794321951,0.0376301768456563,9.0740867274014,-1.78514241973524,1.84199610794492,-0.981253353155772,8.89499384964723,-2.53078403066687,-2.04223852490829,1025.51517628343,1215.94016735337
0.97,2.03957396013161,0.0200511668286618,7.88520757764305,-0.934887798349911,1.42541133806477,1.45892649076454,4.77972016330252,6.34072463512982,-0.763948242209149,1037.47791364699,1215.94016735337
