t,iq,id,vq,vd,ia,ib,va,vb,theta_e,omega,r
0,0,0,0,0,0,0,0,0,0,0,0
0.01,0.000454450207115419,0.000259812001652157,-0.0222295627179602,-0.0129988611107473,0.000193902471172821,-0.000486239754259996,-0.00930420672833691,0.024011571917819,-2.24278345021102,-0.00137140491591837,0
0.02,0.00054283052276888,0.000309533380872939,-0.0265847606489496,-0.0154865105034593,0.000232107647889169,-0.000580174051570324,-0.011163542434006,0.0286697894421958,-2.24279443205414,-0.00160426506466013,0
0.03,0.000576632954600871,0.000328602910415405,-0.0282369096891751,-0.0164405843002862,0.000246681665718349,-0.000616144133189326,-0.0118621592282276,0.0304451155257066,-2.24280630101168,-0.00166648711145612,0
0.04,0.000565984360199802,0.0003225242401936,-0.0277252115290503,-0.0161364602923734,0.000242125703317504,-0.000604760552033813,-0.0116507076895743,0.0298886887539421,-2.24281789168689,-0.00159323606401392,0
0.05,0.000580032766973746,0.000330627285840998,-0.0284156018803688,-0.0165418726324501,0.000248067651936108,-0.000619850669894541,-0.0119382330761493,0.0306359033069266,-2.24282939686628,-0.00159609453961177,0
0.06,0.000582130795134633,0.000331890305325,-0.0285242074942371,-0.0166050655941684,0.00024891608730323,-0.000622148068304043,-0.0119835314808634,0.0307531069943848,-2.24284075095027,-0.00156279855389348,0
0.07,0.000592577748474666,0.000338008792002484,-0.0290389553405215,-0.0169111839732083,0.00025327512023979,-0.000633443008427595,-0.0121954190086037,0.031313269165788,-2.2428517134657,-0.00155650094180015,0
0.08,0.000583849176871605,0.000333039666807149,-0.0286203093974705,-0.0166625680415114,0.000249531577788921,-0.000624122802569205,-0.012022260783429,0.0308582003590644,-2.24286262536003,-0.00149151892235378,0
0.09,0.000582313040272745,0.000332263320515091,-0.0285515513613351,-0.0166237234428398,0.000248806285928166,-0.000622561501471167,-0.0119923152717521,0.030785120442608,-2.2428731703327,-0.00144989891288552,0
0.1,0.000581931480234601,0.000332141138225338,-0.0285388291795444,-0.0166176183886447,0.000248577391575737,-0.000622230876594098,-0.0119858451260941,0.0307725450436444,-2.24288343067758,-0.00141281960879068,0
0.11,0.000581738382516287,0.000332121042411009,-0.0285351275060386,-0.0166166064780651,0.000248432582406026,-0.000622097407568875,-0.0119832709827774,0.0307695682320386,-2.24289342536637,-0.0013772480338646,0
0.12,0.000581578712479225,0.000332116900029391,-0.028532904581497,-0.016616404337398,0.000248304160122045,-0.000621997168932634,-0.0119813577525726,0.0307681426700667,-2.24290316308593,-0.00134267870127548,0
0.13,0.000605142307224115,0.000345695336805161,-0.0296854066880098,-0.0172957478862712,0.000258282237110529,-0.000647296503833088,-0.0124599093593797,0.0320174471801553,-2.2429128743593,-0.00138102294305683,0
0.14,0.000619879553122524,0.000354281094231098,-0.0304568886653287,-0.0177253142417184,0.000264462002790353,-0.000663193488500211,-0.0127958174560347,0.0328340659646613,-2.24292244083629,-0.00139278087769205,0
0.15,0.000587303399215888,0.000335571228846994,-0.0288278845344019,-0.016789228645491,0.000250614997148976,-0.000628271800707653,-0.0121036853373261,0.0310873917608792,-2.24293182499756,-0.00125994245382683,0
0.16,0.000581973861670591,0.000332651302721379,-0.0285734800041216,-0.0166431402292161,0.000248257295376698,-0.000622670683557735,-0.0119953069476581,0.0308147770958473,-2.2429406393969,-0.0012127347939388,0
0.17,0.000581008174373369,0.000332194867966985,-0.0285313296946944,-0.0166203007515953,0.000247780555868818,-0.000621714343670481,-0.0119762835330228,0.0307707621608155,-2.24294917485818,-0.00117989872164734,0
0.18,0.000580743902622443,0.000332122797589716,-0.0285231903678706,-0.0166166912882234,0.000247613480624354,-0.000621495452376811,-0.0119719065852538,0.0307629691486999,-2.24295748274875,-0.00115001192863196,0
0.19,0.000580594492906143,0.00033211071584446,-0.028520517917055,-0.0166160957649058,0.000247499064794065,-0.000621394967551013,-0.0119699373162511,0.0307609359638259,-2.24296557598602,-0.00112122958201381,0
0.2,0.000580466429616317,0.000332108014659134,-0.028518764763155,-0.0166159549005497,0.000247395641543289,-0.000621315061669786,-0.0119684106872988,0.030759828453576,-2.24297346121432,-0.00109324017485371,0
0.21,0.000580344319707954,0.000332106797864232,-0.0285171844433633,-0.0166159006353521,0.000247296079336165,-0.000621239972756006,-0.0119669716160897,0.0307588938819393,-2.24298114395481,-0.00106597802959697,0
0.22,0.000580225918952317,0.000332105833005909,-0.0285156709969252,-0.0166158427311784,0.000247199386203807,-0.000621167340417275,-0.0119655932188473,0.0307579957245789,-2.24298862943635,-0.00103941722044936,0
0.23,0.000580110502933201,0.000332104927283593,-0.0285141917144037,-0.0166158015832248,0.000247105112135304,-0.000621096564067175,-0.0119642370443911,0.0307571296340293,-2.24299592272736,-0.00101353857973394,0
0.24,0.000579998055503617,0.000332104050112219,-0.0285127489795179,-0.0166157604445452,0.000247013260394608,-0.000621027611043295,-0.0119629152333695,0.0307562840512102,-2.24300302876338,-0.000988324407015921,0
0.25,0.000579888576663565,0.000332103196227042,-0.0285113455282958,-0.0166157193145019,0.000246923831196147,-0.000620960478514156,-0.0119616297781465,0.0307554607382615,-2.24300995235219,-0.000963757612386996,0
0.26,0.000584459888694801,0.000334793647985351,-0.0287376499019858,-0.0167503282062963,0.000248821047536309,-0.00062591391942296,-0.0120546695316376,0.031001789615936,-2.24301664260988,-0.000954375917476021,0
0.27,0.0005728937480601,0.000328158942283723,-0.0281784594041876,-0.0164183828078459,0.000243898702856978,-0.000613521768735067,-0.0118236425935193,0.0303939195274176,-2.24302335518549,-0.000895379977152298,0
0.28,0.000572526337395762,0.0003280100705135,-0.0281173061382492,-0.0164109324159515,0.000243700006254303,-0.000613178049445453,-0.0117802391950951,0.0303500835540744,-2.24302976102063,-0.000871833416954995,0
0.29,0.000578349569655828,0.000331461783713974,-0.0284511425208103,-0.0165836243638357,0.000246102971543372,-0.000619506631265116,-0.0119337131487272,0.0306931685927693,-2.2430359267821,-0.000868130048195268,0
0.3,0.00057156475496556,0.000327694412510356,-0.028124091319602,-0.0163951439419315,0.000243136967703172,-0.000612335130500819,-0.0117950216134125,0.0303420948942076,-2.2430415784971,-0.000827524026945734,0
0.31,0.000578043545081954,0.000331411344197281,-0.0284427621128368,-0.0165811032812188,0.000245887814216248,-0.000619279421500115,-0.0119283729736083,0.0306861144629352,-2.24304743299109,-0.000826922345400525,0
0.32,0.000579004131178268,0.000331990643101946,-0.0284927801846797,-0.0166100812884727,0.000246275060133368,-0.000620332302709645,-0.0119492847859935,0.0307400051425723,-2.24305320380658,-0.00080967443032382,0
0.33,0.000579083266665972,0.000332080438619033,-0.028499813141736,-0.0166145815902917,0.000246277561510168,-0.000620453229617308,-0.0119518117084048,0.0307479733872196,-2.24305883712171,-0.000790202613286135,0
0.34,0.000579023439799434,0.000332093879071099,-0.0284999996940047,-0.016615246129712,0.000246218975560393,-0.000620427839823173,-0.0119513750005878,0.0307486751276295,-2.24306432750856,-0.000770803915895058,0
0.35,0.000578943081064893,0.000332095421537218,-0.0284991054880325,-0.0166153294360958,0.000246151822550907,-0.000620380319137995,-0.0119504589901498,0.0307482473616423,-2.24306967720321,-0.000751834965735234,0
0.36,0.000578861325231505,0.000332095121935902,-0.0284980641108141,-0.0166153196323961,0.000246084809322546,-0.000620330452648491,-0.0119494900453135,0.0307476534422988,-2.2430748895888,-0.000733342108623402,0
0.37,0.000578781183043742,0.000332094548781515,-0.0284970242241503,-0.0166152814822455,0.00024601931250802,-0.000620281343463587,-0.0119485440412557,0.0307470366646972,-2.2430799681532,-0.000715322304631036,0
0.38,0.000578702919646841,0.000332093946433047,-0.0284960003614097,-0.0166152542240375,0.000245955385215587,-0.000620233348787943,-0.011947607806644,0.0307464368216136,-2.24308491632696,-0.000697764878025891,0
0.39,0.000578626635309892,0.000332093352669367,-0.0284949995415859,-0.0166152269666573,0.000245893080255903,-0.000620186561495403,-0.0119466935124881,0.030745849803627,-2.24308973745686,-0.000680658192553845,0
0.4,0.000578552330032892,0.000332092773048667,-0.0284940235886369,-0.0166151997098009,0.000245832392108944,-0.000620140986782551,-0.0119458024853157,0.0307452767860071,-2.24309443480459,-0.00066399071311713,0
0.41,0.00057847988740052,0.000332092208111075,-0.0284930687328874,-0.0166151724536048,0.000245773227351105,-0.000620096553395058,-0.0119449316775509,0.030744715459713,-2.24309901154809,-0.000647751169153581,0
0.42,0.000578409365620437,0.000332091657621585,-0.0284921396175949,-0.0166151451976191,0.000245715629717635,-0.000620053298202465,-0.0119440846267213,0.0307441687537036,-2.24310347078364,-0.000631928574409786,0
0.43,0.000578340648277321,0.000332091121232814,-0.0284912322910129,-0.0166151179419942,0.000245659506441138,-0.000620011149211525,-0.0119432581477756,0.0307436342435702,-2.24310781552868,-0.000616512223893976,0
0.44,0.000578273677161422,0.000332090598587698,-0.0284903455751833,-0.0166150892314362,0.000245604810350337,-0.000619970070649304,-0.0119424521347397,0.0307431100926924,-2.24311204872231,-0.00060149168733438,0
0.45,0.000578208510484551,0.000332090089335114,-0.0284894841130815,-0.0166150619759093,0.000245551585403948,-0.000619930099234563,-0.0119416683194513,0.0307426015041187,-2.24311617322932,-0.000586856802234362,0
0.46,0.000578144973621665,0.000332089593132912,-0.0284886408148644,-0.016615034720665,0.000245499693436066,-0.000619891126661752,-0.0119409019748693,0.0307421029578951,-2.24312019183957,-0.00057259766701615,0
0.47,0.000578083066572763,0.000332089109647157,-0.0284878173672416,-0.0166150074654269,0.000245449132944368,-0.000619853153368819,-0.0119401543369136,0.0307416155371865,-2.24312410727234,-0.000558704634323301,0
0.48,0.000578022630867949,0.000332088638552472,-0.0284870073060786,-0.0166149939909825,0.000245399778483702,-0.000619816081084776,-0.0119394116836732,0.0307411460297876,-2.24312792217627,-0.000545168304494613,0
0.49,0.000577963925239615,0.000332088179531806,-0.0284862252088586,-0.0166149667337997,0.000245351831054117,-0.000619780071365258,-0.0119387025073829,0.0307406819809726,-2.24313163913277,-0.000531979519204396,0
0.5,0.000577906674802283,0.000332087732276369,-0.0284854587904364,-0.0166149394765737,0.00024530507420535,-0.00061974495341116,-0.0119380085349285,0.0307402265530336,-2.24313526065667,-0.000519129355267241,0
0.51,4.7341041879414,-0.00126322274064714,3.29550468561306,0.066801817398415,-0.361697881834146,4.72026680393097,-0.18430041476108,3.29102521607238,0.0762102929694778,23.741799049685,2092.49146862484
0.52,4.71569328313222,0.00213285097632931,4.2168373308368,-0.0990587508085268,-1.61138386240369,4.43184044586632,-1.53579433751883,3.92846859013734,0.349184533101826,50.7341704621156,2092.49146862484
0.53,4.69871227547732,-0.0220822304299154,5.06668102963481,1.11684723956365,-3.45278805124758,3.18694828100237,-2.94559993209733,4.271070761836,0.820714890149091,77.979828308458,2092.49146862484
0.54,4.70392644223804,-0.00632814823023797,4.80680699216532,0.333060642536867,-4.69073199824135,0.352132560438428,-4.76745177267296,0.698374145264486,1.49452172757949,106.051034597939,2092.49146862484
0.55,4.69326547937236,-0.00982546354288183,5.34069452510496,0.51183369320603,-3.23024116319207,-3.40475835078228,-4.05451702348858,-3.51367093596261,2.38039742330269,136.067321304352,2092.49146862484
0.56,4.71484889367491,0.0319055366596852,4.26242311325459,-1.5734792201868,1.57900355803389,-4.44269803353473,2.93361957589105,-3.46957689592195,-2.79333461289037,166.136660073284,2092.49146862484
0.57,4.68703750487301,0.033126640908161,5.65384568407556,-1.62956277626343,4.66808901583179,0.422330305205161,5.46881069923685,2.17107240713795,-1.47350259034173,193.663159384406,2092.49146862484
0.58,4.75065594054763,0.00269158756769527,2.47382510973824,-0.100459457775351,-0.214079806246836,4.74583069089716,-0.213233463871123,2.4666646034906,0.0456450400097265,221.098677857133,2092.49146862484
0.59,4.70132360217716,-0.015308831611503,4.94136213354424,0.800185018318023,-4.59930895968354,-0.974184308069094,-5.00068119553349,-0.224818546839936,1.77626614245967,251.25648842613,2092.49146862484
0.6,4.72916500658742,0.00720558473548305,3.55020741932061,-0.319535534219624,2.58268222475001,-3.9616670867127,2.21077061875669,-2.79617040773095,-2.56234661188079,278.889607676937,2092.49146862484
0.61,4.67887541092287,0.0197270168729502,6.06563677738136,-0.942245658232507,1.90865605817349,4.27191951208482,1.58906830722382,5.92913470167074,-0.415966123479436,307.454390299402,2092.49146862484
0.62,4.67888373840203,0.0437482339632166,6.06623271786377,-2.14122789380163,-4.36986018137319,-1.67277880806368,-4.86065328169378,-4.21403440370799,1.94573689470872,336.105445652916,2092.49146862484
0.63,4.66065120280153,0.00954075577424085,6.97889135609895,-0.425331683712514,4.56411338163213,-0.9437317944218,6.92247122736775,-0.982457992826137,-1.77264797886985,364.411278593665,2092.49146862484
0.64,4.71671018380484,0.0244741963090573,4.17699463235559,-1.16733696079228,-3.9693042707946,2.54805367881938,-4.15222794211201,1.25258247453148,1.0052971203565,392.705146859404,2092.49146862484
0.65,4.68086325753649,0.0169397630842167,5.97036208896676,-0.791306620113926,3.49483549608864,-3.11398340499871,4.99619733543123,-3.36294540928596,-2.29501137258427,421.791685284837,2092.49146862484
0.66,4.6970962963434,0.0367405590551146,5.15978981682197,-1.77048030666021,-3.64996599861489,2.9566554913885,-5.13829444061543,1.83192841333714,0.897779032024764,449.301512173035,2092.49146862484
0.67,4.6661259502608,-0.00676078329615937,6.70938465116077,0.406264336521009,4.27707586231538,-1.86531476161188,5.98312756090448,-3.06318097707363,-1.98349609269501,478.101707342146,2092.49146862484
0.68,4.6933184974084,0.0545494159057314,5.35086588835326,-2.66124413683179,-4.68934946579869,-0.200538635940813,-5.19836519899525,-2.9480477216014,1.6251572467357,506.939951730809,2092.49146862484
0.69,4.67698612754019,0.00689826263722187,6.1686097012643,-0.274184801716244,3.49124359680363,3.11214796740265,4.41588723513049,4.31588494733535,-0.841269511800935,535.082192797475,2092.49146862484
0.7,4.66498158864317,0.0378426439353885,6.76997005151018,-1.8095443057949,0.161990835055199,-4.66232176682797,2.09783818608823,-6.68625605536982,-3.09875006458969,563.013892298933,2092.49146862484
0.71,4.71129121544052,0.0362041490992011,4.45562370145991,-1.72359772419781,-4.25582587884609,2.02126736134607,-4.76678720460408,0.317980235068078,1.13508030521046,591.372383164395,2092.49146862484
0.72,4.70648462126493,0.027738701022654,4.69716915215166,-1.29758347970359,3.07671577431361,3.5616831652784,2.06264470666603,4.41504447823433,-0.70657918941004,619.804579253944,2092.49146862484
0.73,4.66669767332457,0.0584554787628688,6.68772477805889,-2.8323353485634,3.30973270856176,-3.29046404251541,6.77299979278245,-2.62188101193657,-2.34074965493206,648.215099350946,2092.49146862484
0.74,4.64831058847403,0.0727596721643529,7.60831351053758,-3.54475152177053,-2.781251087814,-3.72514800824701,-1.58254211185115,-8.24301269500059,2.51591316752895,676.550599254585,2092.49146862484
0.75,4.66627552727928,0.0401508367147645,6.71130234980665,-1.9081142338726,-4.4815616507371,1.30051703442016,-6.97724795207251,-0.0221399035096799,1.29696530742169,704.828710363217,2092.49146862484
0.76,4.67040419593085,0.0743656853587757,6.50614228590087,-3.6145956023453,-1.24372823855828,4.50237111721591,-5.30033180020387,5.22510015412422,0.285438674460023,733.058732131712,2092.49146862484
0.77,4.63711162791424,0.0372180552653982,8.17203929002797,-1.75124729193978,2.33134147091726,4.00862025881182,2.53073037986076,7.96520539469869,-0.518740817195435,761.356051080078,2092.49146862484
0.78,4.65839110570065,0.0698560622662733,7.10937386683203,-3.38640785699475,4.21453195063238,1.9857512432843,4.89595389602655,6.16770544046102,-1.11548483518038,789.87944039892,2092.49146862484
0.79,4.66731661402276,0.0254513604812807,6.66440369367387,-1.16753660583094,4.65874726023065,0.283841703378202,6.57240361183663,1.606527024773,-1.50449188192636,818.411522011671,2092.49146862484
0.8,4.67412557523148,0.0566395739171446,6.32528933489754,-2.71899409401059,4.63642876411936,-0.595135488450429,6.59658165296505,1.9716299219676,-1.6863419001067,846.485325708321,2092.49146862484
0.81,4.63645176636151,0.0697283740982595,8.21034338268766,-3.36358196203682,4.61108432802265,-0.48933459699376,8.4812219284126,2.60620349896084,-1.66148396518735,874.442152273712,2092.49146862484
0.82,4.65570756596817,0.0359294253339275,7.24895782746932,-1.68248931549257,4.61449898322234,0.619114688291358,6.9403370637213,2.68512221753717,-1.42970839070935,903.021281757517,2092.49146862484
0.83,4.65269736019279,0.0881371856453481,7.40081790561022,-4.28483702261724,3.93918170163784,2.47754079896175,3.83945435650766,7.64136926386146,-0.990421993912586,931.188287398467,2092.49146862484
0.84,4.62572092593701,0.0937719352286333,8.75105197552446,-4.55424508433254,1.65171880535972,4.32179502620255,-1.32841771774234,9.77534476802153,-0.344784546376448,959.173228641457,2092.49146862484
0.85,4.64644682540326,0.0702151668449387,7.71620459241757,-3.3850452505094,-2.19917111780625,4.09365908028037,-6.71140716496306,5.09464017631518,0.508084197917245,987.700885347429,2092.49146862484
0.86,4.6300391512233,0.0356280333989503,8.53802401042888,-1.63738495708019,-4.62988340356936,0.0520727181687219,-8.54378579729279,-1.60704939261699,1.5672445330548,1015.55202577874,2092.49146862484
0.87,4.65111496395483,0.045990828940619,7.48568092568988,-2.16450657248652,-1.45441881794133,-4.41810496324944,-0.207702733169425,-7.78956784412387,2.8334588651784,1044.04298896563,2092.49146862484
0.88,4.63298055354157,0.070644712579115,8.39386406610385,-3.38587283758783,4.22736621056835,-1.8970699530209,9.04859913545627,-0.209624708382839,-1.97737097737355,1072.07000136709,2092.49146862484
0.89,4.64962186935582,0.0975578963923143,7.56331278916052,-4.72999665122459,1.45876847670153,4.41593654874278,-2.30020546172507,8.61891080712204,-0.29807695157301,1100.16689458739,2092.49146862484
0.9,4.62748864845593,0.100327849518361,8.67153117814039,-4.87759473482747,-4.62851136641563,0.0244826456657892,-8.59043648904673,-5.01904216941161,1.5871842927139,1128.5571259243,2092.49146862484
0.91,4.63063948438051,0.0664925780601253,8.51554511510857,-3.17174931020415,2.31163185703046,-4.01292928604564,7.08141021095394,-5.69457037171614,-2.60461435563856,1156.50128168566,2092.49146862484
0.92,4.62875496554479,0.0717874510817069,8.6113481929618,-3.42617658955508,1.46667117791505,4.39083154141236,-0.664833861225994,9.24402507894743,-0.30686999908994,1184.46005226204,2092.49146862484
0.93,4.62317624394987,0.102538254670733,8.89182097426483,-4.96842599742233,-3.80598721470683,-2.62654411685422,-4.2925493533875,-9.23708596793223,2.19702834745384,1212.72295854085,2092.49146862484
0.94,4.6105537927037,0.119520166027722,9.5245675959552,-5.82199988571687,4.54673170866801,0.773771358280127,8.21984233431621,7.55296382608775,-1.3763120372422,1240.9405020032,2092.49146862484
0.95,4.63117233506385,0.087582489915814,8.49524451551642,-4.22398064066626,2.69776840432193,-3.76529859722213,8.4639808463724,-4.28628277921281,-2.50098116501958,1269.09641953651,2092.49146862484
0.96,4.64049166647891,0.0970908884920858,8.03089060415351,-4.69799446524522,-2.62027358204917,3.83115594860136,-8.49280846677991,3.79981055290225,0.620784133800966,1297.19149898059,2092.49146862484
0.97,4.59973305042457,0.0928068469114589,10.0704862911679,-4.48272394502964,3.25699212880709,-3.24933216505953,10.3726831763344,-3.73054310139049,-2.33484334511358,1325.24081390953,2092.49146862484
