t,iq,id,vq,vd,ia,ib,va,vb,theta_e,omega,r
0,0,0,0,0,0,0,0,0,0,0,0
0.01,0.000445402769938061,0.000233167464154748,-0.0209673291429558,-0.0116628430773853,-0.000456299586541348,0.000211048290992957,0.0215139561082148,-0.0106207576288401,1.61984740870655,-0.0043556832053735,0
0.02,0.000590478502733886,0.000300107374815225,-0.0281033360159232,-0.0150111199308921,-0.000604473701910884,0.000270815144162008,0.0288050840119005,-0.0136161063403187,1.61981312495338,-0.00478422617181261,0
0.03,0.000642951851596164,0.000328049120202581,-0.0308491022900087,-0.0164087429246783,-0.000658243379525339,0.000296173871311573,0.0316155440299881,-0.0148785527574252,1.61978032909,-0.00420686042661819,0
0.04,0.000628741340409655,0.000326635322672617,-0.0304519630404583,-0.0163380323137951,-0.000643973047293972,0.000295474231560877,0.0312150354046507,-0.014828179847522,1.61975447010865,-0.00311575046293762,0
0.05,0.000630271867001991,0.000335037647417388,-0.030718838778767,-0.0167582983808954,-0.000645906956145879,0.000303804304649423,0.0315018586178845,-0.0152355020973324,1.61973478020026,-0.00242622949054631,0
0.06,0.000622314740886188,0.000337251132662557,-0.0304995774617475,-0.0168690243912636,-0.000638063104399739,0.000306413834560694,0.0312880491869823,-0.0153572845038164,1.61971998433672,-0.00180391148483562,0
0.07,0.000620020237694615,0.000341900380494101,-0.0304964602325256,-0.01710156690486,-0.000635995507821414,0.000311176283421279,0.0312961473436095,-0.0155900236934554,1.61970968043711,-0.00140766814250498,0
0.08,0.000608180461398379,0.000339058447351691,-0.0300306944703161,-0.0169594192589248,-0.000624028460353376,0.000308921648668848,0.0308238643640459,-0.0154710664673242,1.6197016565938,-0.000984104167281306,0
0.09,0.000600861475917517,0.000338308803027691,-0.029747990894124,-0.0169219200998355,-0.000616679886439767,0.000308534077710132,0.0305395808925058,-0.0154475998463255,1.61969617184982,-0.000703430683176334,0
0.1,0.000596111753922931,0.000338110840412129,-0.0295667450938509,-0.0169120182725413,-0.000611924998277574,0.000308570834740195,0.0303580093071725,-0.0154466840584364,1.61969238888662,-0.000513256316619976,0
0.11,0.000592933250774644,0.000338058408323162,-0.0294463480581636,-0.0169094009380756,-0.000608746921873525,0.000308675415965841,0.0302375877269325,-0.0154500337379298,1.61968976664384,-0.00038273643377294,0
0.12,0.000590767329757444,0.000338044413002271,-0.0293646517145429,-0.0169086991492742,-0.000606582342450938,0.000308768400095482,0.030155926549037,-0.0154533805753356,1.61968794399894,-0.000292511276448272,0
0.13,0.000611084120920942,0.000349703182667597,-0.0303203302698799,-0.0174918609484056,-0.000627444028065774,0.000319421524719551,0.0311389325956782,-0.0159891996020676,1.61968601271354,-0.00045557854086538,0
0.14,0.000622072569281631,0.000356386433203196,-0.030955853175796,-0.0178261524224395,-0.000638745329147299,0.000325561016886933,0.0317900015339027,-0.0162920949697682,1.61968407923398,-0.000511854576860411,0
0.15,0.000597854935478123,0.000342875126841551,-0.0297463719226718,-0.0171503264054537,-0.000613895834475418,0.000313250348596599,0.0305489128014433,-0.0156762324882395,1.61968241599251,-0.000175089620588382,0
0.16,0.000589219664774356,0.000339313538073456,-0.0293501490364431,-0.0169721805461614,-0.000605096779815007,0.000310115103686099,0.0301444550094579,-0.0155176671292978,1.61968223026376,-6.96363165695832e-05,0
0.17,0.000586315583076153,0.000338374731833273,-0.0292138725068557,-0.0169252193263205,-0.000602150365211107,0.000309319187534978,0.0300060501500738,-0.0154774142052906,1.61968246874141,-4.49778345808285e-05,0
0.18,0.000585468184538422,0.000338127294901748,-0.0291717312872767,-0.0169128409915301,-0.000601291982009962,0.000309113272175137,0.0299633591105244,-0.0154671008115811,1.61968277405968,-4.62473037786576e-05,0
0.19,0.000585322035430461,0.000338062097547437,-0.0291623110831532,-0.016909591857939,-0.000601142903541468,0.00030905513501698,0.0299537954900947,-0.0154643079460498,1.61968303948839,-5.41080557736311e-05,0
0.2,0.00058538833317181,0.000338044931945859,-0.0291632875586835,-0.0169087318976173,-0.000601208346572058,0.000309034626927214,0.0299547319441094,-0.0154633951567085,1.61968324442305,-6.2224844996959e-05,0
0.21,0.000585497996199144,0.000338040421901041,-0.029166806449183,-0.0169085062068843,-0.000601317704666464,0.000309024672877267,0.0299582379272763,-0.0154629932705492,1.61968339482808,-6.88805239469167e-05,0
0.22,0.000585598520775023,0.000338039243585301,-0.0291703300963547,-0.016908446403899,-0.000601418084846731,0.00030901851879282,0.0299617561077731,-0.0154627581194993,1.61968350254346,-7.38978918665096e-05,0
0.23,0.000585677624971523,0.000338038940400991,-0.0291731805861,-0.0169084302988812,-0.000601497103260446,0.000309014304505473,0.0299646035829187,-0.0154626004539941,1.6196835787279,-7.7538795657096e-05,0
0.24,0.000585736298289681,0.000338038865683409,-0.029175315605058,-0.016908425879979,-0.000601555719369358,0.000309011330440549,0.0299667366628533,-0.0154624901025898,1.61968363225867,-8.01314318901965e-05,0
0.25,0.000585778440636139,0.000338038849625729,-0.0291768483537466,-0.0169084258638901,-0.000601597822164082,0.000309009232447554,0.029968268159077,-0.0154624140611304,1.61968366974099,-8.19596697957074e-05,0
0.26,0.00058920771922089,0.000340025792124765,-0.0293326856152311,-0.0170078087989691,-0.000605120169780514,0.000310826086138791,0.0301287792948534,-0.0155540561830761,1.61968389013493,-0.000129103452082722,0
0.27,0.000582593271315043,0.000335752396407304,-0.029032495144444,-0.0167940607528852,-0.000598304646121761,0.000306881315664419,0.0298184947283943,-0.0153552474098103,1.6196834152675,-3.63853139799899e-05,0
0.28,0.000581788770182917,0.000335466375204383,-0.0288883623637423,-0.0167797544605964,-0.000597487133802495,0.000306634940840404,0.0296738352751799,-0.0153480011688257,1.61968343099127,-2.77462247823082e-05,0
0.29,0.000584400867191216,0.000337360743422425,-0.0291129868872486,-0.0168745066241113,-0.000600188763741437,0.000308399242305979,0.0299028257689419,-0.0154316554632544,1.61968369171283,-6.69898601711843e-05,0
0.3,0.000574417475012618,0.00033271151575852,-0.0286389264151872,-0.016641959874574,-0.000589990524809237,0.000304242615281826,0.0294179888028571,-0.0152225119305722,1.61968508389177,-2.7748829658101e-06,0
0.31,0.00058269996201253,0.000336634721770635,-0.0290190086892713,-0.0168381953282025,-0.000598454891242372,0.00030775627496296,0.0298072093973545,-0.0153999336089792,1.6196852503255,-0.000103499050284053,0
0.32,0.000585480355837941,0.000337668851944235,-0.029149502240041,-0.0168899236175107,-0.000601282427053998,0.000308653436011189,0.0299400712961091,-0.0154452300543373,1.61968501283525,-0.000126778038960519,0
0.33,0.000586287869632566,0.000337941417158609,-0.0291896724456666,-0.0169035453617454,-0.00060210220365685,0.000308886393130268,0.0299808545654477,-0.0154568814062658,1.61968471366108,-0.000125271279854755,0
0.34,0.000586423380345163,0.000338013239065915,-0.0291984664247906,-0.0169071389165146,-0.000602240982275953,0.000308951662993704,0.0299898096452211,-0.0154600486850899,1.61968445457819,-0.000117518821467716,0
0.35,0.000586356384191515,0.000338032151469506,-0.0291973340171097,-0.0169080863368409,-0.000602174928680481,0.000308973947086009,0.0299887218016317,-0.0154610563023707,1.61968425484717,-0.000109580970886192,0
0.36,0.000586248700247212,0.000338037122386248,-0.0291937952826912,-0.0169083369179044,-0.000602067571054784,0.000308984262603961,0.0299851972758883,-0.0154614839088333,1.61968410836494,-0.000103089143129702,0
0.37,0.000586150562190737,0.00033803842248135,-0.0291902815649052,-0.0169084026953799,-0.000601969581380701,0.000308990420114509,0.0299816893491686,-0.0154617244613118,1.61968400349623,-9.82007952491114e-05,0
0.38,0.000586073437056033,0.000338038757971698,-0.029187430204678,-0.0169084204108193,-0.000601892541872906,0.000308994568805816,0.0299788411147519,-0.0154618837195996,1.61968392933869,-9.46554385738557e-05,0
0.39,0.000586016335344718,0.000338038841347678,-0.029185281727806,-0.0169084249857744,-0.000601835496359697,0.000308997473892605,0.0299766946227734,-0.0154619948429676,1.61968387723725,-9.21315379886477e-05,0
0.4,0.000585975298943816,0.000338038859787256,-0.0291837180879579,-0.0169084251590201,-0.00060179449861626,0.000308999519633554,0.0299751322955107,-0.0154620725215675,1.61968384075751,-9.0352028285934e-05,0
0.41,0.000585946195114717,0.000338038862175973,-0.0291825948356483,-0.0169084267603887,-0.000601765421798149,0.000309000959608115,0.0299740100692752,-0.0154621297763284,1.61968381526331,-8.91037363436858e-05,0
0.42,0.000585925706018097,0.000338038861080737,-0.0291817918800262,-0.0169084268869514,-0.000601744951627451,0.000309001970486346,0.029973207803958,-0.0154621696750908,1.61968379746403,-8.82304654156836e-05,0
0.43,0.000585911386933527,0.000338038859588423,-0.0291812198499605,-0.0169084269994538,-0.000601730645739869,0.000309002676214449,0.0299726362707819,-0.0154621981136899,1.61968378504383,-8.76204434608133e-05,0
0.44,0.00058590137521586,0.000338038858355487,-0.0291808088784119,-0.0169084271021407,-0.000601720643246164,0.00030900316944902,0.0299722256612905,-0.0154622185592977,1.61968377637943,-8.71946504816455e-05,0
0.45,0.000585894332088897,0.000338038857444951,-0.0291805083791658,-0.0169084271980605,-0.000601713606622123,0.000309003516359247,0.0299719254323124,-0.015462233521021,1.6196837703362,-8.6897575652703e-05,0
0.46,0.000585889442645385,0.000338038856796527,-0.0291802890745075,-0.0169084272890689,-0.000601708721686357,0.000309003757184591,0.0299717063289533,-0.0154622444552055,1.61968376612186,-8.66903551397307e-05,0
0.47,0.000585886066601056,0.000338038856340951,-0.0291801269444805,-0.0169084273766254,-0.000601705348745029,0.000309003923478615,0.0299715443514612,-0.0154622525537195,1.6196837631825,-8.65458293841642e-05,0
0.48,0.000585883680086961,0.000338038856022232,-0.0291800014096397,-0.0169084274619243,-0.000601702964433237,0.000309004041017774,0.0299714189390764,-0.0154622588349861,1.61968376113264,-8.64450368670774e-05,0
0.49,0.000585882050272457,0.000338038855799547,-0.0291799046891432,-0.0169084275454977,-0.000601701336113339,0.000309004121301233,0.0299713223161169,-0.0154622636878389,1.61968375970309,-8.63747465698841e-05,0
0.5,0.00058588088611924,0.000338038855644247,-0.0291798250092872,-0.0169084276280082,-0.000601700173035342,0.000309004178635786,0.0299712427200754,-0.0154622676939232,1.61968375870613,-8.63257287675377e-05,0
0.51,4.72549272086581,-0.0124390056849478,3.72594581675816,0.633514315813938,-0.976552709640952,4.62350310793787,-0.140207011868582,3.77681805380954,0.20552317443252,63.7308965535513,5006.96258367422
0.52,4.68576422734358,-0.00423477107645209,5.71309636902575,0.237688483415023,-3.78531413307741,2.76184743269125,-4.47190976776279,3.56342377018382,0.939561631717144,136.883400376223,5006.96258367422
0.53,4.69566579536496,0.0386497137678909,5.2189195494182,-1.90015987024881,-3.74517780707516,-2.83273970839654,-2.97762170176928,-4.68844300348805,2.22659246084281,215.879871773976,5006.96258367422
0.54,4.66747120410205,0.0153621521094855,6.62970792382204,-0.72030414684609,3.79955036285152,-2.7108929298285,5.82594429956143,-3.24503285616034,-2.18721899555103,292.090393893663,5006.96258367422
0.55,4.64364413575071,0.00967681586758939,7.82227170314168,-0.430876470918369,-1.02070060872337,4.5300877218448,-2.15541697246031,7.53178377317035,0.223698942652846,367.793236901193,5006.96258367422
0.56,4.6847010285976,0.0286128313939793,5.77073293070626,-1.34826032001575,0.231738428987647,-4.67905329334836,1.66683012702209,-5.68690089378373,-3.0859986701219,442.029551783781,5006.96258367422
0.57,4.61526331997242,0.0380960414879308,9.24406398941472,-1.81662854813631,-1.92709431963804,4.19385434943545,-5.57329333948013,7.59547626382995,0.438983748931456,518.090231757716,5006.96258367422
0.58,4.59714420210496,0.0355784901059077,10.1516568174534,-1.68032635466993,4.50026098437665,-0.939495458425848,10.2838239275843,-0.350140291870519,-1.7688659612742,593.335657567511,5006.96258367422
0.59,4.59377656362056,0.0363741912529725,10.3218315291177,-1.70217709808424,-1.33126887304667,-4.39679762849234,-1.27984979505681,-10.3826584982279,2.85550398439306,667.841735880184,5006.96258367422
0.6,4.59282677935339,0.0585084840941146,10.3712191495131,-2.78783136783204,-4.53432550429755,-0.733057493606991,-9.73642209201671,-4.53169672736211,1.74381640522119,742.365720614023,5006.96258367422
0.61,4.55522226881027,0.0238264921892486,12.2535329196092,-1.0786748455484,-4.20174576646551,1.75953122563488,-11.7385702220247,3.67676183304834,1.17945175153136,817.816856358913,5006.96258367422
0.62,4.55840703978008,0.0995242260148081,12.0964618059961,-4.82009433588331,-4.13847487942645,1.91363671689185,-13.0147235353017,0.417934122083042,1.15950700618717,891.010807092903,5006.96258367422
0.63,4.53274639269725,0.082114185777229,13.3818455202158,-3.97060096827177,-4.51386499988943,-0.421373187078819,-12.8586008364795,-5.43100783503838,1.68199121988905,965.775576980864,5006.96258367422
0.64,4.4756956977368,0.0579133211121481,16.2368011705904,-2.75690275730328,-1.77940451811354,-4.10717974922197,-3.71776309807868,-16.0440787399301,2.74570015347885,1039.27916200529,5006.96258367422
0.65,4.46634619195302,0.0615343294236812,16.7068045111994,-2.87682914193952,4.154212889621,-1.64150846716599,16.6411274467358,-3.23517235844431,-1.9333322431787,1112.46871470786,5006.96258367422
0.66,4.43206931360198,0.0993866781658704,18.4233259634964,-4.75898108958363,-0.825147368779774,4.35571439974719,-8.48886388735079,17.0295634257102,0.209642270963149,1185.84945091446,5006.96258367422
0.67,4.44930646443335,0.142977324750811,17.564257905045,-6.97062961745777,-1.24802632184809,-4.27307861264167,2.37023069158616,-18.7476622405936,2.88955309576693,1259.37064881266,5006.96258367422
0.68,4.44533425738509,0.121124562591219,17.7657804107758,-5.87964753585862,0.903941861180332,4.35414250239358,-2.65118119834183,18.5246982972299,-0.177456443457433,1332.6366377827,5006.96258367422
0.69,4.43011019702794,0.129538564732558,18.5299397093365,-6.24577221937592,1.7357302956563,-4.07797706446527,13.4251275329389,-14.2173938178662,-2.70995201450774,1405.00750135437,5006.96258367422
0.7,4.38202957943652,0.0999905024818596,20.93711020356,-4.81407819703616,-4.3823082417742,0.0869241607442589,-20.9226629957225,-4.8764849769707,1.57377803113436,1478.11073995534,5006.96258367422
0.71,4.3727725981825,0.143110012639288,21.4031964215398,-6.89148039881758,-0.32258097991273,4.36320549396105,-9.12785006139732,20.5492499231225,0.106513689915054,1550.01496059469,5006.96258367422
0.72,4.36701682953642,0.122787889198864,21.6943654013064,-5.89564237354786,3.30694827451679,2.85482152942328,12.0402534511235,18.9851622588505,-0.830533314448674,1622.51245923692,5006.96258367422
0.73,4.34743281604957,0.119625753907453,22.6770646632795,-5.74820125074313,4.14902982467975,1.3038534906118,19.5652840403723,12.8253943323844,-1.23880389927548,1694.71778096988,5006.96258367422
0.74,4.31492495289193,0.188660554813898,24.3061086804084,-9.1943245820596,3.9658828362572,1.7105389452195,17.8701575579193,18.8674320605437,-1.11989527535474,1766.50004987863,5006.96258367422
0.75,4.2936090654989,0.103801676038502,25.3756915271416,-4.91938362715618,2.05792008709821,3.76972393026339,7.24352246814861,24.8124452242258,-0.475524501622521,1837.90547551037,5006.96258367422
0.76,4.25394779731083,0.145801860480678,27.3626586642531,-6.97526534379293,3.49068023269084,2.4356686059205,17.7053369139669,21.9975103262997,-0.927312001098482,1909.07550193188,5006.96258367422
0.77,4.22794657193424,0.234579871801283,28.6667285033546,-11.4989658384577,-2.75342620418694,3.21701788454486,-28.1266742281696,12.7631397117434,0.763332220743239,1980.70955938465,5006.96258367422
0.78,4.24458917921236,0.155595361234298,27.8387383987175,-7.46215900826956,-0.855793127320359,-4.16033235931404,2.7528812746038,-28.6897336583117,2.97536037421929,2051.3722311013,5006.96258367422
0.79,4.16030486926605,0.156046690714821,32.0572667685504,-7.55140021345449,2.39832998679222,3.40301343655518,11.1410160615504,30.9930598516836,-0.576426922778089,2122.43413747972,5006.96258367422
0.8,4.1131589353115,0.182269817780569,34.4189687194928,-8.80872605979967,-2.02133141321829,-3.58685350015073,-7.69592187110163,-34.6847495170993,2.67269921842508,2192.78505451165,5006.96258367422
0.81,4.10484030882756,0.21156067914861,34.8394203730356,-10.2157515430115,-0.42592921188113,4.08816048956052,-15.4818187390918,32.8399159567672,0.155305254176249,2263.00610231772,5006.96258367422
0.82,4.14142236901398,0.212093893411925,33.0149512949817,-10.2291633789283,3.92682599970339,-1.33281680145677,34.5530188816327,0.843610460078208,-1.84684068402717,2333.20195092909,5006.96258367422
0.83,4.03168388682475,0.193338367127585,38.5067258680356,-9.29220582894115,-0.967649376352824,-3.91861064306342,1.68740933244494,-39.5760745399064,2.94741705908832,2403.14563336349,5006.96258367422
0.84,4.06405506338769,0.134397066614384,36.8931552703464,-6.44717110358448,-3.79707315732406,-1.4549369634767,-31.4910037498624,-20.2728292023322,1.96977093381574,2473.00406032311,5006.96258367422
0.85,4.114766867991,0.100930979746739,34.3626060497535,-4.69399102564878,-4.09816329972365,0.38281981321152,-34.6035808549848,-2.32689455969887,1.50217813233367,2542.35122480141,5006.96258367422
0.86,4.04679185071646,0.352073542739948,37.7665092956547,-17.2563619529118,-4.03555024768527,0.463480593908728,-38.2277940577306,-16.2088560271356,1.54323006075946,2611.67782022274,5006.96258367422
0.87,4.0537238620382,0.242368172890642,37.4251486754951,-11.7434717918219,-1.62718110131313,3.72071245118695,-27.4750970399784,27.9941051964874,0.471986106733605,2680.71290672995,5006.96258367422
0.88,4.01657497061339,0.0940250839878132,39.2879039454159,-4.3895110101709,-4.0083579020363,0.273463233653065,-39.4448393259373,-2.62904048725471,1.52608361536833,2749.77299350282,5006.96258367422
0.89,4.04229807622514,0.395046614114238,38.0071317646714,-19.4576295773739,-0.626847031132806,-4.012891521576,17.2398139895,-39.0631569046183,3.08405546909448,2818.36337355556,5006.96258367422
0.9,3.87876409107838,0.162656512073121,46.1892553981378,-7.84057210677746,3.5903653023556,1.47666685843486,38.6602410020481,26.463326526715,-1.13868810627466,2886.7814886337,5006.96258367422
0.91,4.00517873138149,0.40371400962496,39.8740081450875,-19.8822675529468,-3.90160797128812,0.990907114849354,-42.3734871753085,-13.7742031786029,1.4225395979388,2954.95121363898,5006.96258367422
0.92,3.95063170550375,0.069245829873982,42.6069036075001,-3.12526458624483,3.83068588974132,-0.968571872203168,42.1965392431672,-6.67589616850752,-1.80092536216675,3022.835514759,5006.96258367422
0.93,4.00116602406247,0.33187779740358,40.0857226603752,-16.1667375023453,-3.99413589639617,-0.407861331387091,-36.4391006406888,-23.2469461902421,1.75531446577736,3090.20970030905,5006.96258367422
0.94,3.96384139499411,0.460882480410521,41.9574774565562,-22.7056376811278,2.23005193842689,3.30927780902974,-0.89696577916428,47.6987562669624,-0.477227044967713,3157.6644413663,5006.96258367422
0.95,3.93427299910706,0.176063652105599,43.4414589602742,-8.3773286615942,-2.65562648092216,-2.90811802286644,-21.3976751542023,-38.7231131250677,2.44626637520071,3224.68785758654,5006.96258367422
0.96,3.83904387289051,0.0762490491855631,48,-3.4824645776488,-3.54665776548598,1.47149259936905,-45.9624661913388,14.2681204489104,1.19737411211296,3291.66598450108,5006.96258367422
0.97,3.78091366630131,0.212803281348457,48,-10.2028339394515,-1.40537726144479,3.51646244706106,-29.5365893557999,39.1878515566096,0.436434507650527,3357.88813059516,5006.96258367422
0.98,3.77997811941844,0.254974078121097,48,-12.2585634020789,-0.353074785352792,3.77207960676123,-19.780245611912,45.4204167772074,0.160682046813768,3423.81205838404,5006.96258367422
