t,iq,id,vq,vd,ia,ib,va,vb,theta_e,omega,r
0,0,0,0,0,0,0,0,0,0,0,0
0.01,0.00124337684183026,0.000685089307023984,-0.060070028978917,-0.0343032441650606,0.000798657317930656,0.00117366086154144,-0.0397846327414608,-0.0565889029704833,-0.0939038274783832,-0.00534460157501738,0
0.02,0.00136529650216321,0.000757741523649864,-0.0665527351218106,-0.0379410290171646,0.00088246881665307,0.00128819856509672,-0.0440165573490395,-0.0627003262687996,-0.0939406717413804,-0.00496356187688827,0
0.03,0.00140544188552324,0.000784137946579764,-0.0687517669430984,-0.0392627294467392,0.000912557726739326,0.00132566119661767,-0.0455408122593473,-0.0647642015326742,-0.0939732090046245,-0.00428849663086953,0
0.04,0.00136831840265966,0.000768996112708588,-0.0672276808735418,-0.0385045689168315,0.000894031772831521,0.00129009978745279,-0.0446445819358082,-0.0633168556300983,-0.0939984402439878,-0.0034227762012355,0
0.05,0.00139102583457862,0.000784403449223378,-0.0685029595309275,-0.0392760231676506,0.000911531025933274,0.00131124095130518,-0.0455337360142558,-0.0645131021184517,-0.0940202610219584,-0.00294891240020892,0
0.06,0.00138618038087665,0.000784781133948577,-0.0684390465774504,-0.0392949603051071,0.00091147560713069,0.00130636506924163,-0.0455477468233823,-0.0644468754954298,-0.0940382225796532,-0.00244084010732037,0
0.07,0.00142140992987432,0.000806743855156494,-0.0702370938161053,-0.0403946615868024,0.000936668448768885,0.00133936330159482,-0.0468123691836895,-0.0661330486508419,-0.0940524946549996,-0.00223308219603535,0
0.08,0.00137893504810611,0.000785328609143335,-0.0683400103246588,-0.0393223747620391,0.000911374761472622,0.00129907618536602,-0.0455674461579905,-0.0643444948596176,-0.0940647277348739,-0.00169061970454669,0
0.09,0.00137468284920784,0.000784792998967704,-0.068227044953431,-0.0392955454406213,0.000910454540246491,0.0012948843644432,-0.0455307408331387,-0.0642341123838337,-0.0940743142353648,-0.00141109408301275,0
0.1,0.00137215836798115,0.000784777271861315,-0.0681790659718619,-0.0392947513107997,0.000910211781210796,0.00129236545396256,-0.045525941784281,-0.0641860665723282,-0.0940820807709991,-0.00118925121324996,0
0.11,0.00137013863867984,0.000784774927752978,-0.0681414651125974,-0.039294635103296,0.00091002783673329,0.00129034914376058,-0.0455226978845777,-0.0641483561200284,-0.0940883809106633,-0.00100943594649114,0
0.12,0.00136850095896529,0.000784773283990598,-0.0681109889185448,-0.0392945711845766,0.000909878927303229,0.00128871421176451,-0.0455200987193469,-0.0641177880827372,-0.0940934917709162,-0.000863568795004973,0
0.13,0.00143573125950934,0.00082238880655407,-0.0713415904961023,-0.0411780134885756,0.000953651970288265,0.00135210780570301,-0.0476991028905208,-0.0671568828402449,-0.0940988984220297,-0.00105504964466573,0
0.14,0.00151364401213575,0.000868943026316987,-0.0754700234875566,-0.0435090428187102,0.00100732690546998,0.00142529740193954,-0.0504080258733352,-0.0710478161505748,-0.094103096519945,-0.00133264611010886,0
0.15,0.00136880055697389,0.000786862631717139,-0.0682468801644204,-0.0393991714424808,0.000912004238367543,0.00128880411047005,-0.0456378541320411,-0.0642426465266904,-0.09410672644413,-0.000508606042807724,0
0.16,0.00136385922143688,0.000784820575015397,-0.0680285691599366,-0.0392969164120806,0.000909509057344268,0.00128407499215375,-0.0455156453930624,-0.0640348333791799,-0.0941084139580408,-0.000438377191998291,0
0.17,0.00136329786392656,0.000784769370553387,-0.0680142057395609,-0.0392943745163571,0.000909407036605967,0.00128351972034598,-0.0455118501975331,-0.0640207118252551,-0.094109744415174,-0.000399729262147492,0
0.18,0.00136294852698901,0.000784767761686811,-0.0680075517352925,-0.0392942790490008,0.000909373990780511,0.00128317110000824,-0.0455111988853584,-0.0640140471695594,-0.0941108225443046,-0.000368938092322057,0
0.19,0.00136266796606058,0.000784767449648763,-0.0680022761940711,-0.0392942770060961,0.000909348437247694,0.00128289101463494,-0.0455107570790478,-0.0640087553628286,-0.094111697120004,-0.000343976523255769,0
0.2,0.00136244086527837,0.000784767221192801,-0.0679980110061627,-0.0392942423308772,0.000909327778525585,0.00128266429514541,-0.0455103671554936,-0.0640044800191682,-0.0941124066016203,-0.00032372744496202,0
0.21,0.00136225634699357,0.000784767036461057,-0.0679945263591405,-0.0392942429332792,0.00090931099291068,0.00128248008741342,-0.0455100771265984,-0.0640009845426965,-0.0941129821549277,-0.000307300776050334,0
0.22,0.00136210663688994,0.000784766886606116,-0.0679916881720731,-0.0392942434371915,0.000909297373573432,0.00128233062935638,-0.0455098407933271,-0.0639981376194316,-0.0941134490615508,-0.000293974949437344,0
0.23,0.00136198521570947,0.000784766765032941,-0.0679893769540642,-0.0392942438610688,0.000909286327695201,0.00128220941252902,-0.045509648259222,-0.0639958193520238,-0.094113827830471,-0.000283164622510869,0
0.24,0.00136188710310661,0.00078476666640452,-0.067987511210944,-0.0392942117500185,0.00090927740332926,0.00128211146399312,-0.0455094606205261,-0.0639939508996148,-0.0941141350997144,-0.000274394947518845,0
0.25,0.00136180724219597,0.000784766586391181,-0.0679859740442394,-0.039294212058033,0.000909270138286717,0.00128203173737373,-0.0455093324226523,-0.0639924091627295,-0.0941143843654624,-0.0002672807131374,0
0.26,0.00137622851705738,0.000792525394523262,-0.068669356838628,-0.0396827064636588,0.00091835001139994,0.00129565994330609,-0.0459603365217364,-0.0646362531998914,-0.0941145038912983,-0.000336371888244256,0
0.27,0.0013262218892259,0.000764686712205032,-0.0663090032366136,-0.0382887988372065,0.000885935903404265,0.00124849022516963,-0.0443508208414119,-0.0624173110388639,-0.0941151274030796,-6.88371830200342e-05,0
0.28,0.0013186979030236,0.000759491956560448,-0.0655798868492823,-0.0380286957033654,0.000880057280209422,0.00124148756541065,-0.0440233600606481,-0.0617158571603309,-0.0941153035991807,-2.63643682006876e-05,0
0.29,0.0013603120842991,0.000784137765340039,-0.0679202943423686,-0.0392627338242199,0.000908504326015097,0.00128060176922199,-0.0454718578627606,-0.0639299522400449,-0.0941149576603583,-0.000244342608462794,0
0.3,0.0013545178991167,0.000781148249045707,-0.0676312268971991,-0.0391130516277357,0.000904981452622226,0.00127511564041245,-0.045295569201548,-0.0636563042436656,-0.0941133322964649,-0.000259067898117149,0
0.31,0.00136180336987662,0.000784676811134309,-0.0679789578824934,-0.0392897370761331,0.000909179475934246,0.00128203697165064,-0.0455041719560375,-0.0639858772612898,-0.0941136663735234,-0.000286600648855375,0
0.32,0.00136192223489204,0.000784764470428866,-0.0679876192332034,-0.0392941312603372,0.000909278348028569,0.00128214676763125,-0.0455093821254388,-0.0639940720619063,-0.0941140020712843,-0.000278154936158704,0
0.33,0.00136184158471253,0.000784766565372486,-0.0679862761199797,-0.0392942096889054,0.000909273206272784,0.00128206602807081,-0.0455093515414854,-0.0639927150385986,-0.0941142763805834,-0.000270360722220701,0
0.34,0.00136177045495433,0.000784766548217774,-0.0679849062916236,-0.039294212882464,0.000909266790104013,0.00128199501231561,-0.0455092402344914,-0.0639913408424342,-0.0941144989692837,-0.000264008935912087,0
0.35,0.00136171259653947,0.00078476649160313,-0.0679837775166394,-0.0392942131279227,0.000909261527942195,0.00128193725108586,-0.0455091459564163,-0.06399020882207,-0.0941146795419799,-0.00025885528393816,0
0.36,0.00136166556474953,0.000784766444612322,-0.0679828468784848,-0.039294213342504,0.000909257249087789,0.00128189029865875,-0.0455090680860977,-0.0639892756158769,-0.0941148260277324,-0.000254674453331323,0
0.37,0.00136162749693604,0.000784766406465189,-0.067982085992365,-0.0392942106211393,0.000909253785977934,0.00128185229485046,-0.0455090014757782,-0.0639885129448199,-0.0941149448615077,-0.000251282832070732,0
0.38,0.0013615966468758,0.000784766375517243,-0.0679814601290623,-0.0392942107895622,0.000909250979569019,0.00128182149657379,-0.0455089489958067,-0.063987885448348,-0.09411504126292,-0.00024853144290271,0
0.39,0.00136157161758165,0.000784766350411523,-0.067980942028434,-0.03929421094138,0.000909248702658649,0.00128179650930079,-0.0455089054618944,-0.0639873660673677,-0.0941151194666537,-0.000246299430036855,0
0.4,0.00136155112848504,0.000784766330045282,-0.0679805023218766,-0.0392942110802469,0.000909246838211281,0.00128177605511041,-0.0455088683375653,-0.0639869254065845,-0.0941151829075503,-0.000244488751456036,0
0.41,0.00136153471392469,0.000784766313523267,-0.0679801457269621,-0.0392942112074962,0.000909245345148187,0.00128175966795232,-0.045508838245836,-0.0639865680357422,-0.0941152343723607,-0.000243019872413551,0
0.42,0.0013615213261627,0.00078476630012018,-0.0679798426358193,-0.0392942113261011,0.000909244127184318,0.0012817463027374,-0.0455088125519452,-0.0639862643748091,-0.0941152761224172,-0.000241828271836487,0
0.43,0.00136151038312247,0.000784766289247034,-0.0679795824578055,-0.0392942114377145,0.000909243131382037,0.00128173537835368,-0.0455087903795715,-0.0639860037964367,-0.0941153099907486,-0.000240861608214657,0
0.44,0.00136150165197335,0.000784766280426496,-0.0679793684744738,-0.0392942115430176,0.000909242337293848,0.00128172666169235,-0.0455087721330336,-0.0639857894998517,-0.0941153374658295,-0.000240077420481172,0
0.45,0.00136149455063873,0.000784766273270948,-0.0679791837496499,-0.0392942116436766,0.000909241691378831,0.00128171957219241,-0.0455087562995822,-0.0639856045687774,-0.0941153597539643,-0.000239441262885066,0
0.46,0.00136148872987264,0.000784766267466217,-0.0679790206775108,-0.0392942117406841,0.000909241161758948,0.0012817137612924,-0.0455087422281156,-0.0639854413863817,-0.0941153778346539,-0.000238925191967173,0
0.47,0.00136148395684446,0.000784766262757392,-0.0679788756460007,-0.0392942118347029,0.000909240727317954,0.00128170899649389,-0.0455087296306692,-0.0639852963203859,-0.0941153925021538,-0.000238506539111281,0
0.48,0.00136148023155417,0.000784766258937469,-0.0679787551002523,-0.0392942119257356,0.000909240388675388,0.00128170527723067,-0.0455087191541512,-0.0639851757580871,-0.0941154044005541,-0.000238166914831301,0
0.49,0.00136147708834048,0.000784766255838862,-0.0679786410456387,-0.0392942120151101,0.000909240102573048,0.00128170213944285,-0.045508709142251,-0.0639850617605877,-0.0941154140524482,-0.000237891401005609,0
0.5,0.00136147452720341,0.000784766253324967,-0.0679785377315279,-0.039294212102826,0.000909239869419212,0.0012816995827572,-0.0455087000214794,-0.0639849585391258,-0.0941154218824569,-0.000237667895580899,0
0.51,4.60623707252165,0.0356120721588765,9.6895074985221,-1.77033727466079,-1.11182289967495,4.47018322082157,-4.12598524146066,8.94409835686182,0.251504487323052,76.9973367575846,4249.87615577099
0.52,4.65716698542968,0.0381799022600124,7.14471012193369,-1.87973000990008,-4.20492805367677,2.00230919153733,-7.26987024630844,1.31501111722294,1.13458229910585,164.488131095279,4249.87615577099
0.53,4.60659973303197,-0.0108170534009711,9.67506645180624,0.571503304636015,-2.02876835336835,-4.13581637375084,-4.79382157133928,-8.42334859876039,2.68319640995073,259.502591810773,4249.87615577099
0.54,4.55057249970192,0.0304929421114895,12.4785938323559,-1.46774832858111,4.46354226871676,0.8862450620121,11.9276208098316,3.94986721369665,-1.36809269879895,347.655545112919,4249.87615577099
0.55,4.41617648461729,0.0157887369486374,19.2009012232643,-0.741035250054196,-4.40719671760926,0.281923961016735,-19.2106582224576,0.417554412379284,1.51048955884826,439.2796901223,4249.87615577099
0.56,4.42067489863972,0.0160018505342632,18.9785371496532,-0.735576638091755,4.17987130582049,1.43920064114159,17.680145793599,6.93818348333035,-1.23557352057243,527.62012549521,4249.87615577099
0.57,4.33149975285696,0.103579230413165,23.4401304716356,-5.07391314428618,-0.894676507132239,-4.23935994149571,0.697656633036641,-23.9728510266393,2.95751260777206,616.01274870279,4249.87615577099
0.58,4.37768217568563,0.0414342592465996,21.1340741498625,-1.99795269229749,-4.36898546521655,0.278897891497014,-21.2113475896965,-0.848315131081759,1.51651158080602,705.060666154608,4249.87615577099
0.59,4.39675305258075,0.118341511434576,20.1837234854544,-5.83609702668062,-2.8245079092328,3.37158674653169,-17.7443297201405,11.2508437472508,0.724241564144882,793.72739284284,4249.87615577099
0.6,4.28220501862649,0.105265673839129,25.9144360534266,-5.12655180140473,-2.2485184431577,3.64589159115001,-18.4370942994104,18.9185909394508,0.577204963231807,880.568676377989,4249.87615577099
0.61,4.3228320772138,0.147226721235826,23.8866126153732,-7.27316136263883,-3.72746919117907,2.19420288579822,-24.4595386176821,5.01997102123153,1.07280338262237,969.063773031577,4249.87615577099
0.62,4.20240271470348,0.14034066178985,29.9116871579895,-6.83845599772965,-3.45630031845523,-2.39455051868719,-19.9252903744259,-23.3335876488192,2.21006166197268,1055.39236087534,4249.87615577099
0.63,4.1954414314047,0.0541814869431386,30.263544979019,-2.53647988649288,3.10068926847262,-2.82672787835215,24.310669649784,-18.2018467769279,-2.29709435292914,1142.72566196313,4249.87615577099
0.64,4.15177418946091,0.103011965929501,32.4508305132412,-4.98257109736606,-0.378395391634611,4.13577771561627,-8.70638960105143,31.6556660939889,0.116045606497458,1229.6534010849,4249.87615577099
0.65,4.16681133622282,0.0820494804234271,31.7030363920799,-3.90332491231612,0.0124080892720914,-4.16760061285068,4.62083902226532,-31.60642827937,-3.11892674114778,1315.98328363781,4249.87615577099
0.66,4.07258388639881,0.0983771110984917,36.4186442414697,-4.68023338360454,-2.08644757544034,3.49890755560681,-23.3630484044509,28.3264929379375,0.561856049381107,1401.97415383433,4249.87615577099
0.67,4.05145254040596,0.0366581636568843,37.4795778144339,-1.69626704305958,4.00501986673647,0.612721286696315,36.7240332625703,7.67733390958148,-1.40993719313105,1488.54060968323,4249.87615577099
0.68,4.04040080362658,0.143233431529224,38.0365159601789,-6.91619218391981,1.39782768877203,-3.79360412040532,20.8080177846268,-32.5827662513254,-2.75312408173955,1573.65393748465,4249.87615577099
0.69,3.98156153710664,0.132152655900987,40.9828902995435,-6.4423088181328,-1.40342587901474,-3.728363233423,-7.05616618671764,-40.8816726536235,2.81475769837604,1659.72297551631,4249.87615577099
0.7,4.04667181584836,0.0228171610744576,37.7317717052462,-0.984811588426325,-1.65627512645795,-3.69226571545138,-14.3479473353455,-34.9112139167871,2.72555899068772,1745.04975846322,4249.87615577099
0.71,3.85542947284946,0.14006742252122,47.2982045227801,-6.85602085935944,0.318532118692489,-3.8448007220569,12.4214844017547,-46.1501018239361,-3.0226199826866,1829.79705741993,4249.87615577099
0.72,3.94476406214211,0.0763893481306818,42.8356724476741,-3.65931228993123,3.75198023466174,-1.2205093843078,42.0479304218506,-8.9586242090445,-1.86593485856299,1914.6651719991,4249.87615577099
0.73,3.92284221584121,0.0933578114760811,43.9358370412996,-4.480004765742,0.438606205325053,3.89936293873755,-0.591735662841788,44.1596882702542,-0.0882166752651579,1999.24107583944,4249.87615577099
0.74,3.82275201452901,0.113347647515606,48,-5.37245448317376,-2.90610517409207,-2.48612818875017,-31.9214706614351,-36.2475237496979,2.30810798529046,2083.15883748183,4249.87615577099
0.75,3.77106030602679,0.132054120272258,48,-6.4390807543795,2.96481443512562,2.3341399888701,32.4946420778335,35.9104441241669,-0.86885609997759,2167.3448229484,4249.87615577099
0.76,3.84360716329511,0.235655401224023,47.9091049572041,-11.4477220113356,-1.65727902691616,-3.47595680652153,-7.31810412035343,-48.7111694494485,2.7579244563755,2250.72974348261,4249.87615577099
0.77,3.76435043272869,0.177615928723994,48,-8.62417712463845,-2.3309812584646,2.96114977182985,-37.9519553384677,30.6272022402323,0.714028431080031,2334.29958666598,4249.87615577099
0.78,3.75171289281294,0.167300979402328,48,-8.14359199196964,2.60028492609161,2.70958623242527,25.5385452694245,41.4499794457516,-0.72025281831787,2417.45439010444,4249.87615577099
0.79,3.76178252577326,0.0459210227063891,48,-2.05089479540868,3.76179724869677,0.0446986715335847,47.9366768118819,3.20642880710251,-1.54670797654553,2500.22047373121,4249.87615577099
0.8,3.69695553935913,0.0787385768842521,48,-3.62882833208971,3.610910905302,-0.796870414470884,47.7882032312782,-5.78411851450381,-1.76670399929656,2582.74055754976,4249.87615577099
0.81,3.56646379434149,0.279339229258568,48,-13.5780356035829,3.55535090828463,0.396452166485563,44.5894594666324,22.3638805963033,-1.38158220174934,2665.03577778741,4249.87615577099
0.82,3.71391222622345,0.206757699118143,48,-10.1298337545484,1.61300334902633,3.35173283038289,9.02058178711605,48.22076975865,-0.392917304935534,2747.51520071738,4249.87615577099
0.83,3.64142039877737,0.353430370656912,48,-17.260454302916,-3.2627850147341,1.65501948482827,-50.9898015198553,1.40122221963941,1.19812774998745,2829.43161631842,4249.87615577099
0.84,3.770266032375,0.0226607849034699,48,-0.79595820302521,0.905317669566254,-3.66002997026313,12.5769240845146,-46.3298449170005,-2.8930969540352,2911.42333647773,4249.87615577099
0.85,3.73492996284176,0.2770282313139,48,-13.6060398019995,0.304623852334807,3.73278056907539,-13.2509218123555,48.099245214623,-0.00739061732346605,2993.331384731,4249.87615577099
0.86,3.64839523081828,-0.0516026694574011,48,2.83330801032835,0.922764789763295,-3.53014953486758,8.73005968564723,-47.2843916336715,-2.90006100503272,3074.89661723098,4249.87615577099
0.87,3.75820397367522,0.180511646039516,48,-8.73676205807604,-3.24615085039646,1.90241589001314,-46.5797386749025,14.5140950884728,1.08868970020073,3156.52048870317,4249.87615577099
0.88,3.75461397085883,0.120373272339727,48,-5.60241137541127,2.2449323378494,3.01195859754747,22.8401908290266,42.5877059268633,-0.608462727935851,3237.71275718155,4249.87615577099
0.89,3.52963082723494,0.128142051050919,48,-5.91137175102983,3.4778420417411,-0.615896821320621,48.3560907605914,-0.795488738019254,-1.70978205301278,3318.8633573385,4249.87615577099
0.9,3.6525432059403,0.220640597728255,48,-10.7002504813283,2.78493095316711,-2.37358668068353,44.7797729256996,-20.3289767840378,-2.21628799844706,3400.10504920544,4249.87615577099
0.91,3.65570075801545,0.194952427940167,48,-9.49907406561227,2.99668150732812,-2.10286814255011,45.7382362665103,-17.3852279632126,-2.12940608284211,3480.86887832308,4249.87615577099
0.92,3.63595620675465,0.146297840639689,48,-6.77830431252743,3.62702642691264,0.293700347447571,46.8306949249317,12.5232352928948,-1.44978237951489,3561.61824366444,4249.87615577099
0.93,3.39813900665211,0.224473212789884,48,-10.7514748127824,0.514057837187824,3.36652364789208,-6.61004894109991,48.7432196684437,-0.0855646288616611,3641.29185479098,4249.87615577099
0.94,2.93638082730928,0.0786285911113019,48,-3.49333605581199,-2.90692710701755,-0.422243546802408,-46.7052802502782,-11.6112098224867,1.74181274881478,3712.78790865537,4249.87615577099
0.95,2.48574541576777,0.0695186153542501,48,-3.04780504495555,1.93126377804105,-1.56651949541583,39.9621413497335,-26.7640873996477,-2.22433170230023,3775.1529980123,4249.87615577099
0.96,2.18900669495895,0.239273641751525,48,-11.8342536739401,-0.880455627070112,2.01836569406357,-34.1278228603969,35.7678803793087,0.520212010369711,3829.65219626695,4249.87615577099
0.97,1.90294333715053,0.271595860906547,48,-13.4933982930852,0.669100712940802,-1.80201606319402,34.7574403093131,-35.7490159394685,-2.64429717053116,3877.4740138017,4249.87615577099
0.98,1.47768548905725,0.324824245276463,48,-15.9925505024552,-0.837443484612653,1.26006095287871,-45.6398769603903,21.8349101810383,0.802952543552351,3919.49511655688,4249.87615577099
0.99,1.23916544413717,-0.0809723198750376,48,4.01277577425221,1.23449548595803,-0.134567491166567,46.5826004916161,-12.2541299508741,-1.74462516268787,3956.28285073302,4249.87615577099
