t,iq,id,vq,vd,ia,ib,va,vb,theta_e,omega,r
0,0,0,0,0,0,0,0,0,0,0,0
0.01,0.000570098236392779,0.000318095675124305,-0.0278262524858153,-0.015916040020299,0.000254736121342836,0.000601087652638242,-0.0128212114443167,-0.0293808984619637,0.108091895612307,-0.00203048470488368,0
0.02,0.000672563291775879,0.000372909825720707,-0.0329213719216151,-0.018658676563334,0.000298187357351774,0.000708863470267032,-0.0149987151048694,-0.0347419269111455,0.108076263478737,-0.00220870238922839,0
0.03,0.000709966130073792,0.000393944712282461,-0.0347940012668496,-0.0197111701118642,0.000315076787872672,0.000748312073891038,-0.0158436521837965,-0.0367169094126298,0.108060538335055,-0.00213799092020499,0
0.04,0.000693470581939316,0.000385956670696102,-0.0340484115286354,-0.0193114831649041,0.000308924728235859,0.00073104686029999,-0.0155272168099967,-0.0359323426426255,0.108046396904484,-0.00188356740979699,0
0.05,0.000708676840165476,0.000395675108741024,-0.0348351435842999,-0.0197977446117333,0.000316956471284574,0.000747208304808623,-0.0159262848270462,-0.0367667155435185,0.108033330898899,-0.00176439491831479,0
0.06,0.000708994102105165,0.000396966306199086,-0.0348961104449998,-0.0198623616769478,0.000318214884727439,0.000747659128356739,-0.0159843925496486,-0.036834102817827,0.108021357822061,-0.00160335584304759,0
0.07,0.000720661861469515,0.000404827106782678,-0.0355020517716325,-0.0202556698323569,0.000324780034649323,0.000760102910174619,-0.0163104795010205,-0.0374787419586079,0.108010721656705,-0.00150363973237797,0
0.08,0.000707459170604155,0.000398179718511141,-0.0348999291849492,-0.0199230782495566,0.000319602044487811,0.000746257394914611,-0.016045100733455,-0.0368441154935996,0.108000806200512,-0.0013190175098025,0
0.09,0.000704101089132725,0.000397291915061836,-0.0347706745116173,-0.0198786493344403,0.000319087920452348,0.000742820374325305,-0.0160151861719817,-0.0367106839657237,0.10799200754606,-0.00118700314173567,0
0.1,0.000702336811792698,0.000397171504696723,-0.03471525793729,-0.0198726197712171,0.000319164227079937,0.000741050873756085,-0.0160154544019804,-0.0366548137428365,0.107984102826765,-0.00107317005201967,0
0.11,0.000700933994238389,0.000397153520941679,-0.0346743550341964,-0.0198717195621871,0.000319302799334896,0.000739652016702621,-0.0160192282717642,-0.0366139380697136,0.107976986668158,-0.00097139878245944,0
0.12,0.000699698102079539,0.000397149371693026,-0.0346388456573456,-0.0198715169494303,0.000319436595116752,0.0007384208279769,-0.0160230879990605,-0.0365785109773384,0.107970578250269,-0.000879853534572835,0
0.13,0.000728538780369152,0.00041394635367547,-0.0360598894401083,-0.020711958919979,0.000333032573329249,0.000768901582339825,-0.0167057360209618,-0.0380817443499332,0.107964458081784,-0.000906706164543392,0
0.14,0.0007467461497787,0.000425099073557349,-0.0370362148754135,-0.0212699818224083,0.00034216287410822,0.000788202767142206,-0.0171555268528205,-0.0391124179439924,0.107958812665265,-0.000899513908144077,0
0.15,0.000703726933592928,0.000400866973018968,-0.0348985627836386,-0.0200575209407253,0.000322710981294523,0.000742821344384652,-0.0161806458634782,-0.0368564855906244,0.107953637981925,-0.000665631457905259,0
0.16,0.000696718800283508,0.000397638199948679,-0.0345747789880316,-0.019895968683253,0.000320259157518856,0.000735504790434589,-0.0160550721985405,-0.0365171133664186,0.107949465812836,-0.000582416916439419,0
0.17,0.000695094354982184,0.000397207126527299,-0.034510062876235,-0.0198744105177358,0.000320008315435004,0.000733842177681702,-0.0160407463634393,-0.0364503921687132,0.107945780440722,-0.000526292882907167,0
0.18,0.000694323799207702,0.000397148799658115,-0.0344852948653156,-0.0198714792915993,0.000320035770154337,0.000733068764194614,-0.0160406211218174,-0.0364253994516262,0.107942472028818,-0.000478526854839687,0
0.19,0.000693731856526421,0.000397140211709458,-0.0344679240830618,-0.0198710643720061,0.000320093185255453,0.000732478388260873,-0.0160421884462702,-0.0364080372957191,0.107939494032677,-0.000435919095439394,0
0.2,0.00069321402759051,0.000397138329960846,-0.0344530168331935,-0.01987096444929,0.000320149063129136,0.000731962511710731,-0.0160437926612491,-0.0363931630130731,0.107936812269971,-0.000397607008693017,0
0.21,0.000692749793074735,0.000397137414551095,-0.03443969112088,-0.0198709245570011,0.000320199930500512,0.000731500106868676,-0.0160452764084874,-0.0363798718005835,0.107934397098084,-0.000363111946033395,0
0.22,0.00069233219780282,0.000397136693726651,-0.0344277113805845,-0.0198708738392938,0.000320245789488359,0.000731084167475672,-0.0160465956070462,-0.0363679214070022,0.10793222198972,-0.00033204687827819,0
0.23,0.000691955900173045,0.000397136058182696,-0.0344169090004442,-0.0198708574627853,0.000320287124866779,0.000730709363658186,-0.016047814208751,-0.0363571486859544,0.107930263079457,-0.000304069750361778,0
0.24,0.000691617161383122,0.000397135487490689,-0.0344071852955554,-0.019870824464421,0.000320324335246683,0.000730371969336779,-0.0160488929723274,-0.036347449693497,0.107928498877272,-0.000278873466863453,0
0.25,0.000691312183035783,0.000397134973638834,-0.0343984297791003,-0.0198707913602532,0.000320357836340966,0.00073006820119476,-0.0160498609337094,-0.0363387160554552,0.107926910029662,-0.00025618159831292,0
0.26,0.000697061301117851,0.000400554377169921,-0.0346821956701684,-0.0200418881183777,0.000323139060770049,0.000736151760162771,-0.0161894452511747,-0.0366392390520414,0.107925555398315,-0.000259710158037117,0
0.27,0.00068177055913127,0.000391813446944109,-0.0339468173123256,-0.0196045241864778,0.000316097129200051,0.000720007970383575,-0.0158338920219553,-0.0358610044149862,0.107924053750194,-0.00018115415243853,0
0.28,0.000681236560278658,0.00039164451113712,-0.0338557752731119,-0.0195960738855405,0.000315987528174384,0.000719458515970431,-0.0158353388326938,-0.0357695635299733,0.107922896798161,-0.000163443445802154,0
0.29,0.00068898988483958,0.000396402231027273,-0.0343045760405602,-0.0198341260738427,0.000319883102006975,0.000727678906678662,-0.0160236976032817,-0.0362413797965012,0.107921972863263,-0.000180437599587091,0
0.3,0.000680912404483337,0.000392220678886632,-0.0339142468555654,-0.0196249054783369,0.000316596142587775,0.000719197918534329,-0.015857748487415,-0.0358307810091236,0.107921669233695,-0.000145575001949346,0
0.31,0.000688764758664652,0.00039647867047497,-0.0342978372211452,-0.0198379520858177,0.00031998414916043,0.000727462970333234,-0.0160282672340264,-0.0362350745891602,0.107920868340335,-0.000164613155254928,0
0.32,0.00068979065856474,0.000397045597209732,-0.0343506315726073,-0.0198663314254684,0.000320437869651608,0.00072854370534646,-0.0160508244603461,-0.0362906055045478,0.10792005405402,-0.000157484731819203,0
0.33,0.000689821879167233,0.000397120903943555,-0.0343549627342105,-0.0198700951401103,0.000320509919792529,0.000728582616208585,-0.0160541268820274,-0.0362953048671835,0.107919306969107,-0.000147479686034279,0
0.34,0.000689718168870134,0.000397130748347083,-0.0343524792785145,-0.0198705826649586,0.000320531369175078,0.000728480353288292,-0.0160549035559925,-0.0362928775358678,0.107918632112869,-0.000137939596114598,0
0.35,0.000689605129707729,0.000397131891788202,-0.0343492889925764,-0.0198706501613743,0.000320545124234866,0.000728367899981695,-0.0160553363500954,-0.0362897033167338,0.10791802403516,-0.000129269548552346,0
0.36,0.000689500603658662,0.000397131892943528,-0.0343462814378582,-0.0198706415260113,0.000320556782602056,0.000728263806574504,-0.016055671578252,-0.0362867035349743,0.107917476353632,-0.000121449719010968,0
0.37,0.000689405899797214,0.000397131756961303,-0.0343435422969173,-0.0198706434689871,0.000320567206956442,0.000728169480881012,-0.0160559864347545,-0.0362839726184816,0.10791698310315,-0.000114405443637513,0
0.38,0.000689320698678903,0.000397131616235373,-0.034341077150814,-0.0198706274820625,0.000320576567293245,0.000728084617845598,-0.0160562521730274,-0.0362815129586021,0.107916538878773,-0.000108061089384099,0
0.39,0.000689243864566786,0.000397131487057949,-0.0343388491137532,-0.0198706278948007,0.000320585005708475,0.000728008088533852,-0.0160565070732572,-0.0362792915035173,0.107916138808426,-0.000102347301605631,0
0.4,0.000689174786967806,0.000397131370389841,-0.0343368456927761,-0.0198706103883822,0.000320592592126166,0.000727939284702824,-0.0160567185216248,-0.0362772920661632,0.107915778503481,-9.7201436207622e-05,0
0.41,0.000689112388355543,0.000397131265269622,-0.034335029208113,-0.0198706107400695,0.000320599444540175,0.000727877133725372,-0.0160569262894681,-0.0362754809759971,0.107915454011409,-9.25670486393926e-05,0
0.42,0.000689056276170636,0.000397131170587804,-0.0343333946328707,-0.0198706110643871,0.000320605606732231,0.000727821244066454,-0.016057113266275,-0.0362738512518673,0.107915161772697,-8.83933007229345e-05,0
0.43,0.000689005635505833,0.000397131085312359,-0.034331914420441,-0.0198706113648683,0.000320611167790508,0.000727770804421403,-0.0160572825390883,-0.0362723754563443,0.107914898581305,-8.4634406803459e-05,0
0.44,0.000688960306634791,0.000397131008510052,-0.0343305924157932,-0.019870595216906,0.000320616146100243,0.000727725654967821,-0.0160574174696872,-0.0362710555966824,0.107914661550194,-8.12491320507571e-05,0
0.45,0.000688919270231456,0.000397130939339453,-0.0343293883097968,-0.0198705940213377,0.000320620652511113,0.000727684781385612,-0.0160575537122772,-0.0362698549385432,0.107914448078953,-7.82003402012186e-05,0
0.46,0.000688882308366918,0.000397130877042153,-0.0343283008487743,-0.019870594263114,0.000320624711450601,0.000727647966181739,-0.0160576780505415,-0.0362687707423124,0.107914255826008,-7.54545861887004e-05,0
0.47,0.000688849013585003,0.000397130820935404,-0.0343273182882819,-0.0198705944888242,0.000320628367664172,0.000727614803520976,-0.0160577903810838,-0.0362677911414726,0.107914082682288,-7.29817492517945e-05,0
0.48,0.000688819036639747,0.000397130770404098,-0.0343264309849593,-0.0198705947000047,0.000320631659541436,0.000727584945514107,-0.0160578918130602,-0.0362669065184375,0.107913926748428,-7.07547025136215e-05,0
0.49,0.000688792276012305,0.000397130724894468,-0.034325640850165,-0.0198705784757403,0.000320634598713616,0.000727558290625002,-0.0160579658773462,-0.0362661169773806,0.107913786313705,-6.87490154022989e-05,0
0.5,0.000688767945210137,0.000397130683907424,-0.0343249149304213,-0.0198705786627808,0.000320637270516447,0.000727534056388796,-0.0160580488347925,-0.0362653932695323,0.107913659837738,-6.69426856477549e-05,0
0.51,4.6842675724944,-0.0470594756647646,5.78744567346205,2.36531457173949,-0.530582240211886,4.65435922242194,1.75495981333698,6.00077965768866,0.10346090265782,31.9823025764739,2450.43040750959
0.52,4.68460905297549,-0.0205401957646414,5.77129847490523,1.0512293352557,-2.14629949908932,4.16405839765377,-1.68512226363983,5.6190152302989,0.471534271417798,68.5958975151122,2450.43040750959
0.53,4.6701115156814,-0.00843091170163568,6.49718531785864,0.45642689183545,-4.19868270405627,2.04476800635937,-5.6355834935905,3.26526281468411,1.11579557575942,107.973659679036,2450.43040750959
0.54,4.6926211333396,-0.00627404207384119,5.37282874623669,0.359370326546854,-4.15383328402838,-2.18320899438587,-4.92604466407664,-2.17497580113245,2.0533679335325,146.801371489541,2450.43040750959
0.55,4.70279530435213,0.0387317939130814,4.86527853874733,-1.87471017745917,0.53452866260327,-4.6724793135285,2.45351223468028,-4.60062509050004,-3.01945274052295,184.243405258494,2450.43040750959
0.56,4.66142549264319,0.00214166206743638,6.93503842473809,-0.0343882409840048,4.65666180189093,0.210696637348942,6.92623562670586,0.350999354788901,-1.52512143890281,222.310946175557,2450.43040750959
0.57,4.67978616785959,0.061685825144919,6.01835661538915,-3.0071660098824,-1.07983659170321,4.55391662781968,-4.38227731482726,5.10483195579843,0.246003100691851,260.883437824888,2450.43040750959
0.58,4.61941751348017,0.0131032788628196,9.03826271629706,-0.568355611760918,-3.46748186491072,-3.05217289423118,-6.3906789546209,-6.41657568561231,2.29541593327898,298.909577721275,2450.43040750959
0.59,4.60953966793153,0.0505158405442023,9.53365808063782,-2.42885297456296,4.58660758798841,-0.461994192806959,9.71248203667428,1.5676912507996,-1.66022596848436,336.714403657841,2450.43040750959
0.6,4.60085879679659,0.0373455176193913,9.96925360457929,-1.75301354706057,-3.70721191364794,2.72504608824394,-9.1070346606702,4.41825685287158,0.945038470659118,374.280803489116,2450.43040750959
0.61,4.5908544023016,0.0765677356376194,10.4711206799556,-3.6947788878771,2.84637245886198,-3.60277262489664,9.48795739536254,-5.76839871959987,-2.45627119435016,411.7723376261,2450.43040750959
0.62,4.60658748969804,0.0892947803737645,9.68619382309923,-4.3419695957422,-2.90883305961968,3.57313756932309,-9.57313190786983,4.58586918953429,0.702651485399712,450.061135179493,2450.43040750959
0.63,4.57746730419314,0.121743429718712,11.1439961081893,-5.93322634367866,3.7765694329816,-2.58950800375398,12.5792342328971,-1.07456512998087,-2.14525496295418,487.198443652778,2450.43040750959
0.64,4.57498849436152,0.106540652075795,11.2697518915759,-5.1786089122941,-4.57440870147114,0.129056832404121,-11.295103795671,-5.1230780014743,1.56587444300475,525.218212089287,2450.43040750959
0.65,4.56821615045888,0.0867506974414282,11.6102836372322,-4.18650758975559,3.11353918491882,3.34394949495278,4.63138478324261,11.4400964561323,-0.730744415090381,562.839196092932,2450.43040750959
0.66,4.5290098329883,0.118145307147509,13.5725781834563,-5.74882472010728,1.61069491472135,-4.2345661256611,10.4726029087071,-10.3724853591167,-2.75204338559425,600.22549304476,2450.43040750959
0.67,4.54259941811937,0.0726503939624912,12.8951518824088,-3.46222361374281,-4.45466705955414,-0.892428676009825,-11.8675046646955,-6.11835496317271,1.78450638711863,637.688928024436,2450.43040750959
0.68,4.56534247873246,0.059035507717634,11.7600759719476,-2.76881544640828,-1.34654915828528,4.36264168865743,-6.24823331150969,10.3404693475291,0.312308217173353,675.186864519282,2450.43040750959
0.69,4.54790626324389,0.0842853554791714,12.6341017197013,-4.00698139439381,3.57581068120437,2.81142906234284,7.25095461172143,11.0950476960459,-0.885974286206722,712.337098158388,2450.43040750959
0.7,4.51531242056565,0.101148544907535,14.266097109477,-4.81968639213972,4.36140823526053,-1.17319882750239,15.0033404408407,1.28478763686395,-1.81117411751124,749.412765572251,2450.43040750959
0.71,4.4924646445388,0.149764820225165,15.4107734162567,-7.27435782738022,2.70278619383767,-3.59160338486987,15.3349698417718,-7.43282712296752,-2.46315030831766,786.911990859018,2450.43040750959
0.72,4.49578772016463,0.159470026738733,15.2469780281183,-7.7386505810558,1.17247085935605,-4.3431382660666,11.8881191169344,-12.289413153897,-2.84246256958788,824.001625600726,2450.43040750959
0.73,4.50015834112788,0.1273554350125,15.0308952508929,-6.10123729478623,0.735372113819837,-4.44149438323029,8.86242337065141,-13.5871395286108,-2.94921987143231,860.986400190745,2450.43040750959
0.74,4.54671196249297,0.139622447894734,12.7056820870857,-6.71053218997066,1.46058748042713,-4.30798889388684,10.7331433400112,-9.55328391776862,-2.78401468370902,898.147576372841,2450.43040750959
0.75,4.45926187841085,0.193178994843319,17.0807480134214,-9.38612538184986,3.04623333113424,-3.26233001343882,18.7633929583048,-5.27127945322991,-2.34714182579776,935.180911480075,2450.43040750959
0.76,4.47160275271475,0.12330540958761,16.4662886140012,-5.86872201936777,4.45281447034215,-0.427643186349657,16.8278367838125,4.73333582556354,-1.63897330178958,972.144061894689,2450.43040750959
0.77,4.43407590089689,0.152091801039002,18.3453139471177,-7.29637222535308,3.18958719671379,3.08394139461458,7.49523532851468,18.2649675291088,-0.767949271441615,1009.14215210292,2450.43040750959
0.78,4.40404206799313,0.124045799299867,19.8497343711412,-5.93141175328524,-1.93155747917612,3.95980550047801,-14.4569092223166,14.8388468463547,0.4819916968771,1046.18107874194,2450.43040750959
0.79,4.4409983046804,0.157800342902655,18.004710014213,-7.56077736256285,-4.10050582468321,-1.71266426135814,-13.1970428733597,-14.3935053555709,2.00196098335642,1082.80989506934,2450.43040750959
0.8,4.44770879370116,0.158012426546225,17.6720595950082,-7.60283261281636,2.56687391956613,-3.63568971744852,16.7499127379828,-9.4628313594816,-2.4913252870021,1119.76405824149,2450.43040750959
0.81,4.42519691817257,0.205846173250377,18.8005782049028,-10.0054892389084,2.04031646380212,3.93215578775611,-1.21144126047169,21.2627365553215,-0.432153837972024,1156.49401532309,2450.43040750959
0.82,4.31560779976514,0.186240096132972,24.2830019830951,-8.95941703257469,-4.14870860259089,-1.20306815500606,-20.1449246742981,-16.2516875659559,1.89616924934599,1193.05786466066,2450.43040750959
0.83,4.40079252198833,0.221580196065154,20.0267832855857,-10.7097135567735,4.24750457528792,-1.1725090565897,21.8753627280495,6.10233715491186,-1.78982767907634,1229.69040838053,2450.43040750959
0.84,4.36324901842127,0.229253383315005,21.9070480157432,-11.087953866873,-3.73054811979455,2.27453508137661,-24.5446252763857,0.650264376841369,1.07576472549428,1266.32762709326,2450.43040750959
0.85,4.37481876040738,0.193986413809232,21.3317257827906,-9.38202998806206,3.73963088524057,-2.27855892118456,23.2124206296265,-2.0611987003589,-2.07371380857109,1302.98669198693,2450.43040750959
0.86,4.36326226180651,0.238786815794654,21.9127503993729,-11.5868387705438,-4.17759644250772,1.28170381611707,-24.0570294260695,-5.97350801062674,1.327781098418,1339.43591388147,2450.43040750959
0.87,4.31794630489089,0.249783785483181,24.1817853374507,-12.086792469982,4.2147270369192,0.97114789588069,19.8218603364712,18.3832300513373,-1.28654779566231,1375.81419025324,2450.43040750959
0.88,4.33548693875851,0.185727763383441,23.3080970821048,-8.91945866838469,-2.6023680483524,-3.47255271222073,-5.806744464639,-24.271502863404,2.5412816097262,1412.30707137426,2450.43040750959
0.89,4.29942669227641,0.175604187766595,25.1144806850413,-8.43629128069247,-1.75401918798132,3.92929044500574,-18.7215187819664,18.7460098460574,0.460673663645584,1448.6962834823,2450.43040750959
0.9,4.28739473266846,0.28077208992703,25.7194838045864,-13.6101966742591,4.24706237679142,0.65042119264219,22.1792386563954,18.836418802656,-1.35343647104746,1484.91199595155,2450.43040750959
0.91,4.3333601296923,0.232158600773703,23.424665711092,-11.1662993296276,0.805164591029742,-4.26422532365165,16.4172676787757,-20.0966297263665,-2.90144773544692,1521.19899818841,2450.43040750959
0.92,4.28024537711912,0.261179863602761,26.0839129748361,-12.6127123103513,-3.82704396782689,-1.93454125772003,-16.1538743601265,-24.0520970200055,2.0997723848652,1557.45390334361,2450.43040750959
0.93,4.23850569565976,0.243617222595088,28.1744440107141,-11.7287746510534,-3.63113655488035,2.19980162812396,-30.3869329013707,2.82803093612012,1.08352510388266,1593.72177057147,2450.43040750959
0.94,4.2633250807838,0.206353533180164,26.9370656216277,-9.935860340746,-1.19694463319281,4.09705333992213,-18.1863740197389,22.2167194929596,0.332601626953191,1630.01233584342,2450.43040750959
0.95,4.30873063143253,0.247839970624017,24.6703999194217,-11.9407484803767,0.902055807233378,4.2205307279915,-8.038640543381,26.2028693976467,-0.153105255299608,1666.07717598217,2450.43040750959
0.96,4.17873778545464,0.237040039585891,31.173725891933,-11.4688367185787,2.14724681798154,3.59268264151196,4.28983441885757,32.9383169321321,-0.482041635088578,1702.25901742049,2450.43040750959
0.97,4.2290004481292,0.233767486942835,25.297714772673,-11.2102300636739,2.00705748900176,3.72972013213733,0.590212802259602,27.6639707859892,-0.438459775804714,1738.09108212025,2450.43040750959
0.98,4.00788180904583,0.256726705102832,28.2286607997831,-12.4260154211051,0.795131352490578,3.93659641424924,-8.50372228576536,29.6470885093516,-0.135334912391489,1772.92713270033,2450.43040750959
