t,iq,id,vq,vd,ia,ib,va,vb,theta_e,omega,r
0,0,0,0,0,0,0,0,0,0,0,0
0.01,0.0006734920068267,0.000376728563287413,-0.0316249304737516,-0.0188470162713612,0.000494791213614836,0.000592197221021521,-0.0243708808688505,-0.0275935937398316,-0.18602039420523,-0.00396045517966359,0
0.02,0.000825388307440256,0.000457577607045375,-0.0390015211066716,-0.0228917258451249,0.000602361468551589,0.000726501056938554,-0.0297111813073848,-0.0340939212488417,-0.186051891152188,-0.00453610975438407,0
0.03,0.000882697920248291,0.000488877534780048,-0.0418294297438314,-0.0244576180664947,0.000643747917340113,0.000777010605682794,-0.0317743594988554,-0.0365823229527343,-0.186084753692029,-0.00450794398513619,0
0.04,0.000867191287444526,0.000481133968934423,-0.0412811634319894,-0.0240702162438045,0.000633292320930445,0.000763185076723081,-0.0312933077795532,-0.036114244454734,-0.186115164130079,-0.00405590770150599,0
0.05,0.000886224506899336,0.000493179717511249,-0.0423169602910029,-0.0246728403862935,0.000648674161829139,0.000779642188551076,-0.0320782436639721,-0.0370197307450049,-0.186143588022239,-0.00384176721959282,0
0.06,0.000887858905156793,0.000495380175067299,-0.0425382991421301,-0.0247829278332677,0.000651159727506001,0.0007808238998585,-0.0322283764971981,-0.0372160201290943,-0.186170023391664,-0.00354275161110975,0
0.07,0.000900013082501989,0.000503799174128892,-0.0432312811858551,-0.025204113257813,0.000661701838033992,0.000791193929495242,-0.0327714556056753,-0.0378182852013201,-0.186193902887769,-0.00333900766702995,0
0.08,0.000886813243099528,0.000497316929797941,-0.0427457927543747,-0.0248798099171806,0.000652905608477727,0.000779407546293133,-0.032363725084597,-0.0374004951620112,-0.186216392358133,-0.00299394538556229,0
0.09,0.000882513306732609,0.000496128057740523,-0.0426592796819088,-0.0248203414385027,0.000650956940324863,0.000775388836700916,-0.0322900256513568,-0.0373258320140073,-0.186236703769328,-0.00272967141033182,0
0.1,0.000880138570762385,0.000495907984966738,-0.0426517163295545,-0.0248093276960927,0.000650315270076428,0.000773083878245334,-0.0322784926114217,-0.0373198413893105,-0.186255211158838,-0.00249845952028192,0
0.11,0.000878280024574974,0.000495865396573474,-0.0426590991059124,-0.0248071983710049,0.00064994228402933,0.000771254381198008,-0.032278397961399,-0.0373269453959468,-0.186272107774079,-0.0022892952342843,0
0.12,0.000876644706360608,0.000495855482193369,-0.0426687109123927,-0.0248066928271404,0.000649641563133293,0.000769639162114966,-0.0322802574357435,-0.0373359863915173,-0.186287540432689,-0.00209863872839162,0
0.13,0.000909742024089038,0.000515310931395536,-0.0442783763254007,-0.0257800157259888,0.000674902187749138,0.000798550526504605,-0.0335354403774312,-0.0387370373097607,-0.186302271016499,-0.00213205713387258,0
0.14,0.000928889735280189,0.000527105949109096,-0.0454334606898065,-0.0263700918673266,0.000690051024620322,0.000815172623016466,-0.0343298071306459,-0.0397623620741537,-0.186316083431651,-0.00208951600723921,0
0.15,0.000883361727976876,0.000501566052607934,-0.0432069915783379,-0.0250923901445914,0.000656529460112788,0.000775155155815278,-0.0326622713760781,-0.0378106888719893,-0.18632889241726,-0.00165675431371033,0
0.16,0.000873389941962014,0.000496891384659559,-0.0428058036411698,-0.0248585353834563,0.000650096647889106,0.000766214974581319,-0.0323585462003234,-0.0374594193038076,-0.18633964752792,-0.00146899491466761,0
0.17,0.000870609789163946,0.000496034702985763,-0.0427305467612275,-0.0248156576600829,0.000648747094209144,0.000763635409936874,-0.032302828700061,-0.0373930976196195,-0.186349282731138,-0.00133902650019578,0
0.18,0.000869336438773349,0.000495876740271164,-0.0427200613139247,-0.0248077690972277,0.000648362630747929,0.000762407689081576,-0.0322934616626383,-0.0373839722353118,-0.186358046302493,-0.00122861983953873,0
0.19,0.000868427189931003,0.000495846731432918,-0.0427221640768398,-0.0248062549560945,0.000648170765102867,0.000761514559644221,-0.0322926623426311,-0.0373860608673875,-0.186366043963438,-0.00112943126063909,0
0.2,0.000867647159977068,0.000495840230415383,-0.0427264050257676,-0.0248059310243165,0.000648025402175924,0.000760744507998174,-0.0322934029228195,-0.03739005252836,-0.186373348053968,-0.00103915879736818,0
0.21,0.000866944600966625,0.000495838117786666,-0.0427307324961427,-0.0248058429210243,0.000647898215445307,0.000760050184276138,-0.0322943676942258,-0.0373941059247254,-0.186380019804222,-0.000956764461883623,0
0.22,0.0008663051428794,0.000495836887660812,-0.0427347882574436,-0.0248057718198643,0.00064778314141723,0.000759418080796134,-0.0322952772857587,-0.0373979078027591,-0.186386114174046,-0.000881513210891957,0
0.23,0.000865721211144394,0.000495835891715383,-0.0427384963818467,-0.0248057270516601,0.000647678179498813,0.000758840841507367,-0.032296128655076,-0.0374013802076523,-0.186391681174473,-0.000812776264594022,0
0.24,0.000865188036497818,0.000495835005079314,-0.0427418900998096,-0.0248056879593172,0.00064758235958172,0.000758313772998701,-0.032296909357144,-0.0374045581502527,-0.186396766449248,-0.000749987791190777,0
0.25,0.000864700962313179,0.000495834199193915,-0.0427449836305704,-0.02480564582315,0.000647494823731985,0.000757832277325197,-0.0322976150085547,-0.0374074558750054,-0.186401411684963,-0.000692632630414245,0
0.26,0.000870752947264474,0.000499558671298012,-0.0430469233735717,-0.024991968275859,0.000652279467921058,0.000763086533079588,-0.032536820154047,-0.0376695025782781,-0.186405489975983,-0.000682547355259298,0
0.27,0.000855276039909718,0.000490721116943114,-0.0423558467262218,-0.0245498386521561,0.000640729925278351,0.000749512829716974,-0.031974433096999,-0.0370721992585768,-0.18640978422222,-0.000536134657905723,0
0.28,0.000854358550311095,0.000490456289923607,-0.0421448378442807,-0.0245365988954074,0.000640302297590275,0.000748658047786785,-0.0319224465735475,-0.0368671865896196,-0.186413326166042,-0.000489008948457278,0
0.29,0.000861315432689376,0.000494847949357937,-0.0426708470470163,-0.0247562896937557,0.000645909507896863,0.000754678524393714,-0.0322359321939353,-0.0373432690414085,-0.186416343875583,-0.000496951668482586,0
0.3,0.000849727939208425,0.000488825259974342,-0.0421451687218383,-0.0244550004392754,0.000637844829890829,0.000744406930678321,-0.031842497613127,-0.0368824841738619,-0.186418057479628,-0.00040489546290621,0
0.31,0.000860043922832529,0.000494548922060875,-0.0426354183887619,-0.024741346137593,0.000645383191387178,0.000753481732882516,-0.0322148391979067,-0.037311087431727,-0.186420577308558,-0.000439537964349428,0
0.32,0.000861896709552749,0.000495595867685094,-0.0427348823267009,-0.0247937042785469,0.000646757307090925,0.000755106739295109,-0.0322848196439438,-0.0373990422322153,-0.18642310548993,-0.000421483700050922,0
0.33,0.000862073502463697,0.000495787107365975,-0.0427559897330606,-0.0248032921928515,0.000646979779360524,0.000755243500189809,-0.0322982416979996,-0.0374179307936069,-0.186425460218109,-0.000395044026942797,0
0.34,0.000861931831746997,0.000495821799891273,-0.0427613164537657,-0.0248050270785621,0.000646989243498774,0.00075509645650277,-0.0323010146524328,-0.0374227738903814,-0.186427620257417,-0.000368901119710885,0
0.35,0.000861741788039531,0.000495827873625716,-0.0427633879030099,-0.0248053275281215,0.000646961478365171,0.000754907302275796,-0.0323017677499745,-0.0374246899646127,-0.186429595200062,-0.000344621871094279,0
0.36,0.000861556051248647,0.000495828734441375,-0.0427647170266472,-0.0248053631543205,0.000646929259495298,0.000754723457002472,-0.0323021166457597,-0.0374259311679839,-0.186431399610302,-0.000322363781566403,0
0.37,0.000861383993183281,0.000495828663059658,-0.0427658165325027,-0.0248053550800851,0.00064689854158133,0.00075455332728963,-0.0323023742010444,-0.0374269598727506,-0.186433047954328,-0.000302015760092033,0
0.38,0.000861226134007475,0.000495828440891172,-0.0427667837011837,-0.024805355843847,0.000646870199199734,0.00075439727072765,-0.0323026105771373,-0.0374278615016344,-0.186434553678539,-0.000283425295687542,0
0.39,0.000861082015599012,0.000495828209208404,-0.0427676669563059,-0.0248053360195137,0.000646844295687688,0.000754254802948691,-0.0323028062940458,-0.0374286886953823,-0.186435929112149,-0.000266442859790023,0
0.4,0.000860950233455203,0.000495827992299775,-0.0427684624719786,-0.0248053366736477,0.000646820603187956,0.000754124531974768,-0.0323030014188055,-0.0374294297184275,-0.18643718552788,-0.000250929818280782,0
0.41,0.000860829980187445,0.00049582779318348,-0.042769190800017,-0.0248053167548583,0.000646798982865475,0.000754005657171684,-0.0323031598057449,-0.0374301120431347,-0.186438333223401,-0.000236759124083787,0
0.42,0.00086071996770874,0.000495827611108004,-0.042769843206403,-0.0248053173168284,0.000646779202391045,0.000753896906814193,-0.0323033205298772,-0.0374307191733322,-0.186439381606911,-0.000223814641835588,0
0.43,0.000860619621455631,0.000495827444744519,-0.042770441882542,-0.024805294408328,0.000646761160498166,0.000753797710972498,-0.0323034448363075,-0.0374312807851851,-0.186440339271627,-0.00021199026919121,0
0.44,0.000860527886182387,0.000495827292761546,-0.0427709804844804,-0.0248052948924292,0.000646744666245899,0.000753707027847858,-0.0323035778935929,-0.0374317817045456,-0.186441214067622,-0.000201189081761477,0
0.45,0.000860443950735675,0.000495827153921066,-0.0427714609630423,-0.0248052953421636,0.000646729573508315,0.000753624055927645,-0.0323036973105061,-0.0374322279592895,-0.186442013165987,-0.000191322541553262,0
0.46,0.000860367702459007,0.000495827027088164,-0.0427719163979998,-0.0248052752462783,0.000646715865260628,0.000753548680475173,-0.0323037893080179,-0.0374326556464312,-0.186442743116741,-0.000182309771798422,0
0.47,0.000860297620435541,0.000495826911224753,-0.0427723062050387,-0.024805275636666,0.000646703263098589,0.000753479403248271,-0.0323038869078646,-0.037433017085889,-0.186443409903595,-0.000174076894123037,0
0.48,0.000860233708424109,0.000495826805383097,-0.0427726629197183,-0.0248052759997517,0.00064669177093071,0.000753416224577096,-0.0323039761873448,-0.0374333478753258,-0.186444018992077,-0.000166556422987794,0
0.49,0.00086017562093739,0.000495826708696175,-0.0427729988417929,-0.024805255829948,0.000646681327646667,0.000753358801889677,-0.032304039462984,-0.0374336637411189,-0.186444575374967,-0.000159686712503802,0
0.5,0.000860122186299703,0.000495826620372745,-0.0427732823929731,-0.024805253237546,0.000646671718733197,0.000753305981010301,-0.0323041085016693,-0.0374339264405991,-0.186445083612645,-0.0001534114511143,0
0.51,4.78454934928478,0.0121546478462527,0.773228063319187,-0.601876689250758,-0.672644401766772,4.73704651866303,-0.706331960484914,0.679140890070191,0.143593991005988,44.2840552763969,4815.00115933727
0.52,4.74556236184966,0.0377600371566317,2.72336633193924,-1.87557694601354,-2.84828770349141,3.7959248028313,-3.14299618903592,1.02766142968555,0.651684435530446,94.383488439606,4815.00115933727
0.53,4.66262497610222,0.0483917731458914,6.87110725870315,-2.39948976010273,-4.65691562493508,0.235691098083875,-6.96196737448369,-2.12147975386656,1.53060676772177,145.817549523715,4815.00115933727
0.54,4.64342786243236,0.0378671518115525,7.83190885960811,-1.86982125559124,-1.58940705855945,-4.36309998017475,-0.858569458802098,-8.00611556233615,2.80040467971737,201.429699394615,4815.00115933727
0.55,4.72022389086852,0.0223870953219252,3.99304501553957,-1.08723297223315,4.58596726223163,-1.11799777804013,4.13636815432434,0.130163450813974,-1.8051759055295,255.052715381515,4815.00115933727
0.56,4.64953277831586,0.028052973243075,7.52867260915244,-1.35890893824086,-1.11198351150903,4.51469098566817,-3.1620893237024,6.96625694811499,0.247529878335572,305.199794767907,4815.00115933727
0.57,4.71730023150424,0.0187395713417959,4.14142581567648,-0.893567428826576,-2.0962685822068,-4.22598280603894,-1.0235298168389,-4.11123548956431,2.68508826715303,360.121921864641,4815.00115933727
0.58,4.63332084414191,0.0206639915140308,8.34153170446419,-0.974114275339636,3.24946796882387,3.30288464298904,5.12606185543394,6.65233339906133,-0.772786217942184,410.570318097708,4815.00115933727
0.59,4.63420799598526,0.0658849510218034,8.29842097727944,-3.23811567737677,-3.05299869504093,-3.48703649893477,-2.91073821537513,-8.41883524591018,2.43667972202746,464.516586954146,4815.00115933727
0.6,4.70151540395213,0.0707314786625046,4.93433627896249,-3.47673597074135,1.25821481884247,4.53057893710265,-2.11486200625683,5.6535587216039,-0.255846346283857,516.61012078389,4815.00115933727
0.61,4.5866605181193,0.0225967172767083,10.678422577482,-1.04833544929888,2.49411883438002,-3.84932936497995,6.72766605310689,-8.35860188281552,-2.56174323508048,567.880617129383,4815.00115933727
0.62,4.69624871608333,0.000616866331509591,5.20038596227631,0.0571737620134785,-4.57518069414128,-1.05946873469458,-5.07907288376073,-1.11816887684722,1.79848545987199,620.384163657732,4815.00115933727
0.63,4.6117210755904,0.0582148119733536,9.42824879243754,-2.82244820633674,-1.11791751082629,4.47455256784024,-5.1300015937348,8.39887925962934,0.257449638719315,672.812375435657,4815.00115933727
0.64,4.62324946130351,0.0909856354853869,8.85332802499753,-4.4558876849709,3.68270270810835,2.79650044359005,4.18009250813642,8.98683363608695,-0.901653632526479,724.999940485777,4815.00115933727
0.65,4.59257543288177,0.0362945527502583,10.3886077423854,-1.71119496628281,4.56177570401294,-0.532230051336609,10.5126717253235,0.578871517148977,-1.67904019200902,776.894186610248,4815.00115933727
0.66,4.68365488838054,0.0494394864763538,5.83623528802237,-2.35494485851109,4.07604845654932,-2.30757369462729,6.24737811980033,-0.760048848446942,-2.07538373078314,828.682199857395,4815.00115933727
0.67,4.58363115946071,0.0413661358152809,10.8391249018467,-1.94321120543571,3.95651392899768,-2.31460218889095,10.3708318244531,-3.70250532689348,-2.09109671145635,880.693878920322,4815.00115933727
0.68,4.54935039622245,0.0602761637166584,12.5548740517511,-2.90974805666599,4.48548799522611,-0.761984047211113,12.8535886818268,0.936351540298631,-1.7258189188417,933.296663239626,4815.00115933727
0.69,4.55781629880626,0.108136895584269,12.1334148890816,-5.28325714534859,3.84652969784342,2.44736435486406,7.13861271581185,11.143283691449,-0.980425032793981,984.571349686186,4815.00115933727
0.7,4.55489771607327,0.0699475068853119,12.2811716999802,-3.35291287487683,-0.580473499693948,4.51830016419472,-5.07040193729268,11.6773381926365,0.143127107555767,1036.17464448166,4815.00115933727
0.71,4.57977841453827,0.0905882919755907,11.0389293256653,-4.39766392469038,-4.57327775237579,-0.260206004039809,-10.6699583432438,-5.22966515228253,1.64740957769958,1088.2905908596,4815.00115933727
0.72,4.56067545871173,0.128831113483642,11.9960353747428,-6.29684769667642,1.60533900682978,-4.27074288252614,10.3655397115274,-8.72414707097307,-2.75379925319672,1139.71551028988,4815.00115933727
0.73,4.54366031342291,0.0448490081646826,12.8487406492394,-2.08523220271352,2.18813972708658,3.9823240717015,4.23860778545089,12.3074178303885,-0.492560475028797,1191.16283745835,4815.00115933727
0.74,4.53450120962575,0.141609319340517,13.3087236254133,-6.94035140312564,-3.88105043469451,-2.34929818089978,-7.38705196160457,-13.0660654159183,2.14634147983893,1243.13916073444,4815.00115933727
0.75,4.55437556793763,0.0653290315394093,12.3170384647556,-3.12430281349753,4.12882347341751,1.92338800597945,9.72946902275996,8.17362448047694,-1.12050160405638,1294.62093761258,4815.00115933727
0.76,4.5379915393396,0.0659448740453248,13.1383269514436,-3.11197214739092,-3.50619520210765,-2.88172017070498,-8.01704433305398,-10.8640234669764,2.27327603111627,1345.73837139825,4815.00115933727
0.77,4.49536490752491,0.0838592023937537,15.2718346475768,-4.00207470740184,1.14644330428985,4.34752869659092,-0.270184147207623,15.7851999034903,-0.239178209835177,1396.96990816049,4815.00115933727
0.78,4.50406090358734,0.153358252528726,14.839247146392,-7.47229071690375,3.01226330207238,-3.35206700049845,15.6731392790128,-5.51281140347614,-2.3755000075026,1448.28764809308,4815.00115933727
0.79,4.53750873520079,0.126611014747588,13.1691071650583,-6.1264082858672,-3.87292378789724,-2.36758890101694,-7.70001206328295,-12.3153593628131,2.14739247579821,1499.65302896876,4815.00115933727
0.8,4.48537758403448,0.0478483567288366,15.7779626248983,-2.2256192686714,-3.06434359692684,3.27577469563676,-12.5099710573068,9.86904807299641,0.762729612972508,1551.14911727793,4815.00115933727
0.81,4.56676150296594,0.0874849392249002,11.711155037579,-4.19479412873807,1.19951745054033,4.40728058165261,-1.20939871995233,12.3808240772933,-0.246576181052976,1602.35204932447,4815.00115933727
0.82,4.52657567799576,0.149073451219958,13.7227812343347,-7.24826207465152,3.58691244021124,2.76517077388346,5.97460746248268,14.3232710501996,-0.881128311622818,1653.22328751806,4815.00115933727
0.83,4.4612719158431,0.121664004050852,16.9903433705822,-5.85560762011472,4.10628792532908,1.74818440425163,13.0056327625274,12.4021540426373,-1.14104015735576,1704.28166039462,4815.00115933727
0.84,4.47382434617318,0.164549718718117,16.3652254598767,-8.03502035341438,3.91211103889176,2.17659553195427,9.83672038807819,15.3499540207502,-1.02630890777272,1755.58838693123,4815.00115933727
0.85,4.48439715475997,0.140371596438086,15.8390901188793,-6.77767328989355,1.67826090240674,4.16088480616308,-0.899575614592248,17.20477825292,-0.35209235199399,1806.19488790045,4815.00115933727
0.86,4.43338519049276,0.0779495067376388,18.3922231906938,-3.68776606030574,-2.09656875987569,3.90709352434702,-12.1983132143708,14.2504262089224,0.510082153143199,1857.45932713103,4815.00115933727
0.87,4.4462976548473,0.115011186667553,17.7491618708708,-5.5504813750911,-4.39880123542978,-0.658284208940736,-16.5167370639087,-8.54622649918139,1.74520572449909,1908.33744812342,4815.00115933727
0.88,4.43492344825622,0.100414267260309,18.320557892355,-4.76578428291767,0.834400335587639,-4.35688020227014,8.51164976756217,-16.9087953312114,-2.92973273170285,1958.86651423914,4815.00115933727
0.89,4.53247320496928,0.120532139137927,13.4457330667752,-5.78176741601223,3.75484885647035,2.54144671700844,7.56371724767231,12.5302335793511,-0.949194218885066,2009.84100350176,4815.00115933727
0.9,4.4807849316097,0.108477137602922,16.0328857362908,-5.19326187601434,-4.4001455720511,0.853182183054803,-16.6738619523071,-2.45065736920277,1.40347897346734,2060.70856327557,4815.00115933727
0.91,4.48173537237177,0.129958967764785,15.9881394708849,-6.27059934895882,3.66602460827379,-2.58129906303044,16.7939520374422,-3.59224093007734,-2.15528865530492,2111.43697484137,4815.00115933727
0.92,4.45187984881519,0.10076111266088,17.4836540346886,-4.80710131884321,-3.53780087148892,2.70432098387075,-16.9591677603629,6.41661985551378,0.940767620815163,2162.15577238844,4815.00115933727
0.93,4.4312924573276,0.123908150043892,18.5158209284359,-5.95493596479974,4.19089447009102,-1.44502927741147,19.4493676988234,0.137779224614825,-1.87487823502044,2212.77361407776,4815.00115933727
0.94,4.41211312351989,0.142866416502914,19.4776318181163,-6.88267325236986,-4.13037290647966,-1.55793859991966,-15.3561257494574,-13.8180582683615,1.96385548807603,2263.26043186156,4815.00115933727
0.95,4.40932194371477,0.149925150867501,19.6201128919231,-7.20554994985106,0.633120349224496,4.36620615381192,-5.00788919128963,20.2926052004017,-0.110012244133293,2313.62229289981,4815.00115933727
0.96,4.38911528276255,0.203529957044614,20.6333366344906,-9.89528662553261,4.21150014350157,-1.252606861741,22.406960729065,4.64536209135493,-1.81355104996164,2364.29998179176,4815.00115933727
0.97,4.43725035227825,0.136953750084615,18.2295736535831,-6.59083722536337,-0.160608750987483,-4.43645712788503,6.49355362196221,-18.2644532434275,3.13626118533398,2414.89574975657,4815.00115933727
