t,iq,id,vq,vd,ia,ib,va,vb,theta_e,omega,r
0,0,0,0,0,0,0,0,0,0,0,0
0.01,0.000446921452562315,0.000252538216691748,-0.0215720415429586,-0.0126317950156411,-0.000513317242102727,4.44349077954751e-06,0.0249910694858334,-0.000601388063193514,2.07647346621845,-0.00270354436980429,0
0.02,0.000579768555538383,0.000324668849810019,-0.0280364561214633,-0.0162397104485873,-0.000664478089889355,3.21062065930592e-06,0.0323941009176443,-0.000627130801483177,2.07645086939882,-0.00336825529479307,0
0.03,0.000635375421266765,0.000354719282571986,-0.0307418047559009,-0.0177428146056326,-0.000727681948828616,2.58393639465665e-06,0.0354889537024246,-0.000632609584931575,2.07642568091587,-0.00353082411228789,0
0.04,0.000632926253188308,0.000353091427630461,-0.030663928003019,-0.0176613903667603,-0.000724750722764903,2.36391473150519e-06,0.0353813684108937,-0.000599966360757119,2.0764010310686,-0.00333425185032202,0
0.05,0.000648337272247854,0.000362161475461372,-0.0314407177040351,-0.0181150770641535,-0.000742626430204261,2.85272785623272e-06,0.0362806897925046,-0.00062152631890919,2.07637717797819,-0.00325524235038828,0
0.06,0.000651775990460208,0.000364535732892336,-0.0316422995192421,-0.0182338244849807,-0.000746784756750531,3.28167347363103e-06,0.0365145491882386,-0.000628626911783127,2.07635421431116,-0.00310789230547972,0
0.07,0.000659513270067208,0.000369577847814745,-0.0320476158662612,-0.018486039606031,-0.000755995925816134,3.96221396789927e-06,0.0369912948419827,-0.000653795794334387,2.07633265017639,-0.00299771988831475,0
0.08,0.000653345031474328,0.000366475038762883,-0.0317854092540853,-0.0183308301368407,-0.000749096535349979,4.2502841205638e-06,0.0366867085756469,-0.000645746731278849,2.0763117858267,-0.00280572173774752,0
0.09,0.000650936253331463,0.000365660412453075,-0.0317013429824249,-0.0182900814213652,-0.000746594453160383,4.71864882184647e-06,0.0365934112232135,-0.000651521556284911,2.07629218973708,-0.00264656261611777,0
0.1,0.000649606838684327,0.00036544536545037,-0.0316672306212487,-0.0182793324462066,-0.000745327072021302,5.18803496064559e-06,0.0365583478605269,-0.000659311464331926,2.07627370036159,-0.00250229261250879,0
0.11,0.000648612589260966,0.000365387491306304,-0.0316475439016782,-0.018276438580422,-0.000744429037647962,5.63184316705221e-06,0.03653971016698,-0.000666950602135131,2.0762562316575,-0.0023676239146181,0
0.12,0.000647745466944829,0.000365370878133612,-0.0316324136718362,-0.018275602078216,-0.000743662203307216,6.04945517867096e-06,0.0365260557755323,-0.000674147988328044,2.07623972074785,-0.00224079263156414,0
0.13,0.000669204006850593,0.000378004067754012,-0.0326864247220918,-0.0189075137105119,-0.000768554389895716,6.72516137298064e-06,0.0377542304045821,-0.000717302156623419,2.07622371745744,-0.00225732698555542,0
0.14,0.000681161046514725,0.000385247773083192,-0.0333472728269293,-0.019269827354031,-0.00078252356761594,7.28588225371604e-06,0.0385078655974635,-0.000714939420862658,2.07620826754173,-0.00221850350525447,0
0.15,0.00065508975805646,0.000370570040444126,-0.0320583489309882,-0.0185356557650789,-0.000752605247726273,7.07722262672893e-06,0.0370246166648795,-0.000697159695639868,2.07619350618781,-0.00194690106510056,0
0.16,0.000647401357847269,0.000366723423691668,-0.0317111885826341,-0.0183432571938406,-0.000744015576184778,7.44379077212946e-06,0.0366276975047128,-0.000697381750566266,2.07618018377212,-0.00180085358955225,0
0.17,0.000644829625045279,0.000365714547707402,-0.0316077995044735,-0.0182927949568938,-0.000741276801454189,7.81532895734633e-06,0.0365127935367403,-0.000703736451615858,2.0761677647371,-0.00169344946407263,0
0.18,0.000643699098309347,0.000365449199802039,-0.0315723144469613,-0.0182795178819412,-0.000740159037893048,8.13912928108545e-06,0.0364753081406138,-0.00070972500398565,2.07615607316296,-0.00160040797015134,0
0.19,0.000642990356208789,0.000365378707142909,-0.0315559963641638,-0.0182759989744089,-0.000739504668229145,8.42872933667005e-06,0.0364593183406585,-0.000714948377325469,2.07614503423657,-0.00151480474017787,0
0.2,0.000642420151522304,0.00036535931808855,-0.031545343762118,-0.0182750317588551,-0.000738996258716495,8.69551603379336e-06,0.0364495215067183,-0.000719639346228509,2.07613460257081,-0.00143453295353239,0
0.21,0.000641908853848765,0.00036535336781133,-0.0315365979921796,-0.0182747351910195,-0.000738545899033181,8.94511273192428e-06,0.0364417181575507,-0.000723973029796017,2.07612474227647,-0.00135883028796082,0
0.22,0.000641433121282771,0.000365350985678914,-0.0315286913483555,-0.0182746117353787,-0.000738128386932512,9.18020803247966e-06,0.0364347331727816,-0.000728032174367437,2.07611542137095,-0.00128731654087392,0
0.23,0.000640985619493383,0.000365349583099614,-0.0315213201837685,-0.0182745348262723,-0.000737736052109262,9.40211075333531e-06,0.0364282395781961,-0.000731854136993632,2.07610661015675,-0.00121972657715537,0
0.24,0.000640563030916899,0.000365348479464262,-0.0315143700109281,-0.0182744862756157,-0.00073736566254714,9.61185313604285e-06,0.036422128380743,-0.000735479462679855,2.07609828071046,-0.00115583586730936,0
0.25,0.000640163667197797,0.000365347494171175,-0.0315078021960742,-0.0182744391517302,-0.000737015653797352,9.81011493056546e-06,0.0364163527282007,-0.000738904264770543,2.07609040667565,-0.0010954393884698,0
0.26,0.000643509842912345,0.000367505097343145,-0.0316798509684966,-0.0183823599280714,-0.000740988011107313,1.00837440216312e-05,0.0366191360947939,-0.0007503236516878,2.07608308837031,-0.00106255456877528,0
0.27,0.000635260753467959,0.000362853504640673,-0.0312961844463041,-0.0181496903625924,-0.000731518047653715,1.00118271856512e-05,0.0361707831763649,-0.000732711105049031,2.07607577219283,-0.000957164580094641,0
0.28,0.00063433743430578,0.000362545471351429,-0.0312011757277802,-0.0181342783724362,-0.000730560935082971,1.01940909239006e-05,0.0360801815125431,-0.000765454705892982,2.07606910542389,-0.000902367336307521,0
0.29,0.000637456889532506,0.000364610696971063,-0.0314218947233028,-0.0182375866996715,-0.000734290190755593,1.04958143227122e-05,0.0363233213906718,-0.000749239467943554,2.07606294495941,-0.000876579204312124,0
0.3,0.000628004714982534,0.00035959321312396,-0.0309770345628002,-0.0179866166021533,-0.00072359038721932,1.06842168127505e-05,0.0358125649731846,-0.000745142361705952,2.07605784379956,-0.000779952253200029,0
0.31,0.000635328982140712,0.000363836297320718,-0.0313366609426233,-0.0181988407497801,-0.000732053220106163,1.08558614674299e-05,0.0362299753916962,-0.000756972116972815,2.07605244282202,-0.000786045477084065,0
0.32,0.000637164652879975,0.00036494748519196,-0.031433072206647,-0.0182544235172406,-0.000734197316840151,1.09435721918544e-05,0.0363412399147618,-0.000759136188567124,2.07604714755024,-0.000758589316077575,0
0.33,0.000637490872558274,0.000365238160055787,-0.0314567617056321,-0.0182689633866561,-0.000734623414991518,1.10437449375427e-05,0.0363690033259639,-0.000760576954638978,2.07604208928901,-0.000723435524236898,0
0.34,0.000637409038460149,0.000365313889715022,-0.0314604745338999,-0.0182727512776568,-0.000734588406985111,1.11531454078426e-05,0.0363740820258343,-0.000762268936236545,2.0760372930437,-0.00068765626506005,0
0.35,0.000637223532052245,0.00036533332813889,-0.0314588044319589,-0.0182737365370737,-0.000734435435590846,1.12632765508463e-05,0.0363730940064291,-0.000764104517779876,2.07603275500233,-0.000653127720338955,0
0.36,0.000637018408064261,0.00036533804050557,-0.03145579829597,-0.0182739675772502,-0.000734258171852126,1.13698338399807e-05,0.0363705719973859,-0.000765917772418486,2.07602846395997,-0.000620291620193627,0
0.37,0.000636816252334477,0.00036533891546438,-0.0314525585895713,-0.0182740065674562,-0.000734081649985134,1.14714229771669e-05,0.0363677528107105,-0.000767667478081427,2.07602440721756,-0.000589196699966504,0
0.38,0.000636622653361158,0.000365338804653218,-0.0314493729583096,-0.0182740083364738,-0.000733912140481881,1.15678438503982e-05,0.0363649630851462,-0.000769350354732561,2.07602057218848,-0.000559786884390987,0
0.39,0.000636439182177414,0.000365338454119396,-0.0314463367111457,-0.0182739832565949,-0.000733751379171111,1.16589979628799e-05,0.0363622912351797,-0.000770929789949634,2.07601694681315,-0.000531980876159342,0
0.4,0.000636265431987543,0.000365338058313813,-0.0314434481834693,-0.0182739689535601,-0.000733599104170613,1.17452609539245e-05,0.0363597540081209,-0.000772439933675675,2.07601351964535,-0.000505693988884208,0
0.41,0.000636101343946176,0.000365337667227929,-0.0314407225176305,-0.0182739394497695,-0.000733455288154095,1.18267131727199e-05,0.0363573520747339,-0.000773851121550437,2.07601027985348,-0.000480843996834213,0
0.42,0.000635945987376678,0.000365337293056667,-0.0314381306724158,-0.0182739250824086,-0.000733319122583614,1.1903823405486e-05,0.036355074698557,-0.000775204331587131,2.07600721719413,-0.000457352569088996,0
0.43,0.000635799187330466,0.00036533693814141,-0.0314356804818242,-0.0182739092275288,-0.000733190455463133,1.19766856176859e-05,0.0363529206827743,-0.000776481579448306,2.07600432198267,-0.000435145491017049,0
0.44,0.00063566041994398,0.000365336602288861,-0.0314333613550575,-0.0182738947973807,-0.000733068828241274,1.20455600239963e-05,0.0363508821632622,-0.00077769087430845,2.07600158506461,-0.00041415255953003,0
0.45,0.000635529219550519,0.000365336284684392,-0.0314311648365397,-0.0182738788831656,-0.000732953832989515,1.21106777458892e-05,0.036348950327276,-0.000778834079605615,2.07599899778566,-0.000394307397073987,0
0.46,0.000635405236909562,0.000365335984392554,-0.0314290873584214,-0.018273864396441,-0.000732845163600503,1.21722130906802e-05,0.0363471234564164,-0.00077991576905825,2.0759965519634,-0.000375547251696067,0
0.47,0.00063528800635435,0.000365335700485739,-0.0314271188708215,-0.0182738484284166,-0.000732742412087291,1.22303963790775e-05,0.0363453913432818,-0.000780938543793549,2.07599423986494,-0.000357812801376746,0
0.48,0.000635177178644419,0.000365335432074917,-0.0314252544844981,-0.0182738338906325,-0.000732645272362427,1.22854012973015e-05,0.0363437511135874,-0.000781907585021129,2.07599205417843,-0.000341047967205361,0
0.49,0.000635072520943597,0.000365335178316647,-0.0314234942879093,-0.0182738178734481,-0.000732553540223077,1.2337344931088e-05,0.0363422014318214,-0.000782820556152383,2.07598998799265,-0.000325199736261421,0
0.5,0.000634973509388493,0.000365334938412524,-0.031421823339679,-0.0182738032893117,-0.000732466756815682,1.23864849710125e-05,0.0363407306281393,-0.000783687475640497,2.07598803477358,-0.000310217994042687,0
0.51,0.0906711015700099,-0.0399384229781837,-0.391668843475898,1.99796338772436,-0.0400739001679456,0.0906113062218667,1.99854656487983,-0.388682144745287,0.00149465318991346,0.59481824469588,14.6707018767445
0.52,0.104233007163039,-0.0370605430084072,-1.20875345509829,1.85401422815438,-0.0379205061583335,0.103923235337551,1.86393830108441,-1.19339334804644,0.00826262279765684,1.24285638240426,14.6707018767445
0.53,0.0494946976549926,-0.000782366313946569,1.38672151522991,0.0391318397742039,-0.00176671062290142,0.0494693433005054,0.0115408182173591,1.38722553004208,0.0198923132108452,1.89121854202025,14.6707018767445
0.54,0.0594348828674817,-0.00125847529011464,0.766019626090395,0.0629420070309088,-0.00339621807289919,0.059351114263579,0.0353386952233246,0.767788343506634,0.0359892931914266,2.49397497996106,14.6707018767445
0.55,0.069996400620128,-0.000963569739544973,0.121724387179744,0.0481829641392132,-0.00490025639990069,0.0698313114128015,0.0412580525465966,0.12424249501514,0.0562928045422458,3.06232610036744,14.6707018767445
0.56,0.0790313982338231,-0.00067129599082682,-0.447207566810916,0.0335509262019663,-0.00703829174925949,0.0787202324332998,0.0694824729172075,-0.443049047419424,0.0806779850766785,3.61057855779231,14.6707018767445
0.57,0.0831400378389927,-0.000177868502129458,-0.773656168886355,0.00885154525853358,-0.00923348921986068,0.0826259051744663,0.0930754227768177,-0.768088004843386,0.10914942297549,4.1599320041125,14.6707018767445
0.58,0.0870103947390825,-0.00201424406668799,-1.07472781573901,0.100681096651446,-0.0142674613794506,0.0858563073838901,0.251271478606506,-1.04978055096529,0.141528211389081,4.6822683471777,14.6707018767445
0.59,0.0886512416171904,-0.000840077506472998,-1.26593912542973,0.0419181112679609,-0.0164988653913516,0.0871064625115979,0.265054223284365,-1.23859002743651,0.177716854702622,5.19081232592533,14.6707018767445
0.6,0.0841214778180756,-0.00129651291893362,-1.15533911271326,0.0647083482142467,-0.0194357183762814,0.0818557073590096,0.31272823243443,-1.11409007191165,0.217710669507111,5.71006153678181,14.6707018767445
0.61,0.0159854140057421,0.0342785066156542,2.14121954012777,-1.71503535402101,0.0289827897133208,0.0243011805714835,-2.21014198334122,1.62525068775235,0.261403431585521,6.19829433266901,14.6707018767445
0.62,0.0104371575847018,0.0380307392476245,2.3130162417619,-1.90277409279649,0.0330643995071083,0.0214945777209751,-2.51538714550328,1.62586004659341,0.308587461473534,6.66931627661163,14.6707018767445
0.63,0.0708747750947884,-0.0581062895513838,-0.813626137969166,2.90665821708917,-0.0793112770026226,0.045927072303592,3.0071655822891,0.260008930720614,0.359181344276939,7.1389694682403,14.6707018767445
0.64,0.0636816095241993,-0.0464319686868264,-0.553795481775162,2.32263809695135,-0.068092931907914,0.0396815792517284,2.34956192929832,0.42531859286461,0.413144696413699,7.5756206722242,14.6707018767445
0.65,0.0552820974817895,-0.031214933011066,-0.22626014081944,1.56140256152141,-0.0528734473312808,0.0351408723878291,1.49447076001378,0.505696309965863,0.470190610052141,7.99614783864396,14.6707018767445
0.66,0.0483640088090627,-0.0147276341929454,0.0251662474980883,0.736618232851433,-0.0371652513596044,0.0342742563505283,0.622739007084316,0.394253585954451,0.530248709387513,8.38345766953097,14.6707018767445
0.67,0.0375287395139083,0.00122477893389365,0.481856404712879,-0.0614243271387525,-0.0199616207613456,0.0318031455915906,-0.320272746568907,0.365217620785853,0.593135335915979,8.77225412590616,14.6707018767445
0.68,0.0892864959997281,-0.0098215309775093,-2.19663073302819,0.491203098512832,-0.0624324421052757,0.0645811970423516,1.7332917210299,-1.43602467634849,0.658922555254219,9.1620523312248,14.6707018767445
0.69,0.0200497534194123,-0.0357027061465062,1.18101946141217,1.78593359874282,-0.0399982325050795,-0.0087645441885251,0.548627721314599,2.06963122578829,0.727400556759513,9.51561154373531,14.6707018767445
0.7,0.0585564938726129,0.0289246142949234,-0.831034909257712,-1.44715722945113,-0.0217639238878874,0.0615778199010462,-0.414458856901684,-1.6165107247072,0.798538693339676,9.883019909401,14.6707018767445
0.71,-0.0114234135929571,0.00440727665057794,2.59237776294385,-0.220661607008035,0.0115816910335948,-0.00397276961235316,-2.12692489690727,1.49843401373872,0.87213705801611,10.2028365715125,14.6707018767445
0.72,0.039392018986615,0.00246809743973626,-0.0242880145569068,-0.123646446754707,-0.0305595742453128,0.0249786926551227,-0.0523821127686764,-0.114605696665003,0.948122074141422,10.5219683192903,14.6707018767445
0.73,0.0314075004082669,-0.0432490449336648,0.294642394560545,2.16342263936394,-0.0492646916378108,-0.0207340571862059,0.868265841006931,2.00332875148472,1.02646273410943,10.852003722945,14.6707018767445
0.74,0.0657451716974977,0.0279439491831417,-1.49262889372603,-1.39816669595568,-0.04630473395507,0.0543981940034193,0.709676283511784,-1.91811644502786,1.10710052951725,11.1445170675998,14.6707018767445
0.75,0.0587782396335791,-0.00829697043417796,-1.21613780814645,0.41486854756477,-0.0576497947667609,0.0141499942105436,1.28320631502243,-0.0669972629912532,1.18987630586195,11.4380912480434,14.6707018767445
0.76,0.0513334802038242,-0.0441213357081373,-0.912181837714667,2.20704953270687,-0.0619728223492984,-0.0272247634437633,1.51641899714292,1.84488936524177,1.27473211558664,11.7244652692622,14.6707018767445
0.77,0.0262939069147108,-0.00662567522797255,0.270963331982887,0.331267120408026,-0.0270965805939154,-0.00102197513839237,-0.196278676474914,0.380307393438452,1.36164827076436,11.9933866411896,14.6707018767445
0.78,0.0194125027277298,-0.0374827690544497,0.546858315714054,1.87495246559258,-0.0237692480293129,-0.034883034361482,-0.317962641046683,1.92701855844616,1.45053253575286,12.2476901311598,14.6707018767445
0.79,0.0632708316686406,-0.00830365489780811,-1.6999691447786,0.415271408718592,-0.0634889381240522,-0.00642678462247045,1.71151867823421,0.364759167333485,1.54118546304468,12.4829902105569,14.6707018767445
0.8,0.052469120732827,-0.0369823917584669,-1.22996613563073,1.84994934896238,-0.0500431927591487,-0.0402042881932186,1.11136790568,1.92353598010257,1.6336343622507,12.734760196291,14.6707018767445
0.81,0.0190403569675393,0.0162740634175307,0.384066611552077,-0.814252692462229,-0.0213517029530031,0.0130952325132413,-0.251964891947797,-0.864307990543197,1.72787137539531,12.9713855757175,14.6707018767445
0.82,0.0503597035256307,0.0500271982955948,-1.24819654423823,-2.50280934128415,-0.061281252398315,0.0358249691275539,1.83508100281657,-2.11057502235035,1.82386388052574,13.2177034305883,14.6707018767445
0.83,0.041717976401405,0.037705887629857,-0.864922152951488,-1.88638225084116,-0.0521322523112474,0.0210796533638488,1.46031736751671,-1.47444956274668,1.92147212276512,13.4025469392375,14.6707018767445
0.84,0.0546521291179051,-0.0438467205913324,-1.56753850686406,2.19343375374645,-0.0301592572602744,-0.063244045769093,0.458245704207982,2.6567535597324,2.02048457042089,13.6127385329442,14.6707018767445
0.85,0.0467917724681082,-0.0396380452959335,-1.22081935151535,1.98299734201497,-0.0191683460654238,-0.0582513443167266,0.00411166000420615,2.3286608687666,2.12087336184432,13.7765260335888,14.6707018767445
0.86,0.0323317689431551,-0.0380552973325265,-0.546873379205704,1.90388478056273,-0.00262072859456878,-0.0498666293195578,-0.720088158884935,1.84535113026653,2.22255149473945,13.9678885124115,14.6707018767445
0.87,0.0194973837468211,-0.0373059250123399,0.0469017333534878,1.86643729418549,0.0113565316481958,-0.0405328163704505,-1.3128974986583,1.32743666656259,2.32556425328088,14.1287342947514,14.6707018767445
0.88,0.0388337855274182,0.0270992354203969,-0.969735208390507,-1.35548710952486,-0.045884410851669,-0.0117069338238006,1.65979855316447,-0.150998150297883,2.42987204366209,14.3229002986685,14.6707018767445
0.89,0.0174315022909802,0.0286602959727734,0.0475605974056126,-1.43360391112171,-0.0334854051985163,0.00199936891508198,1.15117413052126,-0.855733781983424,2.53551978239061,14.4955806550487,14.6707018767445
0.9,0.0316101074719911,-0.032153523590009,-0.704757074161059,1.60867945567859,0.013095333579375,-0.0431458017898496,-1.07492187877238,1.38891147278683,2.6423494138203,14.6522938344664,14.6707018767445
0.91,0.0471100921465741,0.0304510510744484,-1.52694181493988,-1.5232837005755,-0.0461160266120947,-0.0319364898370177,1.99048787698126,0.830603726359031,2.75031434609356,14.8011205981515,14.6707018767445
0.92,0.0249713216512708,0.0306287850966712,-0.459023329397859,-1.53225021234061,-0.0363717115907029,-0.0154527660136309,1.59946679917276,0.0141098721958179,2.85934751025833,14.9442725296955,14.6707018767445
0.93,0.0417621055041262,-0.031705510028582,-1.3377304534918,1.58607687738062,0.0240803407921034,-0.0465773551164774,-1.33338828687639,1.58972900318944,2.96938611970238,15.0794718169952,14.6707018767445
0.94,0.0225485282511262,-0.0307346923303923,-0.416355472515356,1.53748496484396,0.0292968723534366,-0.024387511337612,-1.50911704386413,0.50968386724862,3.08034460266372,15.1995407519226,14.6707018767445
0.95,0.034548818425076,0.0350274850697891,-1.0517419617364,-1.75241951089871,-0.0332359377778471,-0.0362755841429225,1.69700340041497,1.13899725866028,-3.09101219670145,15.3140535237759,14.6707018767445
