t,iq,id,vq,vd,ia,ib,va,vb,theta_e,omega,r
0,0,0,0,0,0,0,0,0,0,0,0
0.01,0.000805568697348146,0.00045366347829056,-0.0397262002205844,-0.0227052875413851,-0.00062914479955024,-0.000677442469056057,0.0313498581557819,0.0333299783965621,2.90603254465536,-0.00180530722727571,0
0.02,0.000909075435273855,0.000511101657553527,-0.0449125762163869,-0.0255799887550421,-0.000709164292403728,-0.000764675786037345,0.0353561171299835,0.0377017281910488,2.90601901767403,-0.00190441785274454,0
0.03,0.000948889226695062,0.000533938792136055,-0.0469039467273843,-0.0267229530954254,-0.000740674027703047,-0.00079804973715415,0.0369328326671096,0.0393708307243941,2.90600551367824,-0.00185267121825392,0
0.04,0.000925710276415174,0.000521951773976867,-0.0458000522980699,-0.026123026747697,-0.000723617343359644,-0.000778300141723865,0.0360922832212298,0.0384370187299349,2.90599329194009,-0.00166536333369025,0
0.05,0.00094702649326281,0.000534714253287212,-0.0468782938399792,-0.0267617671551114,-0.000741012245920959,-0.000796039799887752,0.0369655240008466,0.0393359460284695,2.90598168946167,-0.00159031997691341,0
0.06,0.000947258845733631,0.000535633471614715,-0.0469195791578545,-0.0268077725745221,-0.000741968926530995,-0.000796043119935777,0.0370203221121232,0.0393649505203819,2.9059708624052,-0.0014736522311058,0
0.07,0.000968565045401662,0.00054861186529379,-0.0479924459506229,-0.0274573263931546,-0.00075957061223325,-0.000813723362664893,0.0379027828963147,0.0402561633752959,2.90596101744352,-0.00141761283919565,0
0.08,0.000946396511676525,0.0005366313895564,-0.0469301904351076,-0.026857729149433,-0.000742753219003505,-0.000794957395858834,0.0370721310185339,0.0393628948514261,2.90595166974966,-0.00126381728316056,0
0.09,0.000943529486987,0.000535760794159469,-0.0468128982988313,-0.0268141483562229,-0.000741244055312697,-0.00079236656405727,0.0370027040891792,0.0392587046308827,2.90594318082625,-0.00116511002868537,0
0.1,0.000942266153300889,0.000535694554843949,-0.0467724463928454,-0.0268108316870422,-0.000740890870659747,-0.000791147822798592,0.0369903409692,0.0392198560974518,2.90593536907246,-0.00107753890577221,0
0.11,0.000941210309800582,0.000535686783421387,-0.0467404798445539,-0.0268104504339894,-0.000740642479740272,-0.000790117645930934,0.0369827886677771,0.0391885959295187,2.90592817229008,-0.000997118112140282,0
0.12,0.00094024596894774,0.000535683476297233,-0.0467114413705501,-0.0268102787978356,-0.000740419333835498,-0.000789175822604164,0.0369761012736776,0.0391601549885946,2.90592154142315,-0.000923041295449421,0
0.13,0.000983041461100658,0.000560330864294294,-0.048829671631083,-0.0280438369694106,-0.000774383299686937,-0.000825028300659849,0.0386704229029096,0.0409315528178005,2.90591508668924,-0.000954687615063625,0
0.14,0.00101735547852195,0.000580789663871504,-0.0506028886680634,-0.0290677759919173,-0.000802294045782058,-0.000853611777941974,0.0400803601837822,0.0424164198183556,2.90590909456895,-0.00097122129707493,0
0.15,0.000943818454694796,0.000538940336400565,-0.0469365612035392,-0.0269732865850485,-0.000744434618294872,-0.000791875659877355,0.0371878776547437,0.0393403192964744,2.90590349424373,-0.000736128761385003,0
0.16,0.000937422857732551,0.000535909515996231,-0.0466356949169526,-0.0268215944227954,-0.000739997850481475,-0.000786361116038665,0.0369703077547361,0.0390830182085277,2.90589876687222,-0.000669774699287913,0
0.17,0.000936346674339725,0.000535688366531771,-0.04659478961615,-0.0268105347288991,-0.000739534901442872,-0.000785363132654202,0.036950170464333,0.0390456667823655,2.90589444515633,-0.000620432654677883,0
0.18,0.000935733453409775,0.000535670709605193,-0.0465756613066946,-0.026809628069889,-0.000739377654952004,-0.000784768047461663,0.0369449772919966,0.03902713205317,2.90589046590662,-0.000575896075231091,0
0.19,0.000935197836815544,0.000535667909996248,-0.0465594769439898,-0.0268095050347902,-0.00073925272762741,-0.000784245183905936,0.036941221214395,0.0390112884777918,2.90588679973948,-0.000534933918993762,0
0.2,0.000934706888435638,0.000535666304968025,-0.0465446889983587,-0.0268094120036282,-0.000739139163589273,-0.000783765688465424,0.0369378090630762,0.0389968063763425,2.90588342184548,-0.000497198166591899,0
0.21,0.000934254683500695,0.000535664896347067,-0.0465310690253895,-0.0268093470070573,-0.000739034627238737,-0.000783324016332705,0.0369346864836167,0.0389834632369587,2.90588030954392,-0.000462429880645445,0
0.22,0.000933837927024673,0.000535663603292717,-0.0465185129375246,-0.0268092790228872,-0.000738938287518189,-0.000782916966914093,0.0369317998382606,0.0389711643186641,2.90587744195093,-0.000430395327887583,0
0.23,0.000933453860390501,0.000535662412025965,-0.0465069385467272,-0.0268092332196514,-0.000738849502431092,-0.000782541846735835,0.0369291551728213,0.0389598231135153,2.90587479982589,-0.00040087953291509,0
0.24,0.00093310025922783,0.000535661314238515,-0.0464962859390974,-0.026809167992859,-0.000738767758783952,-0.00078219648166181,0.0369266987465076,0.0389493904224998,2.90587236544108,-0.000373684452866598,0
0.25,0.000932774225634051,0.000535660302587554,-0.0464864575068343,-0.0268091249394884,-0.000738692385847021,-0.000781878043474191,0.036924448859208,0.0389397610162099,2.90587012246282,-0.000348627618574936,0
0.26,0.00094182478554801,0.000540940293112591,-0.0469362001698205,-0.027073381111104,-0.000745941668798444,-0.00078944369915497,0.0372865117370828,0.0393152755764083,2.90586811135767,-0.000348326140078405,0
0.27,0.000914807430970864,0.000525588358212049,-0.0456158918032889,-0.0263050378082963,-0.000724706044563455,-0.000766757397760687,0.0362311414132293,0.0382108491269147,2.90586603014477,-0.000261697218859819,0
0.28,0.000913570264882419,0.000524931525413928,-0.045491191361646,-0.0262721613374743,-0.000723779781504613,-0.000765706577701838,0.0361701173078084,0.0380972120605111,2.90586427415426,-0.000239750875708265,0
0.29,0.000930266230922454,0.000534880672707988,-0.0463835671868535,-0.0267700930737941,-0.000737354311858203,-0.000779616067827834,0.0368627521844909,0.0388485609713122,2.90586277655057,-0.000263146501445417,0
0.3,0.000922540403080632,0.000530831238588275,-0.0460069149363618,-0.0265674207959958,-0.000731613191992204,-0.00077304898711551,0.0365777523011815,0.0385296263452756,2.90586185564091,-0.00023484748367841,0
0.31,0.000930665909129463,0.000535306718667925,-0.0464094648024716,-0.0267914222534141,-0.000737863702239975,-0.000779903503251209,0.0368896287149347,0.0388686766289624,2.9058604927435,-0.000239369535736339,0
0.32,0.000931129642755047,0.000535630091586129,-0.0464358091142634,-0.0268076135125542,-0.000738287457578481,-0.000780277922673715,0.0369115757888452,0.0388904626241335,2.90585918748885,-0.000226338378639974,0
0.33,0.000931005452540774,0.000535652993995123,-0.0464330247677971,-0.0268087647417679,-0.000738281662448011,-0.000780150927404174,0.0369120917956753,0.0388874418718171,2.90585798097454,-0.000212981808086183,0
0.34,0.000930848221307279,0.000535654188951715,-0.0464283580320033,-0.0268088055324931,-0.000738246969159822,-0.000779996944724004,0.0369110847435996,0.038882853633417,2.90585686901876,-0.000200569439601652,0
0.35,0.000930699581809846,0.00053565384914757,-0.0464238712206513,-0.0268087899130778,-0.000738212721736172,-0.000779851739213617,0.0369100614562897,0.0388784567467393,2.90585584446804,-0.000189124689589608,0
0.36,0.000930562467418557,0.00053565343175159,-0.0464197276952687,-0.0268087684279689,-0.000738181027569384,-0.000779717817708417,0.0369091095030714,0.0388743979968519,2.90585490047188,-0.000178579143766979,0
0.37,0.000930435923964254,0.000535653039599813,-0.0464158978339643,-0.0268087690832597,-0.000738151768794729,-0.000779594223722153,0.0369082494449739,0.0388706418058686,2.90585403069847,-0.000168862702891761,0
0.38,0.000930319473292308,0.000535652677712022,-0.0464123746058814,-0.0268087475133538,-0.000738124843217559,-0.000779480486832089,0.0369074367297648,0.0388671914836901,2.90585322931209,-0.000159910224831301,0
0.39,0.0009302122194252,0.000535652344219014,-0.0464091287771099,-0.0268087229963861,-0.000738100043991076,-0.000779375732298391,0.0369066834848387,0.0388640139035749,2.90585249093567,-0.000151661645800277,0
0.4,0.000930113522089327,0.00053565203692826,-0.0464061426773934,-0.0268087013553383,-0.000738077223339132,-0.0007792793344025,0.036905991438719,0.0388610903408475,2.90585181061511,-0.000144061621182283,0
0.41,0.000930022252477403,0.000535651753784083,-0.0464033730919601,-0.0268087018567652,-0.000738056119204794,-0.000779190192661243,0.0369053694100653,0.0388583741073039,2.90585118378557,-0.000137059157631138,0
0.42,0.000929938456302461,0.000535651492890473,-0.0464008344764209,-0.0268086801534033,-0.000738036743726095,-0.000779108348855395,0.0369047778187632,0.0388558894612311,2.90585060624124,-0.000130607271192679,0
0.43,0.000929861179385308,0.000535651252499856,-0.0463984903446398,-0.0268086584236152,-0.00073801887538425,-0.000779032872739699,0.0369042298591816,0.0388535956024201,2.90585007410717,-0.000124662672079475,0
0.44,0.000929789816793339,0.000535651031001746,-0.0463963207940515,-0.0268086588365209,-0.000738002374123659,-0.000778963173849488,0.0369037425780499,0.0388514678689305,2.90584958381275,-0.000119185474216226,0
0.45,0.000929724100339024,0.000535650826911763,-0.0463943219265107,-0.0268086563127068,-0.000737987178440963,-0.000778898989329945,0.0369032908074608,0.0388495082065851,2.90584913206839,-0.000114138927618504,0
0.46,0.000929663761850896,0.000535650638862365,-0.0463924891142464,-0.0268086345104835,-0.000737973226746218,-0.000778840056505952,0.0369028576950351,0.0388477158205234,2.90584871584298,-0.000109489171812601,0
0.47,0.000929607940704326,0.000535650465593364,-0.0463907874164671,-0.0268086348522031,-0.000737960318988415,-0.000778785536787531,0.036902475465286,0.0388460469583787,2.90584833234389,-0.000105205008646233,0
0.48,0.000929556740818717,0.000535650305943727,-0.0463892294806148,-0.0268086130110648,-0.000737948480325087,-0.000778735529589487,0.0369021040717506,0.0388445241760002,2.90584797899787,-0.000101257692959596,0
0.49,0.000929509359782944,0.000535650158842571,-0.0463877820498245,-0.026808613314301,-0.000737937524153242,-0.000778689253193309,0.0369017789402556,0.0388431046954572,2.90584765343414,-9.76207397132156e-05,0
0.5,0.000929465704037453,0.000535650023304427,-0.0463864467508506,-0.026808613599974,-0.000737927429370476,-0.000778646615243752,0.0369014789868696,0.0388417951941441,2.90584735346836,-9.42697462873213e-05,0
0.51,4.71065094169019,-0.00724259589090082,4.46847387494712,0.371357043624177,-0.40392503857703,4.69330686327375,-0.00627536070860263,4.48387393274858,0.0843150131169634,25.9712118631112,1592.89354685148
0.52,4.69299728185671,0.0835509678066275,5.35238596898405,-4.16220861618041,-1.6736951223591,4.38519656219961,-5.85883444591216,3.41263462166359,0.382406359875383,55.4099661359545,1592.89354685148
0.53,4.68122910995681,-0.0142933407932222,5.94203049833309,0.747077105465076,-3.67790588537851,2.89605224017043,-4.19324466881725,4.27580984049413,0.900720745007842,86.5043365210735,1592.89354685148
0.54,4.65924631821242,-0.0535048312970634,7.04256393450684,2.71367809364259,-4.63781148956458,-0.449603834515306,-7.2478557037434,2.10483806152551,1.65595436500819,118.961533296193,1592.89354685148
0.55,4.64987476103984,-0.00373861386021956,7.5125299132969,0.239649810337045,-2.24749488843812,-4.07064073544122,-3.84613454881249,-6.45776948815969,2.63631684039646,148.43256775923,1592.89354685148
0.56,4.67730292678231,0.0130683798525526,6.1426373192502,-0.600037390641738,3.00093852596996,-3.58771534751401,4.41340291089712,-4.31438441172066,-2.4422248385339,180.303881553589,1592.89354685148
0.57,4.56289469177584,0.00775713193467853,11.8646418796615,-0.313925082590392,3.87386634548599,2.41106359904565,9.89597973233679,6.55269875908212,-1.01237454835039,210.254391761964,1592.89354685148
0.58,4.59476663121828,0.0330360323866218,10.2727014769883,-1.57012099957731,-2.73252668049628,3.69408577528579,-7.42384310150133,7.27187934394695,0.644068255429429,240.819201302291,1592.89354685148
0.59,4.5531034183645,0.0178920951627211,12.3576435957798,-0.806776470182822,-2.65013433372242,-3.70241257541855,-6.49529373898812,-10.5438798721068,2.52428020267617,271.638149519473,1592.89354685148
0.6,4.62599551705884,-0.00641574697553837,8.71486598544244,0.420073337060349,4.61022702824732,-0.381683682747438,8.64890580413106,-1.1496865416272,-1.65478548090084,302.253664220279,1592.89354685148
0.61,4.58987540842631,0.11705880643339,10.5227449807423,-5.74785769419286,-2.76984182988141,3.66178034110177,-11.0542003571526,4.64442509535426,0.673095078855441,332.677385569467,1592.89354685148
0.62,4.57266835234028,0.0235241769158908,11.3851174969754,-1.0505489860123,0.354602618240928,-4.55895889765752,1.98821932248525,-11.2592867233073,-3.05882298133241,363.012708069003,1592.89354685148
0.63,4.5672419204114,0.0975061323823205,11.6585188663436,-4.77018032986674,1.37523276077704,4.35636787462915,-1.30693876127281,12.5286708636878,-0.284436583034853,393.818681164509,1592.89354685148
0.64,4.55473407017126,0.0602500180415166,12.2859711476465,-2.88464274616844,-1.94644492995431,-4.11832303848399,-2.47841533792512,-12.3743164751255,2.71330664786517,424.118065856321,1592.89354685148
0.65,4.4981681906883,0.0842318575735637,15.1164252658554,-4.06038480561654,1.62257381713159,4.19617281406634,1.37302635693548,15.591915732553,-0.350247046288079,454.33105877305,1592.89354685148
0.66,4.54017690135313,0.0404125544943392,13.0182159381133,-1.86883252548845,-0.264438437077067,-4.53264953235274,1.22405623491504,-13.0945854288494,3.09221876291409,484.661573769971,1592.89354685148
0.67,4.52947307292825,0.0363206889786503,13.5557347692429,-1.67434710891284,-2.03049185080859,4.04901819638167,-7.66422597805425,11.3057960149874,0.472847548087006,515.119372885728,1592.89354685148
0.68,4.47436219122632,0.103668405740328,16.3135868257259,-5.03765054711105,4.16085165494591,-1.648629025026,17.0482786199619,-0.931254128288835,-1.92487796297475,545.219296644619,1592.89354685148
0.69,4.51161841776954,0.111679490519653,14.4531954438512,-5.3932492919899,-3.7586583958316,-2.49793116790768,-8.74032620157579,-12.7117541808264,2.18210198661357,575.247779893612,1592.89354685148
0.7,4.48607667133703,0.112796981958821,15.7327275167158,-5.44030909079347,-0.899280302102115,4.3964647159399,-8.84009189697953,14.1056177947495,0.226901588818976,605.399416700957,1592.89354685148
0.71,4.43891561030833,0.0699294206972885,18.0932412647743,-3.32718025144173,4.43439487010124,0.212141592663626,17.8453910277686,4.46962268619523,-1.50724032734971,635.664740350741,1592.89354685148
0.72,4.47041755583164,0.119080122991163,16.5207316016086,-5.77952583080552,0.420928106037418,-4.45214922579276,7.72976609398973,-15.7031273195356,-3.02069687071305,665.818668140796,1592.89354685148
0.73,4.42200422353942,0.0899276386418867,18.9440765287497,-4.28899230316793,-4.11076379410913,-1.63212418713578,-15.7978659736958,-11.3004832277608,1.96907914303009,695.637280690726,1592.89354685148
0.74,4.41740961331561,0.200020885312447,19.1765221631066,-9.77142882127303,-3.32238947914769,2.9180891342149,-21.0754106746335,4.36427409506649,0.895343723147085,725.588437409937,1592.89354685148
0.75,4.46610127761642,0.0937008609468668,16.7446854702355,-4.4669533599421,-0.0910213747632617,4.46615669033291,-5.15541006418742,16.5456916110234,0.0413548084514488,755.609401573209,1592.89354685148
0.76,4.37383166618137,0.0850505545716951,21.3609804145306,-4.05432857270709,2.51654722971304,3.57835535987519,8.58495439949946,19.9756757683925,-0.593473843074855,785.555410937687,1592.89354685148
0.77,4.28944536225187,0.107973635852976,20.0018021271911,-5.14431691953506,3.68971253569499,2.19021031540778,14.2010530729961,14.9955385539123,-1.00992998950618,814.867944198328,1592.89354685148
0.78,4.18994324468079,0.175421947660844,18.9828314234808,-8.53373529011147,3.98643834290072,1.30180896894218,14.7966200018209,14.6366855324455,-1.21331169501509,843.606985257561,1592.89354685148
0.79,4.10437431195538,0.140425798177706,17.4244790233416,-6.79103577644855,-3.47359984624288,-2.19082450360919,-10.594464525387,-15.410644294519,2.16768953901401,871.531266050898,1592.89354685148
0.8,4.01761248714752,0.12722133404985,16.0797883808147,-6.12879303193201,-2.88422342455848,-2.79975902569297,-6.77166905163008,-15.819803938584,2.37299083695418,898.624800715957,1592.89354685148
0.81,3.76310409345636,0.134863256247634,23.2527587073463,-6.5100557904437,-1.47746442826868,-3.46355877375777,-2.27608266107926,-24.0393648338864,2.77421246371014,924.923369587187,1592.89354685148
0.82,3.66577411759527,0.107596004135338,22.7282593506004,-5.12770691407769,0.709373031556522,-3.59809208934924,10.0482449511684,-21.0214158587416,-2.9175934343352,950.436815008263,1592.89354685148
0.83,3.59192484446384,0.136867124140155,21.168250847268,-6.64628330877403,2.94882701703974,-2.05549894709861,21.4042558877989,-5.84172539948409,-2.14145834216788,975.386904144152,1592.89354685148
0.84,3.53599368555782,0.0487093654062276,18.7872300587561,-2.22516602906406,3.29531041679246,1.28318089276694,16.5753256506852,9.11975639539054,-1.1856901416677,999.548857232704,1592.89354685148
0.85,3.39267745188555,0.224103624974004,20.9245089102147,-10.9585302011555,0.41236955529901,3.3749717150106,-9.77830518516478,21.5013768165918,-0.0556226789517949,1022.89146719894,1592.89354685148
0.86,3.29462613977711,0.101947119667101,20.9398573686109,-4.90719038422704,-3.08737852053377,1.15457718973561,-21.4066086761333,2.0773177589653,1.24386533378819,1045.77931005322,1592.89354685148
0.87,3.16183787961557,0.176772087101422,22.8021949167142,-8.59429063224409,-1.48971237650391,-2.79449891448202,-1.78883526108935,-24.3023042714058,2.70767663301097,1067.75777364188,1592.89354685148
0.88,3.11315269630786,0.0739478828022828,20.5584898151423,-3.47901124451175,2.86212357715924,-1.22696235841571,20.3769021648326,-4.42005439826129,-1.95203895969788,1089.25324456322,1592.89354685148
0.89,2.99565333463913,0.132356410913951,21.9050940270094,-6.44626901645327,0.647483016797415,2.92783586695079,-2.56821406894707,22.6890238895522,-0.173490278702688,1110.1845971863,1592.89354685148
0.9,2.81066043610578,0.124307139118342,26.7238906042833,-6.06233577808011,-2.7856279473655,-0.394387234558128,-25.1544448368416,-10.8707014063576,1.75563908353694,1130.37419944246,1592.89354685148
0.91,2.77027736575622,0.10625642645382,24.4066118133944,-5.0799608089579,-2.14829338645994,1.75230209640816,-22.5479591890366,10.6338252026169,0.924909345895361,1149.961852428,1592.89354685148
0.92,2.71949834086389,0.171278729310924,22.7307019549743,-8.33447682330999,-0.170605692068235,-2.71954064630587,8.34010205035848,-22.7286386102153,-3.1413451697086,1168.99477390997,1592.89354685148
0.93,2.56934305375421,0.172683674458701,26.1221370929522,-8.41420127560966,1.94107982232969,1.692203445997,12.5527438300156,24.4047833784171,-0.786682009919448,1187.49403400911,1592.89354685148
0.94,2.45534710481319,0.11655799289509,27.8196182707245,-5.61139594735647,-2.44960908813027,-0.204280410641407,-26.8516068091536,-9.18749895093629,1.70143235351102,1205.43763130212,1592.89354685148
0.95,2.39043887954276,0.136479373508845,27.16881350673,-6.67103812597219,2.15559357958769,-1.04222885004367,27.6509361315255,-4.25122430506149,-1.96412483540171,1222.87162736888,1592.89354685148
0.96,2.36819017383028,0.113213229528379,24.4757703477882,-5.53222680638841,-1.58346633463044,1.7645895562024,-21.1343744215071,13.5280111386166,0.779122250268817,1239.78244719867,1592.89354685148
0.97,2.33687676177141,0.129012498140719,22.3261732691429,-6.29603105068299,1.01254412523279,-2.11006910285903,16.2714004898408,-16.5329835762987,-2.63903276965366,1256.09809401094,1592.89354685148
0.98,2.2631346081508,0.127234985663244,22.3973947047826,-6.1649210719822,-0.643161775981994,2.17354777405565,-13.3546528173842,19.0079664749475,0.343856464977474,1271.88985915706,1592.89354685148
