t,iq,id,vq,vd,ia,ib,va,vb,theta_e,omega,r
0,0,0,0,0,0,0,0,0,0,0,0
0.01,0.00045855895506118,0.000250204659003102,-0.0214499346578497,-0.0125174008428163,-0.00044773691982875,0.00026909168934756,0.0209098175084707,-0.0134001698663939,1.52912274671336,-0.00325324082331826,0
0.02,0.000562459090440668,0.000302951944848229,-0.0265749463811767,-0.0151562796285246,-0.000549341108796923,0.000326135639715189,0.0259200309911223,-0.0162509255354798,1.5290975836273,-0.00352304637314249,0
0.03,0.000598937928195046,0.000323326916838144,-0.028469425392712,-0.0161756111944754,-0.000584930290430494,0.00034802800507938,0.0277699428700532,-0.0173490303100783,1.52907292488721,-0.00327420878012257,0
0.04,0.000584793644231782,0.000318053035358068,-0.0280132816578245,-0.0159117695816446,-0.000571011092329864,0.000342180759351872,0.0273248419624976,-0.0170669672814032,1.5290518705178,-0.00270598516007465,0
0.05,0.000594429952077,0.00032601847481113,-0.0286199670633601,-0.0163102577651707,-0.000580300209696353,0.000350551965435666,0.0279140507047091,-0.0174909346899774,1.52903367262756,-0.00238657385747511,0
0.06,0.000592787763846818,0.000327438968461758,-0.0286870312015912,-0.0163813287371037,-0.000578594641254477,0.000351911710725026,0.0279778143059934,-0.01756518138288,1.52901802717367,-0.00203398907252739,0
0.07,0.000598595236775302,0.000333075470308322,-0.0290701122241318,-0.0166633200169651,-0.000584157018216053,0.000357793382387264,0.028348553034042,-0.0178632919583013,1.52900513277979,-0.00179965021231146,0
0.08,0.000587971452919425,0.000328695850870616,-0.0286869184668246,-0.0164442026048856,-0.000573721478434344,0.000352980250171095,0.0279746481931863,-0.0176286740539448,1.52899377773671,-0.00146966485728719,0
0.09,0.000583540886675015,0.000327912057737889,-0.0285688347844842,-0.0164050019049392,-0.000569324254992145,0.000352017296036712,0.0278581418927845,-0.01758483263286,1.52898445213944,-0.00123239095000872,0
0.1,0.000580781493944506,0.000327770838163701,-0.0285131366084859,-0.0163979319577822,-0.000566570443106427,0.000351765261299541,0.0278026513275005,-0.0175756567703079,1.52897668051842,-0.00104198215531825,0
0.11,0.000578672887060731,0.000327744598692782,-0.02847568081015,-0.0163966147417125,-0.000564462490689642,0.000351654558901119,0.0277651691041186,-0.0175729552781934,1.52897017943685,-0.000884270481906416,0
0.12,0.000576949867087548,0.000327739061423123,-0.028446261365264,-0.0163963378562578,-0.000562739295363711,0.000351580043472895,0.0277356913161939,-0.0175715994710291,1.52896473593959,-0.000752549459794053,0
0.13,0.000599000955811859,0.000340685285581034,-0.029502152522023,-0.0170440292766935,-0.000584227829538334,0.000365440079996541,0.0287634797125752,-0.01826302746649,1.52895964413972,-0.000815210574003916,0
0.14,0.000611468909948133,0.000348579850732435,-0.0302582170087355,-0.017438974033003,-0.000596352983262814,0.000373851921920092,0.0295022790514665,-0.0186893831530332,1.52895508470523,-0.000814153263108214,0
0.15,0.000580665280661635,0.000331458829022662,-0.0287402213262463,-0.0165824451692078,-0.000566291055813297,0.000355459651168442,0.0280213690394461,-0.0177702190990032,1.52895110720693,-0.000485834449423221,0
0.16,0.000573569183759684,0.000328400014816128,-0.0284385212526322,-0.0164294146743345,-0.000559328230278004,0.000352108092926106,0.0277262898046992,-0.0176047723996502,1.52894855162177,-0.000374608728331791,0
0.17,0.000571608852114465,0.000327853293257821,-0.0283666941290225,-0.0164020555137588,-0.000557391793007327,0.000351480939460011,0.0276556354360045,-0.0175744868919908,1.52894657631786,-0.000316323370414773,0
0.18,0.000570815165923259,0.00032775537494865,-0.0283450464194316,-0.0163971586616947,-0.000556602329458991,0.000351350802328033,0.0276341831034498,-0.0175687333892211,1.52894495699948,-0.000274931090005771,0
0.19,0.000570331033397844,0.000327737670932667,-0.0283351123353285,-0.0163962722992596,-0.000556118887714714,0.000351313608236248,0.0276242711069725,-0.017567469430047,1.52894360815739,-0.000241842758712163,0
0.2,0.000569964015644997,0.000327734330622008,-0.0283285339011038,-0.0163961028878248,-0.000555751934790681,0.000351295541638149,0.0276176857027586,-0.0175670560799971,1.52894247996708,-0.000214464909004414,0
0.21,0.000569664653606023,0.00032773358502596,-0.0283233831426011,-0.0163960748854922,-0.00055545253428157,0.000351282795596681,0.0276125240325316,-0.0175668386696671,1.52894153533794,-0.000191605033533214,0
0.22,0.000569415855816148,0.000327733327087498,-0.0283191526306486,-0.0163960564162154,-0.000555203687269778,0.000351272566792114,0.0276082841006015,-0.017566665043262,1.52894074419161,-0.000172472943129392,0
0.23,0.000569207647011556,0.00032773317649475,-0.0283156110412688,-0.0163960557543483,-0.000554995434355531,0.000351264071940593,0.0276047340003046,-0.0175665344821495,1.52894008154513,-0.000156451211815657,0
0.24,0.000569033471448584,0.000327733062032604,-0.0283126496202167,-0.0163960414095595,-0.000554821221175689,0.000351256977313206,0.0276017660234049,-0.0175664115518895,1.52893952651768,-0.000143032148012975,0
0.25,0.000568887544843021,0.000327732968230801,-0.0283101615907285,-0.0163960419929346,-0.000554675263015054,0.000351251035218506,0.0275992719823083,-0.0175663208548008,1.52893906162889,-0.000131792525856134,0
0.26,0.000573151253448257,0.000330225973135195,-0.0285076933523448,-0.0165207664504765,-0.00055883082594754,0.000353920415677288,0.0277914070648989,-0.0176992089579055,1.5289388038172,-0.000159686904943388,0
0.27,0.000563022806380565,0.000324276744712679,-0.0280501046400243,-0.0162231282576457,-0.000548959960887579,0.000347552944180318,0.0273466620732877,-0.017382702155584,1.52893812266368,-6.53380789506265e-05,0
0.28,0.000562525875815906,0.000324107432285853,-0.0278908429606938,-0.016214660376894,-0.000548470458820685,0.000347363130493735,0.0271878896513666,-0.017367584417564,1.5289378583243,-5.56960397175911e-05,0
0.29,0.000567223964854516,0.000327085106007686,-0.0282451325858879,-0.0163636297196666,-0.000553039815237343,0.000350534813734073,0.0275356344869023,-0.0175312499782662,1.52893782146256,-9.17990730601469e-05,0
0.3,0.000559356750930317,0.000323143626042432,-0.0278773300188383,-0.0161664346333415,-0.000545344717611104,0.000346267117752809,0.0271764204190178,-0.0173188137856529,1.52893865553108,-4.81103078877924e-05,0
0.31,0.000566733611551396,0.000326913056729456,-0.0282157549840676,-0.0163550149382792,-0.000552557356465969,0.000350341977127527,0.027506656387372,-0.0175213925627878,1.52893857897697,-0.000104393373971536,0
0.32,0.00056822854749523,0.000327586369598987,-0.0282865190703516,-0.0163887023291727,-0.000554022717124475,0.00035107739979326,0.0275759442867722,-0.017558018733457,1.52893832054846,-0.000110525504852016,0
0.33,0.000568483214370251,0.000327706606207086,-0.0283004897262231,-0.0163947194980695,-0.000554272038981964,0.000351208330731597,0.0275896463835048,-0.017564622358525,1.52893806271007,-0.000106928228123688,0
0.34,0.000568484147186393,0.000327728049164376,-0.028302542243714,-0.0163957948365557,-0.000554271994729853,0.000351229918528474,0.0275916481560972,-0.0175657888467834,1.52893783793338,-0.000102055275658703,0
0.35,0.000568439676800343,0.00032773184959452,-0.0283022009189177,-0.01639598713401,-0.000554227337476924,0.000351231960095836,0.0275912957431985,-0.0175659719390862,1.52893764778438,-9.75776256765618e-05,0
0.36,0.000568392761474266,0.00032773250327076,-0.0283014702928002,-0.0163960222976597,-0.000554180379811909,0.000351230738444102,0.0275905614808755,-0.0175659809031444,1.5289374881166,-9.37428102507713e-05,0
0.37,0.000568351434043201,0.000327732598908854,-0.0283007605758618,-0.0163960283413086,-0.000554139037577268,0.000351229178741535,0.0275898497819901,-0.0175659609343886,1.52893735429415,-9.05128169794747e-05,0
0.38,0.000568316549414202,0.000327732598290583,-0.0283001490424476,-0.0163960149931139,-0.000554104144156429,0.000351227780434624,0.0275892373735634,-0.0175659251001572,1.5289372421868,-8.78035584667658e-05,0
0.39,0.000568287096337852,0.000327732583351319,-0.0282996199824185,-0.0163960151761458,-0.000554074684523225,0.000351226585019877,0.0275887071197907,-0.0175659057342374,1.52893714828206,-8.55334765994807e-05,0
0.4,0.000568262416289685,0.000327732568261622,-0.0282991708187388,-0.0163960153425058,-0.000554049999099776,0.000351225580737349,0.0275882569609565,-0.0175658892742747,1.52893706962702,-8.36318889962948e-05,0
0.41,0.00056824169436245,0.000327732555161955,-0.0282987865368592,-0.0163960154950283,-0.000554029272733335,0.000351224736998213,0.0275878718520489,-0.0175658751631355,1.52893700374558,-8.20390876809962e-05,0
0.42,0.000568224406687201,0.000327732544107388,-0.0282984624995756,-0.0163960156355451,-0.000554011981282924,0.000351224033085852,0.0275875471234104,-0.0175658632658499,1.52893694856339,-8.07049539602194e-05,0
0.43,0.000568209912979669,0.000327732534833169,-0.028298184813565,-0.0163960157662909,-0.000553997484425992,0.00035122344290524,0.0275872688632765,-0.0175658530512024,1.52893690234313,-7.95874856721313e-05,0
0.44,0.000568197689370907,0.000327732527062467,-0.0282979424486521,-0.0163960158891016,-0.000553985258252763,0.000351222945064539,0.0275870260254858,-0.0175658440996176,1.52893686362909,-7.86514970536006e-05,0
0.45,0.000568187561237933,0.000327732520553191,-0.0282977393457908,-0.0163960160045854,-0.000553975127875177,0.000351222532690229,0.0275868225261008,-0.0175658366102601,1.52893683120223,-7.78675155724885e-05,0
0.46,0.0005681790047118,0.000327732515100638,-0.0282975599700947,-0.0163960161145704,-0.000553966569533196,0.000351222184221191,0.0275866428258349,-0.0175658299630325,1.52893680404172,-7.72108548956043e-05,0
0.47,0.000568171845169525,0.000327732510533672,-0.0282974044747292,-0.0163960162196665,-0.000553959408463537,0.000351221892653027,0.0275864870626685,-0.0175658241885547,1.5289367812922,-7.66608377752061e-05,0
0.48,0.000568165907988126,0.000327732506708498,-0.0282972716249128,-0.0163960163204894,-0.000553953469950524,0.000351221650931689,0.027586353990289,-0.0175658192555404,1.52893676223712,-7.62001449989273e-05,0
0.49,0.0005681609021293,0.000327732503504311,-0.0282971531023227,-0.0163960164180571,-0.000553948463005241,0.000351221447089602,0.0275862352870844,-0.0175658148334516,1.52893674627684,-7.58142700393643e-05,0
0.5,0.000568156711177724,0.000327732500820604,-0.0282970483184856,-0.0163960165127745,-0.000553944271141941,0.000351221276433303,0.0275861303562473,-0.0175658109119396,1.52893673290852,-7.5491062270223e-05,0
0.51,4.70414071382536,-0.0171921076630401,4.7937216170618,0.873914803494338,-0.864771018022958,4.62400329913624,-0.00440338235509208,4.87272763817925,0.181227446352698,56.2732269048142,1088.88121358511
0.52,4.69530833517073,0.0312445599354825,5.23618332276061,-1.53217024458322,-3.44627846076333,3.18905336357484,-4.89988717946654,2.39922218155009,0.830799058249523,121.472911122982,1088.88121358511
0.53,4.68064271374844,-0.0114207158777688,5.97045144859572,0.612707915659689,-4.29081715448369,-1.8701429873959,-5.72242707729334,-1.80984248900581,1.97937913387876,192.534733265289,1088.88121358511
0.54,4.68013161129569,0.0544171458583458,5.99708372484968,-2.65818937578594,2.15689442579337,-4.15384154257165,5.17004363906138,-4.0375280470356,-2.65103484947654,257.642445310135,1088.88121358511
0.55,4.66576979693007,0.0401890509407501,6.71637671640647,-1.93704451186436,2.30784134336039,4.05523011574398,1.5799137350911,6.80923859380043,-0.508777428158679,326.322888956109,1088.88121358511
0.56,4.67338255912535,0.0442497926170176,6.3370984736603,-2.1286291067743,-3.99737960829019,-2.42144974247028,-4.26880765636059,-5.1446243917386,2.12490801387032,393.564014865456,1088.88121358511
0.57,4.61674127114657,0.0459354987800307,9.17061415784796,-2.19915477235615,3.98875440416691,2.32513404731754,6.75010247083218,6.58578487184052,-1.03307914334744,460.277787335944,1088.88121358511
0.58,4.65835511004641,0.0385980275330013,7.09149191962179,-1.80893521496873,-2.50672919469666,-3.92658514277742,-2.23351489976812,-6.96942719673066,2.58170143404232,526.411841022557,1088.88121358511
0.59,4.41285886160699,0.0648310767031159,7.93787752744542,-3.10143778760778,-1.65747433329793,4.09026957979892,-5.9458871974467,6.10534531589852,0.399691816838262,591.683348608226,1088.88121358511
0.6,3.88199568261011,0.0890161510249834,9.43004068562264,-4.3362034444035,3.78372199749644,0.872503410084115,8.06697107594989,6.53087324203608,-1.32123740625847,651.613808197137,1088.88121358511
0.61,3.43725866537416,0.0502087582059241,10.0514309089418,-2.39479325113775,1.62818119103901,-3.02758881971068,6.98185581836176,-7.61708522760075,-2.63357246601334,703.937495845961,1088.88121358511
0.62,3.0437957916537,0.0845387331333651,10.2027191023593,-4.10429753608653,-1.37494823034709,-2.71686528605192,-0.640406449209552,-10.9786435831656,2.70086072493455,750.24285000473,1088.88121358511
0.63,2.71145216686231,0.0940885120212691,9.48185651796954,-4.59509430353401,-2.42109812606553,-1.22438121728433,-6.09325319924472,-8.59608981663327,2.07369051807231,791.690291720592,1088.88121358511
0.64,2.37911008060486,0.0393195874849966,10.7813032225155,-1.86619452696853,-2.35470106097184,-0.342189595186298,-10.3432939494918,-3.56867643009502,1.73163350043541,828.339157996572,1088.88121358511
0.65,2.13519529529053,0.072684945520359,9.4257917670915,-3.53951655701704,-2.13492613307118,-0.0802025976252147,-9.14852293330194,-4.20455182306225,1.64237380561866,860.761771430095,1088.88121358511
0.66,1.85664646566348,0.0738948660368122,11.3221455800217,-3.6031429277091,-1.83239303859754,-0.308110859572571,-10.3436034452391,-5.84666462697685,1.777163885236,889.546913423222,1088.88121358511
0.67,1.64749932520286,0.016670878946303,11.0932723207159,-0.745325342793509,-1.42151577227695,-0.83296149605884,-9.13060876132669,-6.34414567106999,2.11095217749678,915.172909552905,1088.88121358511
0.68,1.50012054479899,0.0398420307724513,8.92624988216792,-1.94829041161669,-0.780441632365098,-1.28174096244732,-2.7478151614309,-8.71339683048527,2.62121364192346,937.937436332767,1088.88121358511
0.69,1.32283846288976,0.0416905283254395,9.27633471840849,-2.03021722336395,0.15165371920186,-1.31477787040429,3.36120730163583,-8.8811290530779,-2.99524910858762,957.953086089308,1088.88121358511
0.7,1.13901480322943,0.0639688507717668,11.0355457722231,-3.13129523877482,0.89033415145443,-0.71326841693626,10.8035966107004,-3.85623918299536,-2.1901198786462,975.634213980006,1088.88121358511
0.71,1.02905171107253,0.0229855344513602,9.85921426375602,-1.12585329624192,0.987439109154185,0.290585210511661,9.05177552435178,4.06657243880581,-1.26226104237215,991.497054804814,1088.88121358511
0.72,0.9163750817162,0.00449289392742139,9.55456455779932,-0.175785882392754,0.209307275973407,0.892162508016789,1.9653450324498,9.35189945781222,-0.225536324419654,1005.37966321012,1088.88121358511
0.73,0.806778626709262,0.0131125778264509,9.83651356245878,-0.643928740711434,-0.627519901452502,0.507230189847943,-8.14599782439454,5.5510686117638,0.907260792998275,1017.75110290203,1088.88121358511
0.74,0.708191713062089,0.0519465647160123,10.0798605565114,-2.56619727106535,-0.62945750533686,-0.328659697880206,-7.21901455152832,-7.48830996804752,2.12521196885662,1028.64132454549,1088.88121358511
0.75,0.602731126642621,0.0239562334840976,11.2470459452367,-1.1965530132532,0.141695611891813,-0.586328462312067,4.22505606766243,-10.4917435554296,-2.86474784653175,1038.34521022096,1088.88121358511
0.76,0.549539070791505,0.050754734243349,10.2183672242724,-2.51235941583655,0.00862808333085823,-0.551810465243764,3.59651240128029,-9.88898766870826,-3.03386051156341,1046.85213114804,1088.88121358511
0.77,0.421410506615432,-0.0184131381648673,13.4046044872531,0.912412274501936,0.421812487902282,-0.000289469585735835,13.3509676903554,-1.50584838195412,-1.61514886905682,1054.37781805425,1088.88121358511
0.78,0.453367059079977,0.0597211762600686,8.91682534741453,-2.95760637959867,0.124447679933232,0.440023958565837,-1.64141141237508,9.25002585662666,-0.144647991184829,1061.03624462284,1088.88121358511
0.79,0.375357624174007,0.00242998423075758,10.2591581793628,-0.129393696485118,-0.367479655194714,0.0765372710964439,-10.0825238073562,1.89994288123945,1.37192937579163,1066.91251105481,1088.88121358511
0.8,0.266195493455544,0.0283072361918318,13.454443547044,-1.38802665559849,-0.0838785732387121,-0.254215902941375,-1.48430002435214,-13.4441631422322,2.92883194322565,1072.07830379043,1088.88121358511
0.81,0.277657817405312,0.0194135070476102,10.8612803138744,-0.970479941013632,0.2689321991919,-0.0717371595477355,10.848143898016,-1.10770724490021,-1.76166954878881,1076.66930689926,1088.88121358511
0.82,0.208304005322172,-0.00414521377531798,12.5381089056609,0.187433630082472,0.0244263761422781,0.20690841833782,1.90307912073441,12.394256579405,-0.137407358942191,1080.71730669618,1088.88121358511
0.83,0.206746181721456,0.0251821404683218,11.047573229727,-1.2428828550171,-0.205003360052771,0.0367661015344533,-11.0999768862895,-0.619794466992108,1.51454413886155,1084.20293846956,1088.88121358511
0.84,0.202807308647679,-0.0397540919004813,9.82624515689375,1.97428158479311,0.0496596148963148,-0.200611851374979,-1.48964746470703,-9.91129820408623,-3.09249467296245,1087.36795765952,1088.88121358511
0.85,0.128484673368555,0.0466587910073447,12.3023612551839,-2.31400611346891,0.134665355880326,-0.0234647820044554,11.7079217064536,4.43026929901256,-1.39497095794952,1090.08106466287,1088.88121358511
0.86,0.139461968860631,0.00907969941636859,10.6259635513316,-0.448713419941634,-0.0354673722228439,0.135181904142461,-3.78439588948849,9.93935575774839,0.321598049819274,1092.52432572898,1088.88121358511
0.87,0.0760971388404951,-0.0254827082096288,12.8150223622698,1.24873066670651,-0.0555036980314886,-0.0579610426255084,-11.9245575838827,-4.85685627254027,2.05471482896519,1094.59000726332,1088.88121358511
0.88,0.067028654230751,-0.00346480235961225,12.4022878628489,0.191343355394181,0.0438636065497473,-0.0508018637829924,7.45875246698218,-9.91061895892027,-2.48100144567405,1096.45862353124,1088.88121358511
0.89,0.0962595130191414,0.000114469293555651,10.1725845983096,-0.00668632422925398,0.0636343293099517,0.072225889286142,6.71068778886714,7.64514169371941,-0.721054854904683,1098.05055567081,1088.88121358511
0.9,0.0469623801145123,0.0177385288895394,11.9266018668694,-0.916852361863393,-0.0319141669878727,0.0387505677204237,-10.8021524673681,5.1378937723546,1.05010544303811,1099.46737885686,1088.88121358511
0.91,0.0361670129691842,0.0369938752254368,11.9002422896885,-1.83485042389471,-0.0462853231178333,-0.0231142487480361,-1.89406363721505,-11.8909615073608,2.8306523789346,1100.58629176685,1088.88121358511
0.92,0.072028400937893,0.030459899842086,9.56853461045725,-1.52760280667914,-0.034139528105428,-0.0703589984351573,1.03134659001208,-9.63466393486367,3.08991940879818,1101.67027633516,1088.88121358511
0.93,0.0325681472766146,0.0130430229731669,11.0633261379353,-0.683055002943272,0.0343279982848258,-0.00723831465652137,10.7803172594906,2.57847031320838,-1.39768604865954,1102.53815889316,1088.88121358511
0.94,0.0275351716025654,0.00789793356924624,10.8927652721114,-0.37957243892972,-0.00356293078549897,0.028423028587128,-4.63129832507535,9.86648297692068,0.404034748046716,1103.32561774975,1088.88121358511
0.95,0.00670086980846964,0.0302617514897122,11.5694222391953,-1.52063036358987,-0.0234511667936864,0.0202661795963092,-8.36996729718434,-8.13065157878031,2.21100588745503,1103.95917484574,1088.88121358511
0.96,0.00621959170815667,-0.00244218156428721,11.2332449583669,0.0905684370781629,0.00635111699302723,-0.00207626702280712,8.60504884864682,-7.22129692291296,-2.26092046648346,1104.57191637433,1088.88121358511
0.97,-0.0115437066530204,-0.000193906296520161,11.8335091703828,0.0231598812418627,-0.00514887035878654,-0.010333629419097,5.11965522447478,10.6687209190297,-0.445461447046143,1105.02798913985,1088.88121358511
