t,iq,id,vq,vd,ia,ib,va,vb,theta_e,omega,r
0,0,0,0,0,0,0,0,0,0,0,0
0.01,0.000746771992613861,0.000425368396791917,-0.036536712708164,-0.0212934765953724,-0.00039982090908248,0.000760756151866195,0.0193020604324134,-0.0376267721722186,1.00165745889429,-0.00253353691701455,0
0.02,0.000830074691362811,0.000472677625526259,-0.0407193371172829,-0.0236617174070503,-0.000444480903199607,0.000845508638397663,0.0215483024163322,-0.0418761501202812,1.00163848141126,-0.00270950398039912,0
0.03,0.000862839704868206,0.000491400544595727,-0.0423357188407976,-0.0245989830508792,-0.000461973426744659,0.000878946758630935,0.022403911696607,-0.04353720015797,1.0016190889787,-0.00270556647560048,0
0.04,0.000843624450138668,0.00048079643666427,-0.0414276792387717,-0.0240681387948972,-0.00045148696719097,0.000859666763832085,0.0219243509966854,-0.0426010650751261,1.00160098742536,-0.00252712048268083,0
0.05,0.000862608250277585,0.000491758145579664,-0.0423731191022478,-0.0246168719158638,-0.000461554145620612,0.000879139828384162,0.0224242088175218,-0.0435732310516847,1.00158315419736,-0.00248437941490191,0
0.06,0.000863083484623339,0.000492246492771725,-0.0424194298344831,-0.0246413155311569,-0.000461676120438325,0.000879815248158752,0.022449293400626,-0.0436191664799006,1.00156596541713,-0.00238063452845155,0
0.07,0.000885505728984792,0.000505309919648729,-0.0435295433678547,-0.0252952664663046,-0.000473507088674641,0.000902911705503456,0.0230311633802345,-0.0447687074279372,1.00154971696127,-0.00235967976909556,0
0.08,0.000863381498350713,0.000492848306304544,-0.042477287710317,-0.024671456170532,-0.000461574483753803,0.000880497621046752,0.0224803793619296,-0.0436764612181809,1.00153383489876,-0.00218463660098272,0
0.09,0.000861982883391679,0.000492287037597724,-0.0424296975995405,-0.0246433562355113,-0.000460685768021724,0.000879277909303543,0.0224547857874711,-0.0436274780405372,1.00151882919425,-0.00208770349798419,0
0.1,0.000861571893591838,0.000492259346133807,-0.0424291213995009,-0.0246419618273392,-0.000460341925951418,0.000879039648078997,0.0224544269668132,-0.0436263147082776,1.00150450036486,-0.00199838737597359,0
0.11,0.000861222486087894,0.000492255685871634,-0.0424306671612912,-0.0246417840564821,-0.000460037567823412,0.000878854519819683,0.0224552275199311,-0.0436273056040217,1.00149081071416,-0.00191320762387282,0
0.12,0.000860890715536174,0.000492253210291458,-0.0424322416058098,-0.0246416587321038,-0.000459747967566502,0.000878679607967035,0.0224560505647023,-0.0436283424599058,1.00147773139506,-0.00183183260294652,0
0.13,0.000901563688461361,0.000515605913861227,-0.0444237329355728,-0.0258106673136274,-0.000481405089118368,0.000920280219787245,0.0235026627764157,-0.0456867971904787,1.00146471971162,-0.00189477834276079,0
0.14,0.000941481839574639,0.000538911689859139,-0.0464992193898951,-0.0269773233632549,-0.000502451234062659,0.000961434668141622,0.0246212627413073,-0.0477885634931489,1.00145229071961,-0.00195864816934902,0
0.15,0.000863749203562325,0.000494338050987151,-0.0426215465896087,-0.0247460262392291,-0.000460998716800978,0.000881993751914478,0.0225575957937827,-0.0438191387446983,1.00144029926907,-0.00161230691306725,0
0.16,0.000859844544030693,0.000492338019337678,-0.0424467093359904,-0.0246459044164965,-0.000458778685914429,0.000878209247580169,0.0224638402605697,-0.0436408022234783,1.00142944235725,-0.0015320220801961,0
0.17,0.000859412183708631,0.000492246533804201,-0.0424396951955536,-0.0246413185796913,-0.000458454771761324,0.000877903852251692,0.0224599534973281,-0.0436333908668028,1.00141909759064,-0.00146706375029735,0
0.18,0.000859153459155291,0.000492240684646602,-0.0424404806248945,-0.0246410366376313,-0.000458231343459799,0.000877763973896677,0.0224603358126887,-0.0436337987966942,1.00140921533373,-0.00140555203290926,0
0.19,0.000858913594092143,0.000492238752060217,-0.0424415841334016,-0.0246409467622395,-0.000458022077122811,0.000877637355639668,0.0224609016958328,-0.0436345300891652,1.00139977371042,-0.00134680844721328,0
0.2,0.000858685081707743,0.000492237069316364,-0.0424426684561218,-0.0246408451567988,-0.000457822609362165,0.000877516871811257,0.0224614760999484,-0.0436352317185214,1.00139075301791,-0.00129068498388658,0
0.21,0.000858466462443835,0.000492235468751696,-0.0424436873002001,-0.024640764041076,-0.000457631784515679,0.00087740160339438,0.0224620018479191,-0.04363590628312,1.00138213448732,-0.00123706367936025,0
0.22,0.000858257503472096,0.000492233939701031,-0.0424446540261074,-0.0246407033973826,-0.000457449396234076,0.000877291424524845,0.0224624894205204,-0.0436365613717069,1.00137390018881,-0.0011858329281682,0
0.23,0.000858058092730881,0.000492232478677025,-0.0424455868052015,-0.0246406222951935,-0.000457275336735549,0.000877186280090424,0.0224629754431529,-0.0436371726922425,1.00136603299298,-0.00113688615195032,0
0.24,0.000857867352748995,0.000492231082646099,-0.0424464646749673,-0.0246405587433789,-0.000457108854052519,0.00087708570230184,0.0224634210556128,-0.0436377613205284,1.0013585165336,-0.00109012152623595,0
0.25,0.000857685404300533,0.000492229748722594,-0.0424473153120075,-0.0246404776507508,-0.000456950037530963,0.000876989761330273,0.0224638678056595,-0.043638312974541,1.00135133517377,-0.00104544176620819,0
0.26,0.000866294680726822,0.000497223364017867,-0.0428742955005521,-0.024890455861658,-0.000461502373542668,0.000885840339336223,0.0226883917628684,-0.0440792115047945,1.00134454109185,-0.00103399043079495,0
0.27,0.000838293142847773,0.000481253608953287,-0.041524470738293,-0.0240910288026384,-0.00044652417460684,0.00085729609293863,0.0219823117059066,-0.0426783002347712,1.00133775665744,-0.000894112636909391,0
0.28,0.000835700046405841,0.000479764448530323,-0.0412930204171586,-0.0240164804538355,-0.00044513783958789,0.000854646592108899,0.0218273137146264,-0.0424908607180959,1.00133147679881,-0.000846499866992247,0
0.29,0.000856027399148204,0.000491666357691684,-0.0424014270570287,-0.024612289387415,-0.000455834950153824,0.000875633035921159,0.0224392999556642,-0.043590407463823,1.00132566737467,-0.00088221236068827,0
0.3,0.000850889435007996,0.000488895279661584,-0.0421587143394739,-0.0244735596437694,-0.000452997671998157,0.000870531179365711,0.0223094785910587,-0.0433428134918535,1.0013207491592,-0.000834018244030163,0
0.31,0.000856489201838124,0.000492073831973208,-0.0424378162795326,-0.0246326822228592,-0.000455995083829984,0.00087622993129714,0.0224584985505026,-0.0436274354841629,1.00131529819713,-0.000820242680860686,0
0.32,0.000856624957507045,0.000492215387625065,-0.0424514706098079,-0.0246397767311716,-0.000456028485222643,0.000876424740810288,0.0224659434236524,-0.0436408906919029,1.00131004578965,-0.000788508092865406,0
0.33,0.000856510411844771,0.000492220843859859,-0.0424526630144848,-0.0246400361233678,-0.000455924675718921,0.000876369861872947,0.022466588680405,-0.0436418648804995,1.00130502546158,-0.000757317711604279,0
0.34,0.000856389344273971,0.000492220238696357,-0.0424532353906788,-0.0246400104047875,-0.000455818838605162,0.000876306258531195,0.0224668752545026,-0.043642259613625,1.00130022885267,-0.000727477056101905,0
0.35,0.000856273049707328,0.000492219399649092,-0.0424537493500476,-0.024639970127192,-0.000455717335281615,0.000876244933434611,0.0224671298112773,-0.043642605785961,1.00129564608213,-0.00069896484742917,0
0.36,0.000856162110244709,0.000492218586268258,-0.0424542465420059,-0.0246399298385271,-0.00045562050759988,0.000876186423508732,0.0224673791670254,-0.043642938320673,1.00129126762137,-0.00067172368375352,0
0.37,0.000856056060224828,0.000492217808581002,-0.0424547164115303,-0.0246398895399917,-0.000455527949934799,0.000876130490372374,0.0224676140348167,-0.0436432517316132,1.00128708436182,-0.000645696984664706,0
0.38,0.000855954666817043,0.000492217065500928,-0.0424551593182208,-0.0246398492318335,-0.000455439459100073,0.000876077011632455,0.0224678343379027,-0.0436435464080035,1.00128308760058,-0.000620830610774144,0
0.39,0.000855857695017648,0.000492216355511081,-0.0424555751490056,-0.0246398264083288,-0.000455354830659324,0.000876025863173429,0.0224680301852033,-0.043643837208273,1.00127926902406,-0.000597072832521866,0
0.4,0.000855765265588415,0.000492215677140228,-0.0424559809882803,-0.024639786078229,-0.000455274160092229,0.000875977112579169,0.0224682344861976,-0.0436441040546297,1.00127562068758,-0.000574374226383384,0
0.41,0.000855676910694667,0.000492215028981883,-0.0424563639679065,-0.0246397457392483,-0.000455197047466772,0.000875930509931661,0.0224684266376844,-0.0436443549144348,1.00127213500163,-0.000552687572225658,0
0.42,0.000855592395338649,0.000492214409691982,-0.0424567224978023,-0.0246397257897022,-0.000455123289205844,0.000875885930753661,0.0224685939848764,-0.0436446062714499,1.00126880471506,-0.000531967755092935,0
0.43,0.000855511840270292,0.000492213817985491,-0.0424570722299073,-0.0246396854307643,-0.000455052981583189,0.000875843442294777,0.0224687714070721,-0.0436448323621402,1.00126562290024,-0.000512171671343284,0
0.44,0.000855434659078953,0.000492213252635098,-0.0424573930715029,-0.0246396654584973,-0.000454985625575963,0.000875802730380761,0.0224689196956658,-0.0436450568569281,1.00126258293701,-0.000493258138988687,0
0.45,0.000855360853931747,0.000492212712467838,-0.0424576939498542,-0.0246396454748486,-0.000454921218070121,0.000875763798123325,0.0224690570923572,-0.0436452675332172,1.00125967850235,-0.000475187812020918,0
0.46,0.000855290776240788,0.000492212196363186,-0.0424580008680675,-0.0246396050872861,-0.000454860050287618,0.000875726836875282,0.0224692162286377,-0.0436454613750498,1.00125690355336,-0.000457923098558698,0
0.47,0.000855223373930397,0.000492211703249609,-0.0424582692456494,-0.0246395821728876,-0.000454801231716636,0.000875691281081297,0.0224693388842993,-0.0436456463704348,1.00125425231753,-0.000441428082646343,0
0.48,0.000855159173046417,0.000492211232103735,-0.0424585330446549,-0.0246395621574808,-0.000454745201062669,0.000875657416096604,0.0224694612788836,-0.0436458286833136,1.00125171927983,-0.00042566844953705,0
0.49,0.00085509776612996,0.000492210781947943,-0.042458779301706,-0.0246395421322969,-0.000454691611073379,0.00087562502381199,0.0224695738339426,-0.0436459989919032,1.00124929917014,-0.000410611414307894,0
0.5,0.000855039094973366,0.000492210351847397,-0.0424590120388338,-0.024639522097418,-0.000454640408803819,0.000875594074375397,0.0224696797169713,-0.0436461595781314,1.00124698695439,-0.000396225653656523,0
0.51,4.68312854108766,-0.0125471336520328,5.84472335125734,0.635061803079495,-0.696989878423394,4.63098860636561,-0.226138888673575,5.87477282535188,0.146705204913218,45.2315809186509,3998.94941100642
0.52,4.62514077625329,-0.0285794632045425,8.74542217345208,1.44576812753917,-2.87957028139564,3.61950535023517,-4.2653876709814,7.77040040710614,0.665854872095313,96.4773110857148,3998.94941100642
0.53,4.61219039609694,0.0409142912445544,9.39433021358409,-2.02436627108725,-4.61189245075659,0.0665000130172095,-9.40541592651888,-1.97221961519492,1.565248749528,149.424029767688,3998.94941100642
0.54,4.64014492460036,0.0331892370328144,7.99804053462204,-1.63389706803481,-1.280519003154,-4.4600804397803,-0.578447519114129,-8.14270658258178,2.86915864416797,206.843470858019,3998.94941100642
0.55,4.65858451992975,-0.00880638303440628,7.07755128397618,0.478470992454729,4.62158902472572,-0.586005262984928,6.95855371563,-1.37811351296817,-1.69881098493275,260.084363134326,3998.94941100642
0.56,4.55489951147099,-0.00779795628270585,12.263363749171,0.439312966435336,-1.76531620910731,4.19890807824889,-4.32820511322722,11.4825836302112,0.396275249887539,312.401803112861,3998.94941100642
0.57,4.60212664230968,-0.00278776285927251,9.90367169497626,0.19089946344167,-1.12671113447135,-4.46207344436828,-2.61553401407007,-9.55395925615442,2.8936487622518,367.57025024023,3998.94941100642
0.58,4.60291774732916,0.0339440210664366,9.86577032329961,-1.6395410479483,2.25833712911071,4.01097461928194,3.34225374204772,9.42607335234427,-0.50542486710623,420.73089971198,3998.94941100642
0.59,4.60792718329792,0.0452952196534692,9.61700206501027,-2.19489741335699,-1.68416724501322,-4.28936187262441,-1.37577959589773,-9.76788277351261,2.7772782681789,473.647656183731,3998.94941100642
0.6,4.57601905290097,0.0725983300522568,11.2141105104441,-3.56036177602726,-0.693340763687512,4.5237704932333,-5.38479493132647,10.4611870294059,0.167946281852462,528.128438483505,3998.94941100642
0.61,4.58140942486059,0.081673668617267,10.9464318240325,-4.01149499479222,4.02794788708595,-2.18440351704228,11.5632024487867,-1.48620688324567,-2.04989239943654,581.969979031264,3998.94941100642
0.62,4.59567846666743,0.0348449948124541,10.2347966055356,-1.66141137517245,-3.10406310318455,-3.38913956545057,-5.62160957483935,-8.71256880043481,2.40765212000243,635.456674887793,3998.94941100642
0.63,4.5081785567824,0.0647437031758202,14.6116671351937,-3.15310831669641,-3.69298443079415,2.58645155393361,-13.8589578020609,5.60108892691558,0.974183202525899,688.819005359618,3998.94941100642
0.64,4.53063595433312,-0.0111623208156508,13.4907423325687,0.656242076833702,0.296563416492041,4.52093318775013,1.57095606428114,13.4150243902598,-0.0679677211587674,742.02898757233,3998.94941100642
0.65,4.5900883392855,0.0694887745125223,10.5201025892022,-3.36635162012067,3.07659008148267,3.40710039810254,4.3991533592854,10.1317486861408,-0.719328882634224,794.923019194116,3998.94941100642
0.66,4.54631726633562,0.0540162077999791,12.7106781382149,-2.57582027195159,3.80773888397958,2.48456093270348,9.12860899517279,9.21220313605499,-0.980782809039282,847.707261421699,3998.94941100642
0.67,4.55939226164573,0.0452923245924719,12.059026843312,-2.15288851520456,3.46238114566357,2.96682085613125,7.66172598416156,9.55787697714522,-0.85239212613561,901.529634101128,3998.94941100642
0.68,4.58689046380573,0.0764190017233015,10.6862104029716,-3.69163486741126,1.57321691049014,4.30933783118987,0.00855485070062789,11.3058917200455,-0.333379281872592,954.469938147515,3998.94941100642
0.69,4.53314910926892,0.0785734059591687,13.3753967541373,-3.78910562177471,-2.39561951628295,3.84923651653076,-10.4449151452539,9.17400170874177,0.574031598314925,1007.52475175384,3998.94941100642
0.7,4.4928722645967,0.0753295511598515,15.3914605294861,-3.62203693186031,-4.31320363322096,-1.26009926022903,-13.6255935259487,-8.02243166578026,1.87180002506688,1060.47616408932,3998.94941100642
0.71,4.47850682291641,0.085388098942365,16.1119341936918,-4.13617545851485,1.73064940102553,-4.13148485911298,10.2910605829114,-13.0689113151908,-2.72584229313489,1113.95193056099,3998.94941100642
0.72,4.51089386218269,0.0598229487633183,14.4948943376441,-2.81987856959406,2.78481967340601,3.54915787302946,6.55432754478433,13.2323266073055,-0.652045029289828,1166.39667396998,3998.94941100642
0.73,4.48315332951961,0.0669982093549792,15.884302842039,-3.1734456672443,-4.37172352766347,-0.99558321285225,-14.6825195129152,-6.84145123006987,1.80965333258549,1219.03237737983,3998.94941100642
0.74,4.4905178580202,0.0605605405709428,15.5184626876206,-2.84783475406194,4.48067728825357,-0.303231348645276,15.6497246979637,2.00473535696393,-1.62488313295336,1271.9224333986,3998.94941100642
0.75,4.53500203523822,0.0961151188848581,13.2966953216537,-4.61984583997595,-4.53522733574291,-0.0848209220849271,-13.1018738379039,-5.14645353594878,1.61068772070692,1324.70569869934,3998.94941100642
0.76,4.48512674805623,0.0823571852155238,15.7929263670454,-3.92274216436379,3.9322278994149,2.15887202009503,11.7511986862666,11.256720604105,-1.0503455520802,1377.38563687207,3998.94941100642
0.77,4.49084900618556,0.0696667618457933,15.5093381465748,-3.27515184141375,-0.889008935013698,-4.40252670264812,0.386338839398016,-15.846669417587,2.95785235401985,1430.04279502359,3998.94941100642
0.78,4.41053069955228,0.109446992863959,19.527818608332,-5.30203944010348,-3.81395545064994,2.21776994217112,-19.6702859354197,4.74627991622508,1.06890952703075,1483.02277559427,3998.94941100642
0.79,4.53067364111677,0.156237212564461,13.5232209693114,-7.62308901853266,2.0478392172702,4.0444737913739,-1.22626819570769,15.475311236983,-0.434228270933769,1535.68517675516,3998.94941100642
0.8,4.49158971318226,0.195577716484788,15.4800135535312,-9.55958068323378,4.49448860224278,-0.11045813261069,15.2961480929051,9.85110430239586,-1.55185212550741,1587.87227909456,3998.94941100642
0.81,4.4536989459422,0.113267088514488,17.3772286458468,-5.47264759213611,3.29275704027123,-3.00100230059416,16.7191884197228,-7.23786471713587,-2.2844447991127,1640.80793757441,3998.94941100642
0.82,4.44577114818162,0.0909252341889202,17.7762606451174,-4.3085489352798,2.08908552765711,-3.92541337420023,12.4317886386425,-13.4167681538801,-2.63207273903047,1692.89091548353,3998.94941100642
0.83,4.41474480564225,0.104893193723188,19.330342986089,-5.03405245785893,-2.0358359535891,-3.91871742424848,-3.98055892823959,-19.5744474948114,2.68620978106986,1745.62463523895,3998.94941100642
0.84,4.38609574010675,0.159202185212688,20.7656103451325,-7.75958587757768,-0.31201749385456,-4.37787919667592,7.03091912693432,-21.0235087991488,3.10672267159649,1797.90275785912,3998.94941100642
0.85,4.38320880483218,0.118805487027846,20.9127206347198,-5.68304591601356,2.96401150407905,-3.23129540187729,18.6311418147531,-11.0688504329904,-2.37221266694897,1849.99219859956,3998.94941100642
0.86,4.48152626579514,0.164361570436245,15.9996436614332,-7.95748014299948,4.2127418339889,1.53749752422819,11.8184885624018,13.4027391088332,-1.1841946466004,1902.35049446516,3998.94941100642
0.87,4.45643259504424,0.155126800905926,17.2571849656039,-7.49480265924201,-1.53957322677698,4.18492175290334,-13.4577333712353,13.1480763743898,0.387314597393165,1954.66840379043,3998.94941100642
0.88,4.45713032549928,0.157297532965269,17.2252214377274,-7.59502560317929,-3.30706563497211,-2.9923352316124,-7.06584578538165,-17.4489681880877,2.34155061333379,2006.84969063243,3998.94941100642
0.89,4.43143495119122,0.173304744423207,18.5129263526227,-8.38385457258675,4.42300924868743,-0.323480211302364,18.7865849751289,7.75123761757943,-1.60471399938629,2058.98735801185,3998.94941100642
0.9,4.39705942054849,0.157124912682781,20.2346649843626,-7.5661147333031,-3.87782807794514,2.07876626486002,-21.4981576303818,2.1253182552625,1.11443390314627,2111.21938999544,3998.94941100642
0.91,4.35011520794171,0.122714841838894,22.5849082364465,-5.89571662497338,3.76593795053235,-2.18088803186075,22.6651313210239,-5.57937064295234,-2.06751095877962,2163.54628045902,3998.94941100642
0.92,4.40887348138242,0.125216168413203,19.6500470710341,-5.97984716656748,-4.33637524196972,0.806036118608374,-20.3387537808799,-2.86670833362997,1.41540920296246,2215.40165579331,3998.94941100642
0.93,4.38852050873944,0.160400443158982,20.6707598646829,-7.71044830886939,3.78744053974383,2.22264138261152,13.2908541937325,17.6092169419334,-1.00357187284824,2267.3760823071,3998.94941100642
0.94,4.3637593235057,0.173590302072857,21.9119684379057,-8.40355019967009,0.264142168287067,-4.3592152896352,10.5549625826303,-20.9606006989644,-3.04131365178197,2319.43801455777,3998.94941100642
0.95,4.35981454185899,0.172665007808352,22.1123399878996,-8.35029977033158,-4.36177094941092,0.11291691282339,-21.9958608282338,-8.65246741801629,1.58449731279047,2371.34603003215,3998.94941100642
0.96,4.35411754955245,0.15264591093139,22.4004050685155,-7.31622224842505,2.90123532811358,3.2503036750972,8.69653336740816,21.9014968121241,-0.693670593583524,2423.07841029019,3998.94941100642
0.97,4.3876908009575,0.112085430558927,20.7249355790624,-5.3102957267437,4.38471417152879,-0.196660475300005,20.8234671465489,4.90972621012197,-1.5900777951606,2475.15447862837,3998.94941100642
0.98,4.30362413049334,0.190455390550486,24.9315117738309,-9.25253114903305,3.60389371154219,-2.35995848019853,26.1625413056607,-4.76561060327993,-2.10633772363334,2527.04336644745,3998.94941100642
