t,iq,id,vq,vd,ia,ib,va,vb,theta_e,omega,r
0,0,0,0,0,0,0,0,0,0,0,0
0.01,0.000881240591863601,0.000502251377631187,-0.0437047024812575,-0.0251429557458172,0.00100449031194277,-0.000140856807764659,-0.0499037412688312,0.00720318332301132,-1.19209426953442,-0.000773936082050731,0
0.02,0.000978268053862872,0.000557442642831994,-0.0485651133011277,-0.0279058478281812,0.00111504704340142,-0.000156271482548513,-0.055441204984022,0.00797366684033323,-1.19210006294631,-0.000828193192681768,0
0.03,0.00101626271602572,0.000579155491802768,-0.0504553404362554,-0.0289927991179365,0.00115837616815967,-0.000162405802571859,-0.0575993116854235,0.00828511150177745,-1.19210599087851,-0.000828115622713292,0
0.04,0.000993922732539234,0.000566796010516418,-0.0493617183207181,-0.0283740864980111,0.00113304875016903,-0.000159187454078478,-0.0563543876625273,0.0081148636065017,-1.19211153303866,-0.00077555449059403,0
0.05,0.00101602017071656,0.000579538791788845,-0.0504650516603251,-0.0290120041324756,0.00115829072061655,-0.000162864376167949,-0.057615343599067,0.00830000029057271,-1.19211700762898,-0.000763697833102174,0
0.06,0.00101653721080076,0.000580066083542544,-0.0505010248625586,-0.0290384023531808,0.00115896520409769,-0.000163169292177673,-0.0576584835462886,0.00831153406636491,-1.19212229456673,-0.000733358128728164,0
0.07,0.001043275481104,0.000595614769108683,-0.0518328773850148,-0.029816769421487,0.00118955655289985,-0.000167737563193779,-0.0591836925977762,0.00854268384268303,-1.19212730493416,-0.000728416378744576,0
0.08,0.00101689084341197,0.000580729599177722,-0.0505380111400481,-0.0290716018541964,0.0011595374552105,-0.000163666565737114,-0.0577050404450816,0.00832928037660142,-1.19213221080935,-0.000675893693584421,0
0.09,0.00101535623013027,0.000580107981517035,-0.0504712827453729,-0.0290404919574738,0.00115788099512544,-0.000163661679728177,-0.0576314997559104,0.00832531026328592,-1.19213685781532,-0.000647422173163494,0
0.1,0.00101491733150516,0.000580079790912533,-0.0504583364891583,-0.0290390823951026,0.00115746203769577,-0.000163802884308637,-0.0576189124729211,0.00832904274455011,-1.19214130568352,-0.00062110494151349,0
0.11,0.00101454187985238,0.000580076383720562,-0.0504481552386178,-0.0290389096764172,0.00115711122422148,-0.000163943440568379,-0.0576093530941705,0.008332891349705,-1.19214556497018,-0.00059594410025875,0
0.12,0.00101418435618083,0.000580074101796585,-0.0504385043605217,-0.0290387864911608,0.0011567775132243,-0.000164078203292364,-0.0576003063030538,0.00833657944243143,-1.19214964375866,-0.000571851276403374,0
0.13,0.001062255238765,0.000607669493965995,-0.0528232390166168,-0.0304202414639186,0.00121164363749032,-0.000171953778410913,-0.0603267578415059,0.00873887631575427,-1.19215370869179,-0.000591770798761665,0
0.14,0.00111082970426014,0.000635998026650801,-0.0552876332677048,-0.031838369126711,0.00126724865261282,-0.000180324635647431,-0.0631407811985333,0.00914581273763396,-1.19215759776222,-0.000613171743328576,0
0.15,0.00101738434630337,0.000582394137274381,-0.0506197662758962,-0.0291549381905031,0.00116060653306737,-0.000165064577169221,-0.0578115675561161,0.00837817494583632,-1.19216135782251,-0.000506492643334867,0
0.16,0.00101304121323144,0.000580162571007318,-0.0504117526859643,-0.0290432235783125,0.00115574555717769,-0.0001646004725609,-0.0575769634246417,0.0083514625957461,-1.19216477566486,-0.000482635960963913,0
0.17,0.0010125794499231,0.000580068029608787,-0.0503953425162836,-0.0290384862681888,0.00115528101507152,-0.00016468708994973,-0.0575599371479615,0.00835331476744752,-1.19216804072916,-0.000463190472116066,0
0.18,0.00101229762419869,0.000580062455110805,-0.0503875552051447,-0.0290382195640958,0.00115501657456397,-0.000164789697099046,-0.0575525766820244,0.00835612543370694,-1.19217116708642,-0.000444716670395812,0
0.19,0.00101203505127767,0.000580060650784851,-0.0503804586083479,-0.0290381178917572,0.00115477143810295,-0.000164888536124225,-0.0575459201034361,0.00835882645662617,-1.1921741609443,-0.000427032136949284,0
0.2,0.00101178361011122,0.000580059069751671,-0.050373661923135,-0.0290380432749638,0.00115453674788774,-0.000164983319967999,-0.0575395532413833,0.00836143442042033,-1.19217702793209,-0.000410097291902038,0
0.21,0.00101154287915502,0.000580057561668116,-0.0503671550925071,-0.0290379715782972,0.00115431205583906,-0.000165074071138337,-0.0575334577865885,0.00836393093069866,-1.19217977342672,-0.000393880099691143,0
0.22,0.00101131239274509,0.000580056117596338,-0.05036092528081,-0.0290378998904457,0.00115409692518333,-0.000165160959561037,-0.0575276206950258,0.00836631832744307,-1.19218240257666,-0.00037835013708582,0
0.23,0.00101109168522014,0.000580054734591715,-0.0503549591730748,-0.0290378282102892,0.00115389092139455,-0.000165244160462037,-0.0575220295546758,0.00836860181889997,-1.1921849203122,-0.000363478281149968,0
0.24,0.00101088040733421,0.000580053410068064,-0.0503492488635007,-0.0290377565365477,0.00115369371827868,-0.000165323806114165,-0.057516676981134,0.00837078460136424,-1.19218733135469,-0.000349236643558053,0
0.25,0.00101067809342601,0.000580052141557369,-0.0503437801911269,-0.0290376848686292,0.00115350488154257,-0.000165400071686735,-0.057511549779619,0.00837287217200443,-1.19218964022539,-0.000335598517815773,0
0.26,0.0010208321373891,0.000585936974666436,-0.0508501237121484,-0.0293322953628322,0.00116511464389521,-0.000167117496356874,-0.0580909115461159,0.0084595879648219,-1.19219183127244,-0.00033204186734821,0
0.27,0.000987356776508239,0.000566840166785933,-0.0491993092010531,-0.0283762881440952,0.00112695096770774,-0.000161748864543846,-0.0562036242390874,0.00818158768754672,-1.1921940177438,-0.000288933583463683,0
0.28,0.000983937037555352,0.000564867866749387,-0.0489825233659991,-0.0282775603634579,0.00112304407380491,-0.000161182533330601,-0.0559656821236061,0.00817009423746921,-1.19219605117175,-0.000273981994718156,0
0.29,0.00100881371252036,0.000579416101737457,-0.0502678894151968,-0.0290058574129866,0.00115153606461648,-0.000165507756341899,-0.0574291998112918,0.0083718265364069,-1.19219793911057,-0.00028554707985421,0
0.3,0.00100305035658117,0.000576303988222524,-0.0499861110918014,-0.0288500582048228,0.00114503028797214,-0.000164748123829167,-0.057109776288362,0.00833130318718599,-1.19219955435918,-0.000270906466209671,0
0.31,0.00100935967177454,0.00057989002955231,-0.0503015459896529,-0.0290295796939972,0.00115221797112115,-0.000165750235005702,-0.0574692127045526,0.00838162378529329,-1.19220133198719,-0.000266270946875391,0
0.32,0.00100949003782395,0.000580038297380646,-0.0503113541802295,-0.0290370017264262,0.00115239362292641,-0.000165841794287774,-0.0574810552435685,0.00838499354769011,-1.1922030469825,-0.00025639541630924,0
0.33,0.00100935822786179,0.000580043601005001,-0.0503080574576905,-0.0290372625671836,0.0011522728347671,-0.000165897334146579,-0.057478074609179,0.00838654886013942,-1.19220468985363,-0.000246702300936241,0
0.34,0.00100922094601575,0.000580042994251472,-0.0503043529512293,-0.0290372295079756,0.00115214478903717,-0.000165949324046941,-0.0574746070176326,0.00838797779619136,-1.19220626312923,-0.000237409695102549,0
0.35,0.00100908862590236,0.000580042176655685,-0.0503007620204603,-0.0290372059523828,0.00115202128666303,-0.000165999206926507,-0.0574712490267535,0.00838936974181988,-1.19220776973599,-0.000228510432938599,0
0.36,0.00100896228707694,0.00058004138382333,-0.0502973411071621,-0.0290371583290642,0.00115190336163502,-0.000166046828169493,-0.0574680406500495,0.00839067280506304,-1.19220921249785,-0.000219988271724259,0
0.37,0.00100884130335541,0.000580040624137916,-0.0502940643206151,-0.0290371107002327,0.00115179043477802,-0.000166092430170683,-0.0574649667016351,0.00839191907037392,-1.19221059412051,-0.000211827249703857,0
0.38,0.0010087250485514,0.000580039896590056,-0.0502909056325295,-0.0290370842056808,0.00115168192345965,-0.00016613624645904,-0.0574620107884051,0.0083931379507902,-1.19221191719459,-0.000204012063837655,0
0.39,0.00100861419296144,0.000580039199837782,-0.0502879035531847,-0.02903703656267,0.00115157844961844,-0.000166178030936975,-0.057459193045296,0.00839427606763406,-1.19221318420128,-0.000196528058808056,0
0.4,0.00100850771704762,0.000580038532579047,-0.0502850118842842,-0.0290370129589073,0.00115147906504861,-0.000166218161991481,-0.0574564872273862,0.00839539262140611,-1.19221439751655,-0.00018936120030637,0
0.41,0.00100840578133111,0.000580037893567402,-0.0502822432923997,-0.0290369893447514,0.00115138391807812,-0.000166256581786067,-0.0574538961966733,0.00839646071539489,-1.19221555941574,-0.000182498048748824,0
0.42,0.00100830842991665,0.000580037281607875,-0.050279604383951,-0.0290369416806677,0.0011512930488964,-0.000166293275446895,-0.0574514171887705,0.0083974556965172,-1.1922166720775,-0.000175925734073716,0
0.43,0.00100821499251795,0.000580036695556353,-0.0502770658285944,-0.0290369180488145,0.00115120583392058,-0.000166328492078565,-0.0574490407042152,0.00839843320339007,-1.19221773758847,-0.000169631931609908,0
0.44,0.00100812539682464,0.000580036134316911,-0.0502746280915896,-0.029036894407899,0.00115112220523256,-0.000166362259712596,-0.0574467582730849,0.00839937084053791,-1.19221875794671,-0.000163604838963081,0
0.45,0.00100803975925204,0.000580035596840426,-0.0502723008460238,-0.0290368707571952,0.00115104227030719,-0.000166394536572014,-0.0574445788674307,0.00840026514264412,-1.19221973506566,-0.000157833153883633,0
0.46,0.00100795773055417,0.000580035082121027,-0.050270070333376,-0.0290368470976465,0.00115096570395961,-0.000166425452932578,-0.0574424896881363,0.00840112130153008,-1.19222067077757,-0.000152306053073235,0
0.47,0.00100787919431156,0.00058003458919641,-0.0502679342648894,-0.0290368205192074,0.00115089239737352,-0.000166455052966836,-0.0574404875184273,0.00840193756042621,-1.1922215668372,-0.000147013171887041,0
0.48,0.00100780391770187,0.000580034117144109,-0.0502658844173592,-0.0290367968430307,0.00115082213359836,-0.000166483423819039,-0.0574385668549139,0.00840272246455472,-1.1922224249249,-0.000141944584898783,0
0.49,0.00100773201713628,0.000580033665080921,-0.0502639298576848,-0.0290367731580909,0.00115075502021448,-0.000166510523511107,-0.0574367350332369,0.00840347005078366,-1.19222324664982,-0.000137090787287882,0
0.5,0.00100766302695351,0.000580033232161381,-0.0502620504122667,-0.0290367494658962,0.00115069062396947,-0.000166536525151213,-0.0574349732960004,0.00840418786547404,-1.19222403355277,-0.000132442677015706,0
0.51,4.22197010454492,-0.0126882359804886,5.91565104869154,0.638931997258469,-0.162949638148452,4.21884343990514,0.427975799169685,5.93464389347255,0.0355997752193899,10.9259799940926,493.401153047559
0.52,4.17002377338945,-0.0550663884266378,5.30334178584599,2.76480928748676,-0.719769690112124,4.10780503078754,1.88313097045065,5.67656782235558,0.16025461691035,23.0561698689321,493.401153047559
0.53,4.13098675852085,0.0284228226432158,4.02013710895211,-1.41018565310972,-1.48077439463812,3.85657447070658,-2.77976306699047,3.2284738255724,0.373483985247379,35.136419439979,493.401153047559
0.54,3.97459285937326,-0.0472991768775923,8.44246316224098,2.38526902431123,-2.52381133084815,3.07083082832589,-3.42181931833082,8.07810900624847,0.676032546931314,47.5016398848706,493.401153047559
0.55,3.95497719072315,-0.0118110805809164,5.67037862655215,0.607314506299204,-3.47823172709736,1.8825217484476,-4.68808161359502,3.24713958158457,1.07172522858188,60.5370096793676,493.401153047559
0.56,3.82605915205877,-0.00434019812352537,8.59587467839116,0.236759141342263,-3.82591754985081,0.0332020197583744,-8.59313774220402,0.32109207577313,1.56098398205743,72.696769368544,493.401153047559
0.57,3.76334307735939,0.0346474222823439,8.65687140165886,-1.7078860141573,-3.19856112173536,-1.98321917908805,-6.40176077741403,-6.07254115267871,2.13502347920923,83.8580339372554,493.401153047559
0.58,3.68998034677823,-0.0630614460100014,9.07718997068368,3.18919599549453,-1.20643929783386,-3.48775514138028,-6.10922620019162,-7.43261085329045,2.79148045494749,95.45111716018,493.401153047559
0.59,3.68910609910884,0.0646063115641387,5.67165774235324,-3.2066305120678,1.35498795219797,-3.43186326000532,5.13639766286122,-4.00844107306986,-2.74804385040787,107.120110597697,493.401153047559
0.6,3.61967346688679,-0.0177073334845383,6.15162024722736,0.924972166696743,3.40265870362608,-1.23461058766765,5.45266333523389,-2.99440607263899,-1.92375310171633,117.79393103891,493.401153047559
0.61,3.57340785534785,-0.00735988801497589,5.09273994998213,0.398874017688507,3.03778082398287,1.88180379797026,4.54423481918295,2.33345893219834,-1.01824559968277,129.188339226841,493.401153047559
0.62,3.44675186076958,0.0358598411927048,8.49163211947357,-1.75191777617447,0.151002705205342,3.44362926299414,-1.4672171722014,8.54542601141386,-0.0334182234616686,139.466958245555,493.401153047559
0.63,3.38858119125662,0.00722498422665363,8.1482173153348,-0.327445515967995,-2.90009519855928,1.75270720014172,-7.15132263551241,3.91908797383488,1.02930783175646,150.349999015462,493.401153047559
0.64,3.33256488093798,0.0124066763618375,8.06714668408544,-0.571908868221273,-2.76313107170194,-1.86312889835213,-6.35033764674722,-5.00790846046589,2.16777525335964,160.378992147459,493.401153047559
0.65,3.24003833278544,0.0301395355884153,9.60804735385699,-1.46489341403289,0.742549488514204,-3.15394626565384,3.71149132367656,-8.98250069984461,-2.90106650643812,170.591285449193,493.401153047559
0.66,3.21539842518903,0.00742112388478378,7.8309929745705,-0.335231727456293,3.21206060243114,-0.146658760725472,7.83816391572168,-0.00420822343485605,-1.61411542436143,180.698349044644,493.401153047559
0.67,3.11243827876693,0.084283549294206,10.168045388377,-4.16487048965046,0.866277007738412,2.99064205509102,-1.46673089701127,10.8896278031624,-0.254873150385643,190.216647488103,493.401153047559
0.68,3.1120876508397,0.0410113549075423,7.26629272796386,-1.9994294217607,-2.85649259828024,1.23580804080186,-7.47602754905624,0.951703791531249,1.17565703821296,199.762801456325,493.401153047559
0.69,3.06361938654938,0.0833787050510422,6.78368007379278,-4.12736794227135,-1.45178875319534,-2.69907857799522,0.637012841915621,-7.91502976075877,2.6753088505816,209.263701160165,493.401153047559
0.7,2.95129588469578,-0.0404750028848686,9.5631624689473,2.06653373381305,2.65022871856158,-1.29925877491446,7.59323383050276,-6.16988152850425,-2.04032218944887,218.555907266202,493.401153047559
0.71,2.87952882962055,0.0426095538007354,10.4137803500701,-2.0951761401675,1.17614708054102,2.62872210391776,2.1870176277616,10.3948803809228,-0.405911343769159,227.563112872101,493.401153047559
0.72,2.79382914411687,0.0726264783390809,11.9939985215473,-3.58924831148698,-2.66776893791054,0.832925438315103,-12.5182824920911,-0.176939042037572,1.29415787041803,236.335916931576,493.401153047559
0.73,2.743824965528,0.00476759604464205,11.8061172257599,-0.176316807361295,-0.232420640931672,-2.7339675962044,-0.803906398431889,-11.7800350622357,3.05852192296063,244.952869720662,493.401153047559
0.74,2.6758829152989,0.0113991521181119,12.5372991215355,-0.507205539841139,2.63768193658472,0.450680949755172,12.2615435192604,2.6637712453931,-1.39730807462419,253.440313877541,493.401153047559
0.75,2.64169556388314,0.0756323643819636,11.6066331960057,-3.72164161166039,-1.18092969976574,2.36425056857201,-8.7619295697976,8.47308330220883,0.491865388971272,261.789517604974,493.401153047559
0.76,2.59223403900897,0.0458962727347039,11.4763186998881,-2.2321614021168,-1.70500899580066,-1.95313289488619,-5.68569591087382,-10.2157377333002,2.44162205658245,269.986155926327,493.401153047559
0.77,2.60139172116795,0.0681004680024024,8.45620026862803,-3.34214997079324,2.49522136363925,-0.738746849158467,9.03293969137878,1.04081215516147,-1.83246631562843,278.024167230903,493.401153047559
0.78,2.43342237951563,-0.0222444930919676,14.31344397223,1.15987609986019,-0.587938734193305,2.36143332309756,-2.2029879943289,14.1903782476027,0.234873089387666,285.932219859685,493.401153047559
0.79,2.48096028624019,0.00441401449890855,9.43030985217773,-0.18190664054525,-1.75225393465252,-1.75635690391212,-6.51953931432475,-6.81611627416441,2.35914304335463,293.655094790207,493.401153047559
0.8,2.39318388409194,-0.0353470317603886,11.3411524853261,1.81020396958931,2.36346408011978,-0.377645412675963,10.8594550206462,-3.73775531054354,-1.74401046486958,301.199839057833,493.401153047559
0.81,2.31308607923841,0.0159530474066284,12.9290797024655,-0.750865644906241,-1.07591355003731,2.04768936670927,-6.75478080416333,11.0497890231946,0.490679306825781,308.537209018918,493.401153047559
0.82,2.33265681066478,0.0863050911497418,9.59540634726909,-4.25957075020695,-0.908483318297555,-2.15020799586324,0.577191131290884,-10.4824909417175,2.77881512159552,315.693985029997,493.401153047559
0.83,2.29389552595812,0.0284062528215452,9.20256636738703,-1.3523054111855,2.11783965792045,0.881770254969763,7.91596699522149,4.8839967446599,-1.16388917706708,322.753958648285,493.401153047559
0.84,2.16743993388849,-0.018367912537139,13.1935323957095,0.954679398558154,-2.04749433261857,0.711266620277052,-12.1049151335834,5.33401719526755,1.22797971296608,329.771668753025,493.401153047559
0.85,2.12009016691893,-0.0031058610948238,13.2514850636743,0.198079636131187,1.07178154871153,-1.82922832748703,6.51128574907815,-11.5431473103692,-2.61305535969164,336.544206167867,493.401153047559
0.86,2.12097844768375,0.098493289665886,10.986885895726,-4.86834326214108,0.355593185710939,2.0932758991409,-3.49665127006063,11.4972108660893,-0.121863380975371,343.104051582666,493.401153047559
0.87,2.02343598807649,0.0507404873764165,13.6562459081628,-2.48635279560495,-1.37846936192649,-1.4821234810677,-7.1843118846311,-11.8768962811323,2.41748497611712,349.646748146181,493.401153047559
0.88,2.04614052325083,0.0525927087189503,10.288367839394,-2.59202223745307,1.97476904958199,0.538278956223105,9.10772999807144,5.44227400636514,-1.27898533982654,356.066496812209,493.401153047559
0.89,1.97084261840988,-0.0017195072624907,11.9248829677478,0.149998091797881,-1.9250074429623,0.422575351606877,-11.6130211917872,2.71349811518764,1.35383256658591,362.217210216693,493.401153047559
0.9,1.97153908372646,-0.0124538320668842,9.76081722958796,0.655895441112282,1.54015353988122,-1.2308730763915,7.17358111439626,-6.65157769362054,-2.25135901044416,368.385242945302,493.401153047559
0.91,1.86812602157778,0.0110417480060892,12.8299280430551,-0.50182278094273,-0.837610698266886,1.66985779958771,-6.26734692008879,11.2062144489876,0.470842119171838,374.29880264529,493.401153047559
0.92,1.81010591282257,0.0112644165576392,13.7008097430029,-0.50559458164183,0.159533615515404,-1.80309714886253,1.79574137830046,-13.5920243671503,-3.04712191214765,380.114667704535,493.401153047559
0.93,1.88305065815311,0.0501290798931967,7.98916288327703,-2.46384142598076,0.495437968094869,1.81739756949101,-0.498129053266336,8.34560396820998,-0.239526546330314,385.837999617889,493.401153047559
0.94,1.77692647286653,0.0745736405574322,11.3264839130265,-3.66658984552624,-0.966065455719634,-1.49323355611408,-2.58901301093238,-11.6202465789925,2.60929919003992,391.382755035527,493.401153047559
0.95,1.72200013066527,0.018755137550358,12.0809252354013,-0.897692013495458,1.22994430631505,1.20535190237496,7.90045929360864,9.18353681565454,-0.784605087845779,396.846426018856,493.401153047559
0.96,1.68806740635423,0.0714430732585191,11.8629335572113,-3.51373565680801,-1.45698553499493,-0.855493326641218,-8.06104527887919,-9.38589792511049,2.14402326396484,402.16187602505,493.401153047559
0.97,1.65807041053931,0.0876288780572875,11.4376016497548,-4.34078901919158,0.0540946676476147,1.65950295977671,-4.57110225440759,11.3475197725035,0.0202154193094961,407.355977989055,493.401153047559
