t,iq,id,vq,vd,ia,ib,va,vb,theta_e,omega,r
0,0,0,0,0,0,0,0,0,0,0,0
0.01,0.00124996800826368,0.000713944876894601,-0.061903716207472,-0.035760212985961,-0.000898478674976164,-0.00112466589685106,0.0448942754103491,0.0556360220403674,2.98648354234807,-0.00140289089662002,0
0.02,0.00138847138732183,0.000793658484944933,-0.0688639245583959,-0.039752935719672,-0.000998645326407514,-0.00124918137041061,0.0499149730936397,0.061895326681245,2.98647318813425,-0.00150329661439303,0
0.03,0.00142869731628107,0.000816691451688892,-0.0708625396265459,-0.0409066038024645,-0.00102763013745018,-0.00128535491184908,0.0513642438044838,0.06369116277294,2.98646263201761,-0.00148821713321907,0
0.04,0.00140580994449578,0.000804047306166798,-0.0697510303214518,-0.0402732814859018,-0.00101161388433227,-0.00126468613482693,0.0505674012273486,0.062690361026709,2.98645286724447,-0.00140437181028428,0
0.05,0.00142797099333172,0.000816795536245593,-0.07085844595711,-0.0409118143422168,-0.00102764578831228,-0.00128460119865721,0.0513700006143191,0.0636853119103106,2.98644314026528,-0.00137314136626268,0
0.06,0.00142777962209678,0.000816930212947005,-0.070864209116769,-0.0409185862213679,-0.00102776129098621,-0.00128438169982713,0.05137817755796,0.063689478745892,2.98643378495871,-0.00131809263462731,0
0.07,0.00146737876159441,0.000839739657376889,-0.0728291768196042,-0.0420610482942525,-0.00105642799276795,-0.00131997083992264,0.0528111573544582,0.0654538191300956,2.98642489635789,-0.00131205657932696,0
0.08,0.00142739727163395,0.000817172264241511,-0.0708737966824291,-0.0409306962808676,-0.00102796387150618,-0.00128394850340334,0.0513927411954527,0.0636961781163999,2.98641624208353,-0.00121483791864196,0
0.09,0.00142655233595931,0.000816922019121799,-0.0708455095403228,-0.0409181568282279,-0.00102759658582434,-0.00128314395504135,0.0513765035610217,0.0636697468354614,2.98640802706693,-0.00116571132486417,0
0.1,0.00142616965086453,0.000816915529054828,-0.0708394229131177,-0.0409178535808941,-0.00102754111460293,-0.00128275878966334,0.0513757639418936,0.0636633761256648,2.98640016152627,-0.00111917064284726,0
0.11,0.00142580854366623,0.000816911858656513,-0.0708338559390944,-0.040917650267429,-0.00102749133052768,-0.00128239485093153,0.0513751820344577,0.0636575205418366,2.98639262981842,-0.0010746109135947,0
0.12,0.00142546241304218,0.000816908371427453,-0.0708285058069285,-0.0409174810142585,-0.00102744362733893,-0.00128204600968332,0.0513746468664492,0.0636518903626746,2.98638541776628,-0.00103194242094797,0
0.13,0.00149251689699528,0.000855326586038758,-0.0741432264869359,-0.0428417869899884,-0.00107577536468999,-0.0013423478019229,0.0537887098612005,0.0666289084246185,2.98637817593154,-0.00106748942982521,0
0.14,0.00159998030917229,0.000917580772109234,-0.0795801395996172,-0.0459599863735807,-0.00115390400275842,-0.00143888742280337,0.0577104170039159,0.0715180168586099,2.98637132130367,-0.0011523035334729,0
0.15,0.00142646436415737,0.000817997253147962,-0.0709114719793847,-0.0409720167498178,-0.00102870089099512,-0.00128284627498167,0.0514426729261132,0.0637243628218231,2.98636469498763,-0.000911661989152424,0
0.16,0.00142420171593281,0.000816907428000925,-0.0708097923337405,-0.0409174409214183,-0.00102728207530612,-0.0012807731303177,0.0513734167939981,0.0636320336687062,2.9863586648972,-0.000873691263818832,0
0.17,0.00142390234270236,0.000816892773151165,-0.070804398083189,-0.0409167092923257,-0.00102722869928615,-0.00128047369506084,0.0513722271130649,0.0636265209537585,2.98635289432053,-0.000839524787808624,0
0.18,0.00142363707969443,0.000816889970570603,-0.0708002852522351,-0.0409165684180449,-0.00102719199019912,-0.00128020637944454,0.0513718035725547,0.0636221955029003,2.98634736869541,-0.000806833362984591,0
0.19,0.00142338322538842,0.000816887409310135,-0.0707963524329993,-0.0409164333854326,-0.00102715698054271,-0.00127995053932913,0.0513713986726522,0.0636180590494351,2.98634207758552,-0.000775529688647698,0
0.2,0.00142314031411752,0.000816884957902426,-0.0707925930891268,-0.0409162983721897,-0.00102712348151963,-0.00127970572469797,0.0513710062892665,0.0636141055237978,2.98633701103721,-0.000745554585526086,0
0.21,0.00142290748999606,0.00081688261037726,-0.0707889802621841,-0.0409161973013872,-0.00102709136740267,-0.00127947108104504,0.0513706563801489,0.0636103025557857,2.98633215951984,-0.000716851664169316,0
0.22,0.00142268444475874,0.000816880362325981,-0.0707855137589124,-0.0409160962365703,-0.0010270605981366,-0.00127924629507675,0.0513703159721826,0.0636066547325952,2.98632751390695,-0.000689366931534429,0
0.23,0.00142247133579737,0.000816878209539788,-0.0707822159404903,-0.0409159612617945,-0.00102703120535344,-0.0012790315139262,0.0513699555755766,0.063603188941956,2.98632306546005,-0.000663048686145684,0
0.24,0.00142226703342012,0.000816876147987773,-0.0707790443351639,-0.0409158602097872,-0.00102700302132254,-0.00127882561348269,0.0513696361752549,0.0635998523027207,2.98631880581092,-0.000637847420802933,0
0.25,0.0014220713457738,0.000816874173808115,-0.0707760026114633,-0.0409157591607936,-0.00102697602303028,-0.00127862839653533,0.0513693253399099,0.0635966532726716,2.98631472694699,-0.00061371572945148,0
0.26,0.00143460235357278,0.000824078442589126,-0.0713995434820692,-0.0412766348028334,-0.00103603660497572,-0.00128989043936571,0.0518225419240439,0.0641566796103498,2.98631084166137,-0.000605520612152609,0
0.27,0.00138113763565038,0.000793624354682163,-0.068772157117339,-0.0397512334498597,-0.000997684932799828,-0.00124177516476164,0.049909383707181,0.061796630760314,2.98630700345321,-0.000520844338336318,0
0.28,0.00136193370970139,0.000782415986646788,-0.0677111846286882,-0.0391898146519915,-0.000983645734635274,-0.00122453226764969,0.0491908477451142,0.0608350770065654,2.98630338764261,-0.000477318535402896,0
0.29,0.00142068906599595,0.00081649103114477,-0.0707316003919126,-0.040896583997396,-0.00102640243364382,-0.00127730696012757,0.0513444452999628,0.0635549983360585,2.98630007152963,-0.000526220488367112,0
0.3,0.00141740320880082,0.000814745914333629,-0.0705743499039143,-0.0408091759988271,-0.00102417371071072,-0.00127432765469923,0.0512339472036196,0.0634130141532485,2.98629723513846,-0.000505776188146756,0
0.31,0.00142103686919113,0.000816841040829708,-0.070758433875123,-0.0409141272957427,-0.00102680968222135,-0.0012775902888175,0.0513663088147071,0.0635784876792814,2.98629407872554,-0.000491504365384124,0
0.32,0.00142093489740681,0.000816862458917246,-0.0707582995168892,-0.0409151698210924,-0.00102681893998491,-0.00127748312080634,0.0513675106112112,0.0635780380761921,2.98629104939058,-0.00047363213474021,0
0.33,0.00142079632871609,0.000816861304122537,-0.0707561531048407,-0.0409151171846774,-0.00102680007092783,-0.00127734341983998,0.0513673110290294,0.0635757766297707,2.98628814854627,-0.000456470503036444,0
0.34,0.00142066299868938,0.000816859961823298,-0.0707540641064478,-0.0409150470810471,-0.00102678166891441,-0.00127720905002133,0.0513670952312973,0.0635735809336116,2.98628537081671,-0.000440036687032154,0
0.35,0.00142053548943153,0.000816858673860211,-0.0707520699888039,-0.0409149798795712,-0.00102676406968317,-0.00127708054366308,0.0513668894712908,0.0635714845846038,2.98628271097744,-0.000424300337059681,0
0.36,0.00142041294506477,0.000816857440484211,-0.0707501362970746,-0.0409149465362621,-0.00102674714756726,-0.00127695704999992,0.0513667193221621,0.0635694484968844,2.9862801640254,-0.000409231857917381,0
0.37,0.00142029602959927,0.00081685625941043,-0.0707483041382811,-0.040914879317322,-0.00102673100922257,-0.0012768392204715,0.0513665245299948,0.063567523514002,2.98627772516948,-0.000394802904380497,0
0.38,0.00142018423640665,0.000816855128422594,-0.0707465558598794,-0.0409148120903579,-0.00102671558002395,-0.00127672655016817,0.0513663361170219,0.0635656867211978,2.98627538982158,-0.000380986334165119,0
0.39,0.00142007659319945,0.000816854045398947,-0.0707448501614644,-0.0409147787143623,-0.00102670071314471,-0.00127661807431421,0.0513661814260208,0.0635638918516039,2.98627315358896,-0.000367756156937977,0
0.4,0.00141997411323064,0.000816853008306802,-0.07074324470051,-0.0409147114707577,-0.00102668656875426,-0.00127651478995138,0.0513660027412755,0.0635622061281298,2.98627101226495,-0.000355087485429424,0
0.41,0.00141987555041757,0.000816852015199118,-0.070741683848997,-0.0409146780728418,-0.00102667295736355,-0.0012764154621544,0.051365858612434,0.0635605639103616,2.98626896182167,-0.000342956488616228,0
0.42,0.00141978156876083,0.000816851064211874,-0.0707402072551992,-0.0409146079029482,-0.00102665998482721,-0.00127632074325054,0.0513656856515006,0.0635590150955139,2.98626699840173,-0.00033134034689543,0
0.43,0.0014196912714346,0.000816850153560245,-0.0707387762069657,-0.0409145744846368,-0.00102664751540423,-0.00127622974368776,0.0513655507436175,0.0635575098735226,2.98626511831203,-0.000320217209155789,0
0.44,0.00141960481581367,0.000816849281533833,-0.0707374044970721,-0.0409145410555983,-0.00102663557630812,-0.00127614261557327,0.0513654199282663,0.0635560673764944,2.98626331801587,-0.000309566151676134,0
0.45,0.00141952235927564,0.000816848446495288,-0.0707361055538256,-0.0409144737726871,-0.00102662419463156,-0.00127605951116017,0.0513652620631132,0.0635547059328069,2.98626159412662,-0.00029936713876391,0
0.46,0.00141944312140368,0.000816847646877307,-0.0707348458022291,-0.0409144403252894,-0.00102661325226579,-0.00127597965633527,0.0513651390350181,0.0635533817330758,2.98625994340161,-0.000289600985068268,0
0.47,0.00141936725957574,0.000816846881177514,-0.070733638260838,-0.0409144068681093,-0.0010266027760701,-0.00127590320362092,0.0513650196181104,0.0635521127155928,2.98625836273532,-0.000280249319487955,0
0.48,0.00141929454096115,0.000816846147958559,-0.0707324762777094,-0.0409143734020617,-0.00102659273242764,-0.00127582992015535,0.0513649029736056,0.0635508921555956,2.9862568491548,-0.000271294550615903,0
0.49,0.00141922508197525,0.000816845445842961,-0.0707313703450581,-0.0409143399261526,-0.00102658314164985,-0.0012757599182379,0.0513647909052035,0.0635497302728127,2.98625539981271,-0.000262719833644966,0
0.5,0.00141915841695674,0.000816844773511684,-0.070730301781485,-0.0409143064422997,-0.00102657393389484,-0.00127569273521495,0.051364680698255,0.0635486084703721,2.98625401198236,-0.000254509038685598,0
0.51,4.56495454146999,-0.0477161966421344,11.7537874868685,2.39517289423826,-0.370892214849587,4.55011272015029,1.55674062820465,11.8939031480947,0.0708805964872095,21.7675962881805,4106.04472938809
0.52,4.66613267500678,0.0133148329534583,6.69652936079276,-0.655436719315573,-1.45560394105998,4.4333044777359,-2.72926939975927,6.1501375038713,0.320097791201279,46.2634514053332,4106.04472938809
0.53,4.57790375847226,0.0887115282480981,11.1097780712897,-4.42509919648717,-3.05566529754277,3.40998271938017,-10.8107979401682,5.11227147058087,0.750028707656442,71.1657449632953,4106.04472938809
0.54,4.56927735173701,0.00866064764658758,11.542969195081,-0.408027746150857,-4.47319286954914,0.932156679817932,-11.3871444440915,1.93379572075594,1.36724460227899,97.6272334049315,4106.04472938809
0.55,4.51327320185894,-0.0170700422544101,14.3450510103636,0.878501107886502,-3.67979002281661,-2.61324927416808,-12.2330917275441,-7.54345540664114,2.18452815037006,124.950393990354,4106.04472938809
0.56,4.55927725154971,-0.00285622178746259,12.0468770602742,0.177860147484967,0.23200503982108,-4.55337137470679,0.427849016956289,-12.0405907810254,-3.09131077698575,149.635204315841,4106.04472938809
0.57,4.49657775195815,0.0499132879657717,15.1839346286202,-2.45467210362594,4.23409399714164,-1.51464544996171,15.1536770678052,-2.63502509802183,-1.90323750807144,175.014285524835,4106.04472938809
0.58,4.51752053342719,-0.00022997285252413,14.1388974277725,0.0527076993008702,2.24878481509535,3.91802994861198,7.08456373301932,12.2360187678601,-0.521101778342458,201.413307463709,4106.04472938809
0.59,4.40973533125431,0.0114961168372401,19.5303460602964,-0.517944786440603,-3.80825423638872,2.22330778873333,-17.1519631761164,9.3548299419008,1.04497115294162,226.257172862889,4106.04472938809
0.6,4.54330917057117,-0.0354481744730784,12.8539303515955,1.83054911344671,-1.48134117793207,-4.29517672593718,-6.01137422528585,-11.5081629925882,2.80167992818998,252.30489069498,4106.04472938809
0.61,4.51168529204205,-0.0217512085367404,14.4374721881071,1.14003973670913,4.50895452709306,0.158449872541237,14.465387135025,-0.702046164789651,-1.54049067127436,278.008026480995,4106.04472938809
0.62,4.46317245803988,0.026900348080737,16.8654150157149,-1.27044405328021,-2.45872201462694,3.72495880161398,-10.431558853485,13.3131075121887,0.589446715356132,302.876942067461,4106.04472938809
0.63,4.5753423844246,0.0610617006489629,11.2593593105378,-2.98260254028727,-1.12596874905587,-4.43505139115071,0.275681754644291,-11.6444445795958,2.90631104596053,328.626537208742,4106.04472938809
0.64,4.51064676279245,0.0745080808372378,14.4965762818297,-3.6612263108853,3.50733939598422,2.83726206653123,8.76908439626575,12.1102626249638,-0.874105099174916,354.386963656912,4106.04472938809
0.65,4.51821678636274,0.0980741068942965,14.1205708057264,-4.84178171626798,-4.40773282576547,-0.997894180603697,-12.5297974191705,-8.11403393523017,1.81514230811403,379.898334870938,4106.04472938809
0.66,4.51101940168936,0.0552066560931121,14.4829944467927,-2.69177186480639,4.50876896246694,-0.152794831030448,14.5378437215447,2.37778549199367,-1.5924341664945,405.272753858216,4106.04472938809
0.67,4.44358858592588,0.0526175771027699,17.8572220650077,-2.55916838239893,-4.41538182780945,0.502644451915095,-18.024633953081,-0.736405829625297,1.46928557596676,430.57742485393,4106.04472938809
0.68,4.41352248481294,0.0906588353447773,19.3631804555415,-4.45927480089597,4.41388172849552,-0.0710481191083681,19.3431762225345,4.54526376877563,-1.56635318960519,455.904553001034,4106.04472938809
0.69,4.46381123268709,0.0585915485386139,16.851445227441,-2.84088043245232,-4.28674879521488,-1.24612537786026,-15.2897550651237,-7.63316434602714,1.8668174828079,481.128011581914,4106.04472938809
0.7,4.42266167125931,-0.0293298726028776,18.9116924686638,1.58053617889143,3.14621461133191,3.10839671201967,14.6443932584148,12.0702921561574,-0.798076119518891,506.1923032467,4106.04472938809
0.71,4.42696233782257,0.051651466706201,18.6994790221958,-2.45508582106736,-0.653373367216206,-4.37878597987215,-0.111435053814775,-18.8596273642702,3.00513906936686,531.276481823013,4106.04472938809
0.72,4.37453444721444,0.0983604514850731,21.3238648394789,-4.83193927022892,-2.77704572950071,3.38145581437108,-17.5646255286433,13.0207057735776,0.710050054577458,556.778754261542,4106.04472938809
0.73,4.47680639459724,0.0350063252572621,16.2131734782878,-1.63287597060379,4.41758858404332,0.726589319798248,15.6995579554876,4.36545051222867,-1.39996009117152,581.89158312365,4106.04472938809
0.74,4.39933388029278,0.0027981293136965,20.0897599680815,0.0111101968881666,-0.809926879501467,-4.32413747118204,-3.6969289677305,-19.7466780806079,2.95707039345504,606.852542096421,4106.04472938809
0.75,4.3683106950176,-0.0182189662095738,21.643980822563,1.03098273014436,-4.1022306913713,1.50139056001636,-19.935855036192,8.49037780156276,1.21577419264224,632.246313084448,4106.04472938809
0.76,4.28247072749445,0.087298640070445,25.9390197153057,-4.21349080739094,1.51742113668159,4.00557232843909,4.72302325683822,25.8510986205684,-0.341739809631687,657.119221576204,4106.04472938809
0.77,4.44638237246296,0.0815605036546077,17.7465360238204,-3.94084614144448,4.38855054380177,-0.719438977539391,18.1285818312842,1.35067758614934,-1.71494536795793,682.332734737361,4106.04472938809
0.78,4.31867236325746,0.0306733142657978,24.1351768536784,-1.41892368112814,0.984362539397378,-4.20510430600752,7.04704270443787,-23.1270252149521,-2.90454320391353,707.552382259512,4106.04472938809
0.79,4.29568706417367,0.0755498706008929,25.2875814028345,-3.60688607395891,-3.0409144329339,-3.0350411113906,-14.9889163751454,-20.6834181472598,2.3728134052591,732.348663564178,4106.04472938809
0.8,4.39127566302967,0.0750902073065722,20.5114295052953,-3.58529506962651,-4.38886847795369,0.163627537946654,-20.5795581280528,-3.1709412389827,1.55062938454898,757.339908618828,4106.04472938809
0.81,4.35920365707268,0.0972979311336999,22.1183104154676,-4.71093786589124,-3.38630084704951,2.74683271869812,-20.3695863152746,9.82306187274868,0.911603700403626,782.436335721758,4106.04472938809
0.82,4.36758860659376,0.131268414645322,21.7024164892158,-6.41942963468539,-1.80356938567026,3.97997476175467,-15.312478888364,16.6652917346042,0.455525592014376,807.455771577188,4106.04472938809
0.83,4.3268803052456,0.0457549651207415,23.7411284617619,-2.13772218269798,-0.740202762279209,4.26334218231069,-6.41052601877442,22.9590111488038,0.182480845634301,832.456097284971,4106.04472938809
0.84,4.3538162518985,0.11439583841161,22.3976742506829,-5.56776370938764,-0.287490671264093,4.34582000053816,-7.60900003656525,21.7889633302465,0.092325927544073,857.394396045012,4106.04472938809
0.85,4.2756112991767,0.0898313956027017,26.3114180187239,-4.32566365051808,-0.697833932101441,4.21923564931982,-9.08965795162311,25.0675128901121,0.184916711849525,882.204843114284,4106.04472938809
0.86,4.38087321695513,0.113010626692518,21.0517972797656,-5.45810329897441,-1.84228924594377,3.97627864705935,-14.231162008825,16.445153943007,0.459666076213591,906.996638575079,4106.04472938809
0.87,4.34932182994181,0.131720911538964,22.6329206334626,-6.37343999556419,-3.37132246047926,2.75102447215817,-21.8388493817563,8.71403990458133,0.916646768711774,931.792210229015,4106.04472938809
0.88,4.17996318347555,0.108696885374975,31.1043651633029,-5.29607835003033,4.15422015794575,0.475775269868536,30.06072352403,9.58555576446039,-1.4307665781129,956.840637287802,4106.04472938809
0.89,4.26380689829984,0.146626876693024,26.9157654623147,-7.16460428821447,2.56068010630325,3.41239887764324,9.53061556385523,26.1716898958213,-0.609384879850666,981.639980329793,4106.04472938809
0.9,4.32793041868398,0.146308535774283,23.713212448222,-7.09064432637108,-1.52523241039943,4.05290685692105,-15.6453230840783,19.1785699981103,0.393729402822778,1006.27155434149,4106.04472938809
0.91,4.24881800997165,0.00341858832436959,27.6724463448339,-0.00503721597497997,-4.24871467712686,-0.0298288614000934,-27.6715596971104,-0.221576195721842,1.57862148764916,1031.29276291976,4106.04472938809
0.92,4.17823717398792,0.101877338178072,31.2051888819494,-4.867778846592,-0.915356446463134,-4.07801023172419,-1.31592919974446,-31.5551487779527,2.94516880824032,1055.8401309549,4106.04472938809
0.93,4.2765939600556,0.0632906821105306,26.291159568394,-2.99023283502034,4.16020082840794,-0.992970632466009,26.3114353491287,-2.80623123192158,-1.79029774647777,1080.72538469962,4106.04472938809
0.94,4.17346234264821,0.11590759746605,31.4514779258588,-5.5503819563237,0.372078176139844,4.15845888851789,-3.60773070995696,31.7330503214913,-0.0614719938520328,1105.27931292371,4106.04472938809
0.95,4.19193282336892,0.0722712991063714,30.531721905419,-3.39109007551044,-4.05090364791493,-1.08060333685482,-28.4297425967123,-11.6376660157761,1.84872108979196,1130.04188529995,4106.04472938809
0.96,4.16137893430897,0.064176367622335,32.0632713706816,-3.02684484460834,2.93495398286633,-2.95080300249419,25.0717698547766,-20.2143888617098,-2.34346658171349,1154.82536574067,4106.04472938809
0.97,4.19088488013686,0.182037104106378,30.5918082263797,-8.93788509500827,0.480969468299485,4.16717193746489,-6.72956409524824,31.1521666601074,-0.0715010688820413,1179.48243336514,4106.04472938809
0.98,4.14440125563251,0.203218393995896,32.9197837939858,-9.90605938743584,-3.00287379979478,-2.86358314456777,-15.5032361515659,-30.6837391212178,2.38145057378798,1204.07581134667,4106.04472938809
