t,iq,id,vq,vd,ia,ib,va,vb,theta_e,omega,r
0,0,0,0,0,0,0,0,0,0,0,0
0.01,0.0010727335674089,0.00061544641031257,-0.0529742228331358,-0.0308368238222342,0.00102246001053395,-0.000695778066247687,-0.050457550812506,0.0348024935058052,-1.64744063140233,-0.00130035007029145,0
0.02,0.00120396395806706,0.000690996106322786,-0.0595709263748617,-0.0346222391366492,0.00114751279833449,-0.000781165289126631,-0.0567446634525026,0.039082449790881,-1.6474503074457,-0.00143185124755796,0
0.03,0.0012327454387532,0.000707477052601691,-0.0609922787413745,-0.0354479994176798,0.0011749396350624,-0.000799813697484749,-0.0580982042367531,0.0400152145220525,-1.64746035292928,-0.00143546762666782,0
0.04,0.00121784521364573,0.000699051453898877,-0.0602742519910966,-0.0350258428622381,0.00116072100371847,-0.000790282640024905,-0.05741424481049,0.0395398484334162,-1.64746981752107,-0.00138690815223191,0
0.05,0.00123260611700636,0.000707511150573576,-0.0610086250585779,-0.0354497231345966,0.00117478284859145,-0.000799859441728864,-0.0581136068997951,0.0400192940336756,-1.64747943457255,-0.00137454817018486,0
0.06,0.00123257707429892,0.000707549727167546,-0.0610186311053911,-0.0354516338587873,0.00117474340163996,-0.000799906745068157,-0.05812306019317,0.0400225131521555,-1.64748885363229,-0.00134452568056531,0
0.07,0.00126491048410051,0.000726111508134062,-0.0626127686887805,-0.0363816723175945,0.00120555210463222,-0.000820902295068618,-0.0596408790607229,0.0410725020952435,-1.64749800239565,-0.00135539005471773,0
0.08,0.0012325390352246,0.000707635201451928,-0.0610388090803346,-0.0354559215218447,0.00117468437205223,-0.000800010423521196,-0.0581421221459888,0.0400293919173109,-1.64750704552815,-0.00128656376148191,0
0.09,0.00123228264267503,0.000707543300444747,-0.0610369056973424,-0.0354513137369993,0.00117442875331672,-0.000799909455391881,-0.0581402260661596,0.04002516228276,-1.64751582541805,-0.00125829543679129,0
0.1,0.00123218783601997,0.000707540619729732,-0.0610426659845541,-0.0354511760215082,0.00117432757081402,-0.000799909587534215,-0.0581456366939979,0.0400259651383873,-1.64752440166954,-0.00123087526362757,0
0.11,0.00123209583448096,0.000707538423445005,-0.0610483217009219,-0.03545108806814,0.00117422930702634,-0.00079991018278105,-0.0581509471859567,0.0400267981368775,-1.64753277926517,-0.00120409119221368,0
0.12,0.00123200626651487,0.000707536280013309,-0.0610538607920058,-0.0354509707524088,0.00117413362089414,-0.00079991078787137,-0.0581561514047202,0.0400275817242189,-1.64754096280744,-0.00117792753349988,0
0.13,0.00128752944836432,0.000739394363599892,-0.063782393799241,-0.0370472055742962,0.00122704387956439,-0.000835942236612193,-0.0607539228147651,0.041828818561408,-1.64754928539208,-0.00122010289592069,0
0.14,0.00140037186411378,0.000804487074018177,-0.0694947536516167,-0.040308682244708,0.0013345556217915,-0.0009095065158692,-0.0661990172870945,0.0455192350509836,-1.64755731632578,-0.00133409982210151,0
0.15,0.00123257705802659,0.000708000176432751,-0.0611112129043825,-0.0354742115665244,0.00117464775560986,-0.000800445565946253,-0.0582105815119688,0.0400565628698936,-1.64756521234503,-0.00110143350714146,0
0.16,0.00123166326738377,0.000707530261728842,-0.0610754848099199,-0.035450676776933,0.00117376674946193,-0.000799915678895043,-0.0581764660379706,0.0400307897504182,-1.647572646022,-0.00107663788519156,0
0.17,0.0012315797529266,0.00070752609016165,-0.0610801967773413,-0.0354504460312539,0.00117367799356617,-0.000799913635023597,-0.058180891192956,0.0400313434969025,-1.64757990612321,-0.0010534214564308,0
0.18,0.00123150207045129,0.000707524221308702,-0.0610849894864405,-0.0354503581531552,0.00117359501042896,-0.000799914135867438,-0.0581853926189404,0.0400320361651176,-1.6475869980496,-0.00103074778390671,0
0.19,0.00123142601778798,0.000707522406394842,-0.0610896618628055,-0.0354502702833423,0.00117351377961787,-0.000799914621620889,-0.0581897806356311,0.0400327101162421,-1.64759392570299,-0.0010085993336467,0
0.2,0.00123135194418263,0.00070752063352538,-0.0610942361674386,-0.0354501824207858,0.00117343464721426,-0.000799915111761015,-0.0581940772866526,0.0400333672741234,-1.64760069288906,-0.000986963915140456,0
0.21,0.00123127950038927,0.000707518901676553,-0.0610986994640485,-0.0354500945658686,0.0011733572621037,-0.000799915582906693,-0.0581982695254988,0.0400340068587263,-1.64760730332457,-0.000965829644752825,0
0.22,0.00123120880282322,0.000707517209899878,-0.0611030620541215,-0.0354500067179708,0.0011732817375235,-0.000799916047374809,-0.058202367478431,0.0400346298671497,-1.64761376064043,-0.000945184914234204,0
0.23,0.00123113973506917,0.000707515557269142,-0.0611073224165129,-0.0354499188771627,0.00117320795463292,-0.000799916499536098,-0.058206369487245,0.0400352363853067,-1.64762006838292,-0.000925018384220424,0
0.24,0.00123107195903835,0.000707513942879797,-0.0611114679015878,-0.0354498603939566,0.00117313557363497,-0.000799916916668215,-0.0582102605485183,0.0400358549042159,-1.64762623001755,-0.000905318978004207,0
0.25,0.00123100615090912,0.000707512365847964,-0.0611155364823158,-0.0354497725640621,0.00117306526607201,-0.000799917353818046,-0.0582140828937765,0.0400364300007071,-1.64763224892775,-0.000886075875451784,0
0.26,0.00124014914369028,0.000712764020925474,-0.061570288253874,-0.0357128928417737,0.00118177343737245,-0.000805862265429085,-0.0586470591655377,0.0403340248676855,-1.64763811460675,-0.000878710038838816,0
0.27,0.00119434409930656,0.000686539328747432,-0.059334687659549,-0.0343989281846939,0.00113811221050161,-0.00077620530388069,-0.0565186975053269,0.0388526479433941,-1.64764393430221,-0.000803531280958184,0
0.28,0.00116712190561758,0.000670774848148806,-0.0578489210056826,-0.0336090404618847,0.00111217633952551,-0.000758403737649739,-0.0550977424390994,0.0379513377946677,-1.64764959014103,-0.000751856871648131,0
0.29,0.00123044118369102,0.00070732825322273,-0.0611153790662222,-0.0354405520205456,0.00117249793471036,-0.000799717048355244,-0.0582137245650603,0.0400285467909132,-1.64765496182193,-0.000813069337720337,0
0.3,0.00122891235480482,0.000706495355840738,-0.06104651778355,-0.0353988278361695,0.00117103362728688,-0.000798775004228226,-0.0581480728543542,0.0399819455379146,-1.64765989971415,-0.00079545860296271,0
0.31,0.00123063694669248,0.000707498850893734,-0.0611372931309293,-0.0354490863635788,0.00117267188258854,-0.000799914104367954,-0.0582345112895493,0.0400393310415771,-1.64766513573848,-0.000780922220601981,0
0.32,0.00123058965999102,0.000707502383564755,-0.0611411717939127,-0.0354492723475595,0.001172620370495,-0.000799919996453895,-0.058238159303843,0.0400401123775196,-1.64767025344771,-0.000764571289314979,0
0.33,0.00123053480605161,0.000707501097131435,-0.0611445356895304,-0.0354492168031148,0.00117256177842223,-0.000799920362992441,-0.0582413173609302,0.0400406064977281,-1.64767525262842,-0.00074858842396792,0
0.34,0.00123048123267666,0.000707499817494834,-0.0611478214460527,-0.03544915835022,0.00117250455526345,-0.000799920698326496,-0.0582444023663216,0.040041085004372,-1.64768013601158,-0.000732975721899819,0
0.35,0.00123042927795064,0.000707498567364175,-0.0611510492035193,-0.0354490705634245,0.0011724490342129,-0.000799921054250818,-0.058247436323262,0.0400415232511131,-1.64768490627946,-0.000717724661619384,0
0.36,0.00123037814929466,0.000707497346167708,-0.0611541826143581,-0.0354490121154644,0.00117239442298,-0.000799921372424502,-0.058250378380226,0.0400419770959565,-1.64768956605162,-0.000702826866564292,0
0.37,0.00123032830120611,0.000707496153236842,-0.0611572474360292,-0.0354489536687394,0.00117234117272153,-0.000799921690126948,-0.0582532563696696,0.040042419413538,-1.64769411788792,-0.000688274153941597,0
0.38,0.00123027961726966,0.000707494987917792,-0.0611602409936391,-0.0354488952234093,0.00117228916541458,-0.000799922000728542,-0.0582560675246786,0.0400428501423206,-1.64769856428891,-0.000674058530497203,0
0.39,0.00123023209748531,0.000707493849571613,-0.061163166228648,-0.0354488367795877,0.00117223839915384,-0.000799922306486075,-0.0582588146804561,0.0400432696488105,-1.64770290769602,-0.000660172188128413,0
0.4,0.00123018550902242,0.000707492737575011,-0.0611660145329888,-0.0354487783373968,0.00117218863993478,-0.000799922591716218,-0.0582614891590247,0.040043677409006,-1.64770715049529,-0.000646607499590936,0
0.41,0.00123013986304881,0.000707491651318119,-0.0611687892252114,-0.0354487492246165,0.00117213989707357,-0.000799922859427677,-0.0582640919224712,0.0400441030529829,-1.64771129501735,-0.000633357014315881,0
0.42,0.00123009548647537,0.000707490590205746,-0.0611715095027853,-0.0354486907836629,0.00117209249473829,-0.000799923136841867,-0.0582666465276195,0.0400444897027112,-1.64771534353844,-0.000620413454312386,0
0.43,0.00123005239046934,0.000707489553656077,-0.061174178617086,-0.035448632342946,0.00117204644232783,-0.000799923426871899,-0.0582691538739041,0.040044866977926,-1.64771929828202,-0.000607769710172724,0
0.44,0.00123000999295414,0.000707488541100937,-0.0611767702026945,-0.0354485739042125,0.00117200115779142,-0.000799923686792527,-0.0582715875868943,0.0400452329794523,-1.64772316142075,-0.000595418837166296,0
0.45,0.00122996842151484,0.000707487551985056,-0.061179293150607,-0.0354485447906277,0.00117195676668153,-0.000799923928362501,-0.0582739541928757,0.040045617749108,-1.64772693507616,-0.00058335405142531,0
0.46,0.00122992823588907,0.000707486585766566,-0.0611817780048299,-0.0354484863520331,0.00117191382546278,-0.000799924196512414,-0.0582762885700912,0.0400459652771415,-1.64773062132101,-0.000571568726219051,0
0.47,0.00122988886516945,0.000707485641915603,-0.0611841988008006,-0.0354484279144746,0.00117187176333635,-0.000799924449232223,-0.0582785624960896,0.0400463029241523,-1.64773422218011,-0.000560056388312967,0
0.48,0.0012298502041118,0.000707484719914286,-0.0611865526294404,-0.0354483987991556,0.00117183047382613,-0.000799924680253369,-0.0582807707375359,0.0400466598149962,-1.64773773963148,-0.000548810714415616,0
0.49,0.0012298126960318,0.000707483819257589,-0.0611888640097017,-0.0354483374516481,0.0011717903974291,-0.000799924925430669,-0.0582829423949425,0.0400469765734132,-1.64774117560667,-0.000537825527702257,0
0.5,0.00122977566478779,0.000707482939451334,-0.061191101533694,-0.0354483083356317,0.00117175085853129,-0.000799925134528314,-0.0582850411227332,0.0400473151670141,-1.6477445319933,-0.000527094794425506,0
0.51,4.57353199066585,-0.0836641230422107,11.3251097853872,4.19610414110647,-0.486700323029523,4.54833127099284,3.18093593651586,11.6510535224016,0.0883096420354872,27.1508336210859,1372.38296792428
0.52,4.58312819210101,-0.0755263816923633,10.8472725119622,3.79309423667465,-1.85030666497048,4.19370164712852,-0.719482075137805,11.4687937631043,0.399043143652826,57.6400872550441,1372.38296792428
0.53,4.63823342035177,0.0131777371377655,8.09399225760978,-0.646193353516632,-3.72198136238103,2.76771343395814,-6.89286595390237,4.29169843510815,0.93423659967853,88.497051377045,1372.38296792428
0.54,4.50962377187667,-0.0205806533760329,14.5264546044758,1.05063938912951,-4.46964068296393,-0.599535063496919,-14.5410970006649,-0.823543878091276,1.69957171151694,120.581774922077,1372.38296792428
0.55,4.59772525369226,-0.00431174583936444,10.1235304007972,0.235303429185559,-1.92634408950498,-4.1747208946732,-4.46371172352154,-9.08936263601294,2.70833597799827,154.967015230916,1372.38296792428
0.56,4.52168928087457,0.0598106868353314,13.9275138676852,-2.97312751557055,3.28062908933559,-3.11235024527138,12.2474340070213,-7.26742664235866,-2.31665138458463,187.735162740949,1372.38296792428
0.57,4.53085577194137,0.0438970210681828,13.4712585355238,-2.1670248702258,3.36689628795415,3.03225829387169,8.45652800868367,10.7078446644247,-0.827956508600938,218.323699786072,1372.38296792428
0.58,4.5464819037411,0.0360589937590763,12.6922730015907,-1.76759751786613,-3.50461761040724,2.89645530897676,-10.9624619379494,6.63646164692345,0.888054276622164,250.581304801791,1372.38296792428
0.59,4.58472671018914,0.0723563671992566,10.7822844656336,-3.58834172121016,-1.3923714677403,-4.36878199808811,0.324041063750521,-11.3590867588475,2.84884168906238,283.547919198569,1372.38296792428
0.6,4.51238295572881,0.0138899078376817,14.4016973451385,-0.64635451116981,4.27806811906624,1.43524424308919,13.4321609256065,5.23485562777893,-1.24402887864018,314.359897010276,1372.38296792428
0.61,4.45303297148026,-0.0033943287085193,17.3715391998236,0.212855297178029,-4.12535151640227,1.67660043918495,-16.0079481424368,6.74990946736314,1.18401068259478,347.691275291755,1372.38296792428
0.62,4.54941979757263,0.0829560713311337,12.5546161728031,-4.09646010306392,2.87844325136119,-3.52401286220832,11.2428514193159,-6.92803468420805,-2.43845398904358,378.517161616515,1372.38296792428
0.63,4.44667315724448,0.0530681851467776,17.6943614064089,-2.60496018447186,-1.92266292705244,4.00987352276496,-10.1753385337071,14.7084577324665,0.459032831487811,411.229931486017,1372.38296792428
0.64,4.53531940911362,0.0052678048286382,13.2644843560899,-0.211170296630592,1.95155884824617,-4.09396726346004,5.91215385861783,-11.8759241694768,-2.69560371259049,443.317302741812,1372.38296792428
0.65,4.4279879447113,0.0399108631777167,18.6335808212409,-1.92760360038549,-2.71693815399548,3.49670089982998,-13.0763463244173,13.4139910789382,0.66957172190693,474.417560490248,1372.38296792428
0.66,4.48777265825051,0.0224881545019333,15.6468087848829,-1.05749582142712,4.04318386471737,-1.94763276449203,14.5845568602456,-5.76468765444311,-2.01469235100349,506.834609797332,1372.38296792428
0.67,4.41662729515967,0.0635380593809405,19.206651894768,-3.11952475251333,-4.29904376056135,-1.01432563514774,-17.868044185009,-7.70453818803595,1.81688605566542,539.084320549275,1372.38296792428
0.68,4.45859447922608,0.0619312362641672,17.1108878175998,-3.0374813991992,1.79803270577673,4.08043853000725,3.88522791164308,16.9385294294267,-0.401159331605909,570.846767379127,1372.38296792428
0.69,4.49601341495072,0.0797269356674521,15.2425850682756,-3.9112375528937,3.02620756982289,-3.32604280730636,13.3021140018865,-8.40761213660565,-2.38562995429581,602.314575119801,1372.38296792428
0.7,4.46110533957161,0.0777602690700869,16.9906657063112,-3.79863047628283,-3.78437507182445,-2.36347473562844,-12.1839827325897,-12.4363531395229,2.14649015274546,633.902516186613,1372.38296792428
0.71,4.40041666994727,0.107284738733019,20.0278148554969,-5.27441046777694,-2.49856325578194,3.62385961940735,-16.03501307325,13.1076744470314,0.628003476045667,665.620240763906,1372.38296792428
0.72,4.43790874448804,0.0454688809535164,18.1559193927028,-2.17164378612287,2.74840856981179,3.48473123453211,9.37796388738215,15.697364079841,-0.657567597022092,697.42895255147,1372.38296792428
0.73,4.36040858349215,0.027073972027887,22.0336766170301,-1.25478794235116,4.314157146657,-0.633990637865956,21.993740148149,-1.82559369516582,-1.71049882598291,729.326896178876,1372.38296792428
0.74,4.38148411772008,0.0837323683153477,20.9827379265893,-4.11083144345721,2.44408498432571,-3.63742529445357,15.40079970898,-14.8320461965411,-2.53084880322475,761.25987615834,1372.38296792428
0.75,4.38726920720825,-0.00695568208422004,20.6963223978942,0.439423180980003,0.106869256656564,-4.38597291829448,0.0320274643713225,-20.7009620011024,-3.11881675068095,793.004680607899,1372.38296792428
0.76,4.45950682088017,0.058035800866439,17.0872641640071,-2.80033906586469,-1.51291319284648,-4.19543357837662,-2.94037085480393,-17.0637251129579,2.80851082472582,824.459322884817,1372.38296792428
0.77,4.44375029711941,0.0424476761119599,17.8779362957301,-2.00030190664265,-1.99982878714303,-3.96855179259011,-6.0975750344241,-16.9245795401679,2.68436666296237,855.828537072775,1372.38296792428
0.78,4.38087864150281,0.0923225537436747,21.0244757469333,-4.52285786422853,-1.58702278445237,-4.08435794307187,-2.95070720532283,-21.302069164329,2.79205695063911,887.731593142978,1372.38296792428
0.79,4.11995863150755,0.108202705017639,19.8611251277612,-5.3181963734199,-0.158563201761561,-4.11832789633776,5.07498659691685,-19.9246584675361,3.12936684199943,918.325211738627,1372.38296792428
0.8,3.80595322666735,0.0920605730931072,22.6753443017735,-4.49035391474196,1.88187694230415,-3.30942506890877,15.5306376271606,-17.1211510237318,-2.60036611300847,946.638165061059,1372.38296792428
0.81,3.65296850988969,0.0567672942345147,17.9290916806122,-2.75838782310147,3.50308481030568,-1.03720695704667,18.0103068439381,-2.16561290669184,-1.84311769932401,973.95889288202,1372.38296792428
0.82,3.4833890352459,0.104817632775767,14.9453526784478,-5.1373441517585,2.78239605838557,2.09839416728424,8.44100146835398,13.3605900254457,-0.894551379911332,998.885388308833,1372.38296792428
0.83,3.19531724070576,0.0144538530448453,18.481552499798,-0.649103766751014,-0.724510095651824,3.1121289022015,-4.90339204664586,17.8310365638033,0.233251473045451,1022.87139919391,1372.38296792428
0.84,2.99734090036542,0.0597389988136595,18.2736169786301,-2.8863054125027,-2.99233328781697,0.183201298044314,-18.377033068225,-2.13084303159213,1.52957711706355,1044.8645691912,1372.38296792428
0.85,2.76170865081035,0.0782823305047728,20.4127979295144,-3.85238763419684,-0.510413730701138,-2.71526069075176,0.603520386215142,-20.7643678675447,2.98411941940659,1066.03294735918,1372.38296792428
0.86,2.59121240007865,0.0789249725290199,20.0869900980722,-3.85539646735466,2.56107397124175,-0.40188427120015,20.4112011692195,1.31685988252156,-1.69599795091312,1085.51638355857,1372.38296792428
0.87,2.44390554484321,-0.00191064021935161,18.9338315639262,0.177610692454768,-0.116825780686638,2.44111238979863,-0.712891835858891,18.9212396126567,0.0470393156608166,1104.00092228407,1372.38296792428
0.88,2.34992070968786,0.0344438701085039,15.6898606375584,-1.67218451329683,-2.21904945338084,-0.774036979386746,-14.1633275257193,-6.95471647673119,1.92107118448866,1121.51757358139,1372.38296792428
0.89,2.20732350203865,0.0961797958881956,15.4441577417047,-4.72912479314975,1.47893852560025,-1.64142268574691,14.1999045528404,-7.6973593101832,-2.364674234018,1137.65436352263,1372.38296792428
0.9,2.00284813177668,-0.0186487544172751,18.613243286184,1.00936966515036,0.479957809052271,1.94457936750661,5.60596767732675,17.7776483020777,-0.251292753053195,1152.94659521197,1372.38296792428
0.91,1.86215910490123,-0.0095648001456824,19.0514042941751,0.526833048013935,-1.71151360397914,-0.733790978932487,-17.7533836394166,-6.93187766714687,1.97069249992622,1167.40671460278,1372.38296792428
0.92,1.79525146664329,0.0174795650454099,16.2522323912567,-0.843706739437791,1.63379246771781,-0.744281892905911,15.1970345563717,-5.82211640677437,-1.98852371181644,1180.95924832026,1372.38296792428
0.93,1.74150973559991,0.100089523193854,13.1750500077501,-4.93808257158812,-1.5702274957742,-0.759776074483211,-9.10855932002154,-10.7238402311946,2.07886145039678,1193.52214451632,1372.38296792428
0.94,1.57010134005548,0.113868548730282,16.2425695368283,-5.63929983161596,1.54419150202705,-0.306034098592614,16.8126531673939,3.59964737474198,-1.69404884636674,1205.44076925517,1372.38296792428
0.95,1.53578522437968,0.0686431917950471,12.8000851417557,-3.38946547506416,-1.16128981163496,1.00735004670451,-12.1385012363613,5.29031601869891,0.900929873700309,1216.69149816126,1372.38296792428
0.96,1.33669404049795,-0.0148624966920329,17.9357133382842,0.771568582073542,0.575207822996994,-1.20669292368594,6.83702283000634,-16.5994051053621,-2.70789189717764,1227.22466958996,1372.38296792428
0.97,1.27999130427094,0.0301521914585402,16.2711575038718,-1.4960541742336,-0.0224489078659512,1.28014957727392,-2.16312952491081,16.1959752798806,0.0410865666101947,1237.09081300991,1372.38296792428
0.98,1.2667525612022,-0.00999370531052113,12.6989654113725,0.513975710723878,-0.342266736816908,-1.21967840282874,-4.02115407906754,-12.0564594065939,2.86011960516869,1246.34192518629,1372.38296792428
