t,iq,id,vq,vd,ia,ib,va,vb,theta_e,omega,r
0,0,0,0,0,0,0,0,0,0,0,0
0.01,0.00103606660999556,0.000588081743556281,-0.0511048756030084,-0.0294435690670113,-0.00118054374244549,-0.000159970714897056,0.0584954833055078,0.00754390500058714,2.22174467250232,-0.0014588975462268,0
0.02,0.00114586775510912,0.000650752857004483,-0.0566390421116582,-0.032581321686356,-0.00130586850197752,-0.000176634222735315,0.064799349074959,0.00840047460668793,2.22173391234328,-0.00153010320894403,0
0.03,0.00118703856999531,0.000674402223541474,-0.0586964385046165,-0.0337653972800514,-0.00135295243914048,-0.000182752902023497,0.0671536048015664,0.00870444189830494,2.22172311616405,-0.0014996009974025,0
0.04,0.00116174733091005,0.000660813706242702,-0.0574918573973428,-0.0330850552710845,-0.00132460083480145,-0.000178225261055025,0.0657831816875188,0.00851513689578787,2.22171326728089,-0.00137891251860729,0
0.05,0.00118560990340271,0.000674697383050479,-0.0586962897526579,-0.0337801594519445,-0.00135199827688006,-0.000181626157408802,0.0671626001425566,0.00869130286078145,2.2217036817501,-0.00133307801817189,0
0.06,0.00118547256011431,0.000675113266567097,-0.0587221757060944,-0.0338009860776109,-0.00135214264672106,-0.000181199824495051,0.0671958911685433,0.00868980952274289,2.22169461034537,-0.00125613273154382,0
0.07,0.00121740795494628,0.000693787550322649,-0.0603182130221385,-0.0347359700892049,-0.00138886486238926,-0.000185681683990775,0.069032185535419,0.00891245198728775,2.22168618624044,-0.00123205224532378,0
0.08,0.00118484702533751,0.000675683149147597,-0.0587508983095757,-0.0338295141312401,-0.00135199328147178,-0.000180345109022447,0.0672361698125265,0.00868340644441889,2.22167808742338,-0.00111542723078077,0
0.09,0.001183048552099,0.000675131481811605,-0.0586897272086439,-0.0338018850626211,-0.00135022960730088,-0.000179684172716416,0.0671708301332372,0.00866781938110586,2.22167057640223,-0.00104922784045043,0
0.1,0.00118228668480041,0.000675111371130632,-0.0586777160180998,-0.0338008879642873,-0.00134961257904227,-0.000179229057290134,0.0671607315014906,0.00866086187742018,2.22166352787979,-0.000988473150380528,0
0.11,0.00118160153576046,0.000675107558924746,-0.0586679147844906,-0.0338006970552951,-0.00134906637628732,-0.000178808047357533,0.0671528756485998,0.00865463105555484,2.2216569106825,-0.000931480364715518,0
0.12,0.00118095902161454,0.000675104435299236,-0.0586587472920039,-0.0338005547749396,-0.00134855443187979,-0.000178412873837169,0.0671455498605631,0.00864877279638586,2.2216506983291,-0.000877975849470396,0
0.13,0.0012373576542084,0.000707438582393835,-0.0614460175301367,-0.0354194205376236,-0.00141301461196678,-0.00018685025730752,0.0703438804606029,0.0090491382616966,2.22164455070929,-0.000909298779253969,0
0.14,0.0013011233575743,0.000744758144056432,-0.0647131477687097,-0.0372879097160587,-0.00148635631176049,-0.000195784573584229,0.0740752121910439,0.00954162690423475,2.22163880875704,-0.00095493901495028,0
0.15,0.00118307641099843,0.000677204409781785,-0.0588249265552337,-0.0339056846617488,-0.00135151434780663,-0.000178001613929915,0.0673416014887174,0.00866464918766813,2.22163335065566,-0.000734345391854477,0
0.16,0.00117879712049462,0.000675157186487734,-0.0586323065080521,-0.0338031931604832,-0.00134687037407299,-0.000177031277453787,0.0671263039487484,0.00862916870152357,2.22162856832998,-0.000687565069255994,0
0.17,0.0011782121390778,0.00067509304425023,-0.0586197233424599,-0.0337999830582023,-0.00134636690564817,-0.000176721867466052,0.0671143868235528,0.00862379851224662,2.22162408960028,-0.000648811441484693,0
0.18,0.00117777349490638,0.000675089064119782,-0.0586133279641921,-0.0337997759937317,-0.00134601625853342,-0.000176453624394109,0.0671092095644457,0.0086198064885294,2.2216198852345,-0.00061259514565913,0
0.19,0.00117736546806284,0.000675087029552726,-0.0586075085429714,-0.0337996620494704,-0.00134569110132711,-0.000176202731721676,0.067104544696726,0.00861610662178561,2.2216159381037,-0.000578599926338409,0
0.2,0.00117698226457169,0.000675085170707865,-0.0586020371978601,-0.033799579078024,-0.00134538575533486,-0.000175967065577646,0.0671001734112885,0.00861260923100451,2.22161223245936,-0.00054668471055321,0
0.21,0.00117662257697317,0.000675083426896002,-0.0585969033098835,-0.0337994960885464,-0.00134509914651781,-0.000175745861828094,0.0670960686162924,0.00860933154114058,2.22160875352667,-0.000516722076414814,0
0.22,0.0011762848918644,0.000675081789596111,-0.0585920825020192,-0.0337994101709127,-0.00134483006839255,-0.000175538191343122,0.0670922092782192,0.00860626016296652,2.22160548743561,-0.000488592559437644,0
0.23,0.00117596792868413,0.000675080252272497,-0.0585875588979604,-0.0337993271448828,-0.00134457750073626,-0.000175343265669859,0.0670885864075951,0.00860337996949054,2.22160242116432,-0.000462184009183659,0
0.24,0.00117567020092226,0.000675078808830358,-0.0585833033637998,-0.0337992721299255,-0.00134434025956586,-0.000175160172353222,0.0670851921520814,0.00860065250118102,2.22159954248781,-0.000437391136752744,0
0.25,0.00117539095629837,0.000675077453546244,-0.0585793207455444,-0.0337991861489177,-0.00134411774511169,-0.00017498844450515,0.0670819947388547,0.00859812684221523,2.22159683992917,-0.000414115094831245,0
0.26,0.00118713138347081,0.000681850537100977,-0.0591639413035573,-0.0341383021883277,-0.00135756215394969,-0.00017670901145577,0.0677525845291014,0.00868233358604292,2.2215943350635,-0.000410271647970882,0
0.27,0.00114594535597269,0.000658461045397431,-0.0571536275368741,-0.0329672641701879,-0.00131062509594025,-0.000170363039045668,0.0654437587315894,0.00839595679909106,2.22159182836099,-0.000328211243933075,0
0.28,0.0011399162372839,0.000654907319777094,-0.0567541196774525,-0.0327893407920167,-0.0013036757817972,-0.000169534897518393,0.0650181386584961,0.00829533696254612,2.22158957665464,-0.000300253962781923,0
0.29,0.00117331536187255,0.000674462351834872,-0.0585107947600044,-0.0337684007323972,-0.00134209537339095,-0.000174207953811975,0.0670089044151223,0.00858048486719307,2.22158758484517,-0.000332751944690513,0
0.3,0.00116775431411707,0.000671524218236536,-0.0582435655532451,-0.0336213074252191,-0.00133589127027291,-0.000173174558829707,0.0667071969851175,0.00853552058898486,2.22158607614515,-0.000311772152046016,0
0.31,0.00117387550726359,0.000674963724676698,-0.0585503589913785,-0.0337935028735233,-0.00134284535403781,-0.000174143881092256,0.0670556181006527,0.00858425626490357,2.22158421644124,-0.000305083567423795,0
0.32,0.00117389664859781,0.000675066984861638,-0.058557728692207,-0.0337986620122583,-0.00134292503775104,-0.000174072164979674,0.0670646221055572,0.00858449796131439,2.22158245214386,-0.000290188899242342,0
0.33,0.00117373166142048,0.000675069305964728,-0.0585555861189251,-0.0337987918658132,-0.00134279546707626,-0.000173968142129626,0.0670630103460526,0.00858298553212413,2.22158079519454,-0.000275927944613473,0
0.34,0.0011735713037323,0.000675068620724499,-0.0585533063806802,-0.0337987394893311,-0.00134266774043414,-0.000173869452257436,0.0670611781854937,0.00858154179334544,2.22157923959844,-0.000262530535583269,0
0.35,0.00117342016974721,0.00067506789065834,-0.058551136105163,-0.0337987121584555,-0.00134254730827057,-0.00017377651401415,0.0670594474665744,0.00858015082928054,2.22157777917345,-0.000249952493446115,0
0.36,0.00117327834898759,0.000675067202593603,-0.0585491010891531,-0.0337986847995369,-0.00134243429547367,-0.000173689304669864,0.067057823574258,0.00857884782532,2.22157640809734,-0.00023814396801206,0
0.37,0.00117314525937683,0.000675066556511077,-0.0585471924457615,-0.0337986574141173,-0.00134232823991994,-0.000173607464215975,0.0670562994865344,0.00857762702908587,2.22157512090395,-0.000227057889148852,0
0.38,0.00117302031883831,0.000675065949922957,-0.0585454000584119,-0.033798630003831,-0.001342228677926,-0.000173530635064651,0.0670548672001327,0.0085764819656975,2.22157391246115,-0.000216650057787432,0
0.39,0.00117290294529095,0.00067506538041952,-0.0585437126266157,-0.0337985996600249,-0.00134213514579202,-0.000173458459992491,0.0670535160039963,0.00857540777970435,2.22157277795107,-0.000206878978682117,0
0.4,0.00117279290591304,0.000675064845734761,-0.058542135237222,-0.0337985722037487,-0.00134204745772475,-0.000173390793646551,0.0670522535109534,0.00857440261756129,2.22157171285054,-0.000197705695262385,0
0.41,0.00117268950220819,0.000675064343740847,-0.0585406486799717,-0.0337985447269812,-0.00134196505746523,-0.000173327208833145,0.0670510627121705,0.00857345687002621,2.22157071291308,-0.000189093634324954,0
0.42,0.00117259250134577,0.000675063872441272,-0.0585392560434695,-0.0337985172298382,-0.00134188775927553,-0.000173267560709544,0.0670499460995871,0.00857257214032118,2.22156977415182,-0.000181008460218076,0
0.43,0.00117250143766448,0.000675063429959571,-0.0585379478866781,-0.0337984897138114,-0.00134181519220133,-0.0001732115636202,0.0670488961950687,0.0085717424565231,2.22156889282428,-0.000173417937947823,0
0.44,0.00117241607833368,0.00067506301453462,-0.0585367255566021,-0.0337984621794912,-0.00134174717055945,-0.00017315907317724,0.0670479141010697,0.00857096839820475,2.22156806541634,-0.000166291804661565,0
0.45,0.00117233551893123,0.000675062624512899,-0.0585355560520266,-0.0337984625794192,-0.00134168297436261,-0.000173109538349314,0.0670469905234364,0.00857020751222348,2.22156728862938,-0.000159601648991652,0
0.46,0.00117226017131317,0.000675062258341809,-0.0585344713947085,-0.033798432100712,-0.0013416229309003,-0.00017306320570019,0.0670461153371051,0.0085695257819779,2.22156655936644,-0.000153320797779802,0
0.47,0.00117218915796708,0.000675061914563363,-0.0585334384660417,-0.03379843246442,-0.00134156634164128,-0.00017301954087545,0.0670452996080416,0.00856885384271319,2.2215658747199,-0.000147424209734065,0
0.48,0.00117212289074846,0.00067506159180886,-0.0585324879561702,-0.0337984048648619,-0.00134151353391951,-0.000172978790788971,0.0670445321529916,0.00856825689010365,2.22156523196019,-0.000141888375592304,0
0.49,0.00117206069806583,0.000675061288792788,-0.0585315957619612,-0.0337983772520697,-0.00134146397307938,-0.000172940546163186,0.0670438107492941,0.00856769791295692,2.22156462852464,-0.000136691224391702,0
0.5,0.0011720019083285,0.000675061004308516,-0.0585307371886558,-0.0337983775697024,-0.00134141712448457,-0.00017290439787121,0.067043132698269,0.00856713955728199,2.22156406200739,-0.000131812035473084,0
0.51,4.63091736574961,-0.0297364283378698,8.45532617474989,1.49527696109097,-0.353782280948536,4.61747961568413,0.899820196902251,8.53924572342469,0.0700474567059774,21.5301385087691,2570.29490932898
0.52,4.56692457730795,0.0180279792526464,11.65642492454,-0.888691934479965,-1.40430330170352,4.34569411483136,-4.47256273565765,10.8008424648938,0.316503602656445,45.7437874868767,2570.29490932898
0.53,4.57466410680701,0.0128401506143641,11.2709563270302,-0.61997769782275,-3.08354235522562,3.37927257011118,-8.07726890620449,7.88521121394232,0.742478118010249,70.6711681215212,2570.29490932898
0.54,4.62005309565027,0.015652358678,9.00312398403837,-0.760016984988729,-4.51257934098265,0.990839691522498,-8.9606100555971,1.15816005844199,1.35804143871682,97.6587703510958,2570.29490932898
0.55,4.63669491195469,0.0138187238419794,8.17268543338227,-0.659053913948072,-3.83688090858275,-2.60335851488579,-6.37752938926245,-5.15308239247178,2.16993305942212,123.289820733528,2570.29490932898
0.56,4.66410893621894,0.0457515904617252,6.80367671759321,-2.24229567850358,0.0505226924056978,-4.66405969456859,2.38224202502132,-6.75594772934028,-3.12095176071064,147.647633421828,2570.29490932898
0.57,4.54527605966721,0.0225778296761543,12.7472086764723,-1.08781600173216,4.22908371918712,-1.6658016427784,12.2769984473102,-3.5986083170996,-1.94105872210093,174.090378304863,2570.29490932898
0.58,4.6057127428961,-0.0143257939732546,9.72722265539723,0.782169357247253,2.49670342350054,3.87030581653816,5.95434115749685,7.73152448558684,-0.576027664623504,198.50197505306,2570.29490932898
0.59,4.51104490875633,0.00136062988746588,14.4625707494131,-0.00728396513743984,-3.73551010630405,2.52893105201198,-11.9827045807736,8.09819712453546,0.975977281007404,224.318394564011,2570.29490932898
0.6,4.50138666802762,0.104160719241932,14.947548735093,-5.15719573385069,-1.97232249724947,-4.04762589147928,-1.5479425415464,-15.7362560640484,2.71130922338222,249.816036247493,2570.29490932898
0.61,4.47909728033556,0.0820677922237367,16.0640804816736,-4.02345993491119,4.45816716922269,-0.440219332259341,16.3345227649975,2.72511974219469,-1.65090137581531,274.589395445594,2570.29490932898
0.62,4.53989731400127,0.0410193890239405,13.0262588005709,-1.95797296141347,-1.95957506720866,4.09541399225109,-7.48678068954646,10.8381359727451,0.455319212637388,299.573810468274,2570.29490932898
0.63,4.53290951453658,0.0570355282874684,13.3778648838576,-2.75367425363859,-1.80062865640132,-4.16031947814223,-2.61815027922593,-13.405046805636,2.74570722781943,324.742029287777,2570.29490932898
0.64,4.59130559627163,0.0749276054544263,10.460397939241,-3.64018276840209,4.04866952624485,2.16655862871759,7.37146488783564,8.26633903502967,-1.06312438058687,349.843373309738,2570.29490932898
0.65,4.47380782240353,0.0651412280138852,16.3377617481913,-3.1433094427953,-4.47408794443746,-0.0416758542271532,-16.2580689572899,-3.53242791488179,1.59467054512686,374.887262738402,2570.29490932898
0.66,4.53864763456046,0.00025079758894897,13.0981803749016,0.0903803643477104,4.3663163268185,-1.23879140607242,12.576379407948,-3.66130833597215,-1.84719177422793,400.179700562414,2570.29490932898
0.67,4.49319162971123,0.0238608721702154,15.3735374965163,-1.09485373541556,-4.14149403975075,1.74280448738141,-14.6207610629058,4.87623889900449,1.17778580282216,425.317562213842,2570.29490932898
0.68,4.50556231441506,0.0220570929736991,14.7575875592211,-0.976800593399637,4.2600812092827,-1.46706727001323,14.2902538037834,-3.81171564925776,-1.89755614061158,449.989772794354,2570.29490932898
0.69,4.4421365199381,0.100819113882259,17.9315000706278,-4.90096204915154,-4.42065517050262,0.447827220030516,-18.2597976209021,-3.48395100910519,1.49252957706835,474.902998546009,2570.29490932898
0.7,4.5164280591915,0.0583250114941487,14.2196928092868,-2.79216901807381,4.25780943457293,1.50750888543977,12.3761176251112,7.5384072552089,-1.21759823986904,499.907870195598,2570.29490932898
0.71,4.45597370475197,0.0272709819936977,17.2452066729216,-1.20297757866572,-2.55523740971537,-3.6506447572848,-8.81252342413748,-14.8722472796004,2.53702603628422,524.577722183655,2570.29490932898
0.72,4.37992713517151,0.0546293619728614,21.05035237997,-2.58593398090614,-0.777345220805123,4.31074013184426,-6.53274768858986,20.1774031409331,0.190882211562827,549.425969173803,2570.29490932898
0.73,4.44470769138687,0.0669310813117319,17.8142097279683,-3.22084331411595,4.06239045938746,-1.80468556457819,17.6502458927826,-4.02352082266723,-1.97379435542515,574.406396589054,2570.29490932898
0.74,4.34895819232257,0.126772231286797,22.6046276561916,-6.19031041775096,-3.25280943716206,-2.88941850944173,-12.2112348540041,-20.0043714693447,2.32624242143045,598.994211641,2570.29490932898
0.75,4.39698069705446,0.0441714178339021,20.2065057005085,-2.02137820206884,-2.16398850011633,3.82786417415603,-11.8699682300893,16.4770354335103,0.524578612703844,623.575574771902,2570.29490932898
0.76,4.4378648157025,0.138455205593458,18.1653655880844,-6.73806128183545,4.01050172401564,1.90517450331294,13.0774038847099,14.2955756939938,-1.09612162138339,648.260459302369,2570.29490932898
0.77,4.38007745306915,0.128906619825938,21.0579093347503,-6.25697952157891,2.38661460432176,-3.67501920293728,17.1286292378473,-13.7548318316287,-2.53620668406641,672.889096182915,2570.29490932898
0.78,4.32562199100581,0.112763493646599,23.7838301547349,-5.440377361345,-2.72182919049467,-3.36383220038449,-10.1565754244575,-22.1836033662347,2.48736293315535,697.518792875095,2570.29490932898
0.79,4.28994345077079,0.0992630742638889,25.5709499414234,-4.75527465243437,-4.21730782768198,0.792327366241885,-26.0034536692296,-0.55363814815733,1.40822040921492,722.163633351136,2570.29490932898
0.8,4.31894425915734,0.0933433806955655,24.124227372932,-4.51678109592059,-2.02433650269717,3.81628801642062,-15.7060030201284,18.8600404808978,0.509316255550121,746.880032823668,2570.29490932898
0.81,4.40908382901133,0.156272464093922,19.6205018305207,-7.64122746304986,1.06987864796091,4.28016366193169,-3.39335794452694,20.7807018910298,-0.209514515616658,771.452948969292,2570.29490932898
0.82,4.35242543499447,0.144158252466453,22.4567765123176,-6.98763957055483,3.06735140739434,3.09123666394162,10.1609310860118,21.2105963508215,-0.748410560221946,795.798656568471,2570.29490932898
0.83,4.2130350534779,0.0953896611159196,29.4297439508938,-4.6105066801825,3.81193770428785,1.79663421093723,24.2707338166378,17.2713080241508,-1.10771890781236,820.464744906308,2570.29490932898
0.84,4.30699916496554,0.144906583906771,24.7350597675792,-7.02376221247038,-1.68412190372699,-3.96673330820971,-2.34153012193394,-25.6061253221005,2.77372530686981,844.733473932937,2570.29490932898
0.85,4.24839085694804,0.088831671629614,27.6690343379705,-4.26878415411906,-1.61543849642458,-3.93027663193746,-6.00014043941695,-27.3458642953102,2.77252543739681,869.309437603907,2570.29490932898
0.86,4.32193428594483,0.178044370164736,23.995391880969,-8.65059532981608,-0.996076991588868,-4.20935225380344,3.9332437215621,-25.202008350691,2.95040476748538,893.543185433464,2570.29490932898
0.87,4.29020918818481,0.0861764025956778,25.5852434144635,-4.07688715954823,0.622644513160822,-4.24566073314631,8.24115667746516,-24.562349767612,-2.97589229465667,917.996814171295,2570.29490932898
0.88,4.33434695005853,0.112523344688948,23.3820256528055,-5.42123487685939,2.70997682305029,-3.38456062216529,19.2255419554649,-14.3696711074815,-2.44047736211237,942.440892795181,2570.29490932898
0.89,4.27412091843463,0.117054199542014,26.3970558377606,-5.66176414780707,4.20408006301563,-0.779437062748086,26.9560730779906,1.49340362302829,-1.72673508371202,966.775718211859,2570.29490932898
0.9,4.27883235199188,0.168034486902713,26.1652242681144,-8.21236146386042,3.28395322905107,2.7481435687835,13.8781134953324,23.6529027314724,-0.834741143325557,991.068870022266,2570.29490932898
0.91,4.17077507476888,0.131094478801832,31.5719258123655,-6.36511112513127,-0.84434088628468,4.08651917338383,-13.5464430751975,29.2197710317383,0.235170417509897,1015.32440833158,2570.29490932898
0.92,4.20222522494684,0.198810268747664,30.0032695962031,-9.74500708295384,-4.16852812089695,0.567094056952052,-30.7431754922111,-7.07237655702644,1.48286005136415,1039.5817694879,2570.29490932898
0.93,4.21067020045223,0.0993609243442242,29.5848929292781,-4.74087295790475,-1.06997978770335,-4.07366657744215,-2.22616452112923,-29.8795240518437,2.90832985387918,1063.7876438033,2570.29490932898
0.94,4.14886585800384,0.202728879141987,32.6789805083774,-9.87452302457772,4.02495069508776,-1.02662495988585,33.9922430422062,3.15426457187884,-1.7717116989804,1087.93364477771,2570.29490932898
0.95,4.2073876472381,0.168483289272327,29.7567813407684,-8.11894405239901,0.131053612935732,4.20871980338823,-8.38329742113675,29.6833895072151,0.00889471285442943,1112.1370538787,2570.29490932898
0.96,4.17244320726907,0.178003137914919,31.5080060042047,-8.68357273706683,-3.91797652421454,-1.44583103808747,-25.7169376837383,-20.1692338479093,1.96695407782603,1136.43541588045,2570.29490932898
0.97,4.21336460072149,0.105612535032247,29.4659866717875,-4.97203397593208,3.39229235212267,-2.50118928989769,26.9965629256135,-12.8121459015721,-2.18106889018687,1160.43348524185,2570.29490932898
0.98,4.22866357414875,0.138721371420109,28.7050812821234,-6.7086373630424,3.60091343116541,-2.22131981116492,28.2446873767653,-8.43949889927801,-2.09073961930163,1184.71707055264,2570.29490932898
