t,iq,id,vq,vd,ia,ib,va,vb,theta_e,omega,r
0,0,0,0,0,0,0,0,0,0,0,0
0.01,0.00136921228431307,0.000768358060193569,-0.067105045977603,-0.0384674105364257,0.00143151414388188,-0.000644890412430181,-0.0702297541206655,0.0324131224226392,-1.48268507336922,-0.00285753785973399,0
0.02,0.00151404853888801,0.000850955089767488,-0.0744727206511605,-0.0426025891445558,0.00158304207049287,-0.000714454579353896,-0.0779319895458623,0.0358855364796072,-1.48270576279933,-0.00288474573144177,0
0.03,0.0015680452885571,0.000882752524102902,-0.0772120380951933,-0.0441944888950055,0.00163961210097054,-0.000741410954954892,-0.0807999931510944,0.037231878575858,-1.48272569998675,-0.00271719621923508,0
0.04,0.00153105235009679,0.00086450501865248,-0.0755177710892137,-0.0432809502632143,0.00160114496493714,-0.00072651567585888,-0.0790313091968331,0.036472271283871,-1.4827430144717,-0.00238174130445238,0
0.05,0.0015618394088397,0.000883200146680491,-0.0771078823112915,-0.0442169237342363,0.00163344478795485,-0.000742457381136659,-0.0806969666986188,0.037266089474122,-1.48275918052303,-0.00221645685179696,0
0.06,0.00156002348390173,0.000883835962788638,-0.0771058747800547,-0.0442487235893489,0.00163168092103028,-0.000743274277362789,-0.0806972170238566,0.0372991237093938,-1.48277381573027,-0.00199960041841837,0
0.07,0.00160008897378898,0.000908017604794308,-0.0791273502039066,-0.0454593889821687,0.0016737072050159,-0.000763861824242652,-0.0828167991234736,0.0383284669647251,-1.48278674289018,-0.00190240779335479,0
0.08,0.00155639329080214,0.000884676822609861,-0.0770760357285264,-0.0442908420566622,0.00162812017327688,-0.000744471528996144,-0.0806702666449835,0.0373457099696944,-1.4827987037647,-0.00162959702041227,0
0.09,0.00155255941665882,0.000883866325787265,-0.0769518492135878,-0.0442502531773909,0.00162422207077272,-0.000744018204704325,-0.0805426006563044,0.0373170401180617,-1.48280923180211,-0.00146787518006698,0
0.1,0.00155048198376232,0.000883832923629236,-0.0769064420617658,-0.0442485722347153,0.001622142726454,-0.00074418276913332,-0.0804968697733399,0.0373201143099069,-1.48281865502565,-0.00132619069728401,0
0.11,0.00154867328254326,0.000883826869847572,-0.0768682948022252,-0.0442482697641015,0.00162033420595181,-0.000744349335292511,-0.0804585284457924,0.0373238438971137,-1.48282709548996,-0.00119940057046607,0
0.12,0.00154705496406372,0.000883822267331309,-0.0768342077776957,-0.0442480478051031,0.00161871611213535,-0.000744499167479898,-0.0804242715208147,0.0373272255831461,-1.48283465592339,-0.00108583453065089,0
0.13,0.00162095373923375,0.000926073676229708,-0.0804659559110297,-0.0463633457557548,0.00169603513269717,-0.000780107881769172,-0.0842275150168994,0.0391159252021657,-1.48284204704344,-0.0011457260534542,0
0.14,0.00169936532040947,0.000972590619502195,-0.0845398758890217,-0.0486922069299684,0.00177822431777674,-0.000819568960503924,-0.0884899865486703,0.0410785091216589,-1.48284862189243,-0.00122770233451117,0
0.15,0.0015487457718002,0.000886869710221489,-0.0770338971514683,-0.0444006364556097,0.00162065316000501,-0.000747418680220888,-0.0806358448937812,0.0374632933185576,-1.48285463927578,-0.000799175843652633,0
0.16,0.00154199794858585,0.000883912762774594,-0.0767339796586752,-0.044252594042972,0.00161366819558047,-0.000745073419342596,-0.0803239079788709,0.037342543041308,-1.48285935488303,-0.000715348250410755,0
0.17,0.00154087924786754,0.000883808412513208,-0.0767043468423682,-0.0442473497867965,0.00161254152522535,-0.000745074490210106,-0.0802937723379249,0.0373402585879493,-1.4828635529155,-0.000651789936880554,0
0.18,0.00154006618841559,0.000883802626314255,-0.0766869705076899,-0.0442470653292296,0.00161172829771842,-0.000745146187881668,-0.080276297777466,0.037341802996642,-1.48286731225626,-0.000595301393826295,0
0.19,0.00153934521373964,0.000883800464809184,-0.0766717565103408,-0.0442469494122575,0.00161100740916511,-0.000745212772485276,-0.0802610066291681,0.0373432938229141,-1.48287067960204,-0.000544719489486705,0
0.2,0.00153869948703264,0.000883798632411822,-0.0766581279211611,-0.0442468757963152,0.00161036176804736,-0.000745272507247441,-0.0802473115816837,0.0373446592971982,-1.48287369585955,-0.000499412014206997,0
0.21,0.00153812116479533,0.000883796994333027,-0.0766459199929443,-0.0442468019659325,0.00160978352216147,-0.000745326006899553,-0.0802350434261918,0.0373458745000621,-1.48287639763574,-0.000458828415978798,0
0.22,0.00153760326210843,0.000883795526910378,-0.076634986682003,-0.0442467279407825,0.00160926568714542,-0.000745373915031679,-0.0802240554624077,0.0373469549278242,-1.48287881771889,-0.000422476149405892,0
0.23,0.00153713937613412,0.000883794212281682,-0.0766251899665462,-0.0442466566489303,0.00160880186150603,-0.000745416824159025,-0.0802142093634945,0.0373479179902587,-1.48288098547914,-0.000389914046129755,0
0.24,0.00153672391892725,0.000883793034554005,-0.0766164135576458,-0.044246582286013,0.00160838645793408,-0.000745455252086639,-0.0802053877988031,0.0373487702404342,-1.48288292722399,-0.000360746935799328,0
0.25,0.00153635157905634,0.00088379197948575,-0.0766085379164652,-0.0442465444055805,0.00160801416674169,-0.000745489689419163,-0.0801974742848429,0.037349563476237,-1.48288466651842,-0.000334620849374953,0
0.26,0.00155207349189883,0.000892718658607406,-0.0773807110311728,-0.044693463352134,0.00162445798859336,-0.000753003964781102,-0.0810058478615399,0.0377270820277882,-1.48288616155092,-0.000348488867486637,0
0.27,0.00149886225261478,0.000862667827562963,-0.0748066114980916,-0.0431889626427048,0.0015688126578445,-0.000727743552092723,-0.0783095377518109,0.0364545184452774,-1.48288781104715,-0.000204021078488203,0
0.28,0.00149253957253516,0.00085873375847762,-0.0742940973982744,-0.0429920060491536,0.00156216807915145,-0.000724381761237,-0.0777816647047457,0.0363034175817272,-1.48288908180793,-0.000171231972612978,0
0.29,0.00153356616482771,0.000882925253777611,-0.0765044561077584,-0.0442031309708571,0.00160515944965988,-0.000744879404219382,-0.0800897842869016,0.0373158819385025,-1.48288998582012,-0.000250988929627627,0
0.3,0.00152548191728045,0.000878733109692442,-0.07611247705307,-0.0439932558975578,0.00159673830537842,-0.000741413340962128,-0.0796808896354871,0.0371412379238958,-1.48289008107777,-0.000231299008620098,0
0.31,0.00153461605863945,0.000883613885400486,-0.0765615546954263,-0.0442376387160988,0.00160626496780944,-0.00074547488159881,-0.080149652926444,0.0373453273158424,-1.4828910306392,-0.000238179656065054,0
0.32,0.00153478401702539,0.00088378157143141,-0.0765749279927401,-0.044246023618986,0.00160644633354773,-0.000745628608859278,-0.0801636773698074,0.0373525773372418,-1.48289192336729,-0.000225582433684244,0
0.33,0.00153462658035269,0.000883786882792679,-0.0765719624709887,-0.0442462788268544,0.00160628937357915,-0.000745649008346487,-0.0801607157732886,0.0373531561370159,-1.48289272463822,-0.000213577692352252,0
0.34,0.00153447314497458,0.000883786646907488,-0.0765686986386128,-0.0442462883169191,0.0016061359746818,-0.000745663396401552,-0.0801574385638268,0.0373535096600168,-1.48289344242921,-0.000202796886363475,0
0.35,0.00153433584763977,0.00088378626350644,-0.0765657784737613,-0.0442462524254223,0.00160599869435367,-0.000745676100360899,-0.0801545025059648,0.0373537818033002,-1.48289408538408,-0.000193139045158257,0
0.36,0.0015342123309838,0.000883785914134126,-0.0765631318289207,-0.0442462530554211,0.00160587519445861,-0.000745687520605755,-0.0801518446220029,0.0373540609383686,-1.48289466130305,-0.000184488109785104,0
0.37,0.00153410227482865,0.000883785600972202,-0.076560785942669,-0.0442462141409098,0.00160576515103865,-0.000745697698688993,-0.080149485106625,0.0373542694628784,-1.48289517717551,-0.000176739137474041,0
0.38,0.00153400308897485,0.000883785320444725,-0.0765586501124622,-0.0442462146649545,0.00160566597891573,-0.000745706868528493,-0.0801473403074822,0.0373544945201549,-1.4828956392619,-0.000169798089179464,0
0.39,0.00153391480248964,0.000883785069157891,-0.0765567605926781,-0.0442461785705364,0.00160557770256795,-0.000745715033226406,-0.0801454394526908,0.0373546576142187,-1.4828960531699,-0.000163580729111894,0
0.4,0.00153383540724048,0.000883784844064973,-0.0765550480998432,-0.0442461790079024,0.0016054983176043,-0.000745722374126775,-0.0801437197603252,0.0373548380982586,-1.48289642392307,-0.000158011604022755,0
0.41,0.00153376416106381,0.000883784642435755,-0.0765535034051424,-0.0442461794086187,0.00160542708113336,-0.000745728960905162,-0.0801421686589183,0.0373550007161867,-1.48289675602067,-0.000153023127577146,0
0.42,0.00153370036546771,0.000883784461825238,-0.0765521165943747,-0.0442461797758267,0.00160536329414114,-0.000745734858930327,-0.0801407761223022,0.0373551466647978,-1.48289705349296,-0.000148554760130778,0
0.43,0.00153364374394957,0.000883784300042543,-0.0765508962006238,-0.0442461435474991,0.00160530667830922,-0.000745740096101287,-0.080139547306163,0.0373552390637221,-1.48289731994997,-0.000144552274030777,0
0.44,0.00153359252120291,0.000883784155124481,-0.0765497735280701,-0.0442461409489745,0.00160525546260183,-0.000745744831511143,-0.0801384198239082,0.0373553541571002,-1.48289755862564,-0.000140967095512803,0
0.45,0.0015335466535663,0.000883784025314719,-0.0765487643457756,-0.0442461412366133,0.00160520960121261,-0.000745749071900688,-0.0801374065766725,0.0373554601679661,-1.48289777241642,-0.000137755715213772,0
0.46,0.00153350567537318,0.000883783909037432,-0.0765478614336073,-0.0442461415021341,0.00160516862820025,-0.00074575286075011,-0.0801365000199903,0.0373555550411411,-1.4828979639167,-0.000134879160148761,0
0.47,0.00153346888813164,0.000883783804881968,-0.0765470442903966,-0.0442461417486911,0.0016051318459127,-0.000745756261707677,-0.0801356796453021,0.0373556407658431,-1.48289813545076,-0.000132302520739247,0
0.48,0.00153343582618037,0.00088378371158517,-0.0765463025533079,-0.0442461419784072,0.00160509878882357,-0.000745759317738531,-0.0801349350522176,0.0373557184207824,-1.48289828910013,-0.000129994527149341,0
0.49,0.00153340648951939,0.000883783628014844,-0.0765456477550014,-0.044246142191268,0.00160506945544308,-0.000745762030711476,-0.0801342776592193,0.0373557871430626,-1.48289842672961,-0.00012792716980367,0
0.5,0.00153338036881509,0.000883783553157279,-0.0765450647989312,-0.0442461058322979,0.00160504333706959,-0.00074576444701214,-0.0801336891566896,0.0373558119779844,-1.48289855000944,-0.000126075359464419,0
0.51,4.22881427680732,-0.0367627915870031,8.81818226315349,1.84803301373244,-0.453974744871995,4.204536671453,0.968638958830748,8.95752772887001,0.0988627383979459,30.0272851614393,506.394495766589
0.52,4.06810657526349,-0.00652702485875978,4.63359934785069,0.343124868816938,-1.72765319594113,3.68303518097641,-1.65019336839266,4.34336729265623,0.437005991390499,62.0359186981052,506.394495766589
0.53,3.71687761199429,0.0329317205951694,10.1208635578037,-1.6243138334019,-3.12416618009326,2.01391394054642,-9.4227927760521,4.03500320751299,1.00706914875475,93.5473285595247,506.394495766589
0.54,3.53497222324533,-0.0958256276712464,6.90669214408456,4.81688940048067,-3.41181268889514,-0.929916848932609,-7.85065802341968,3.04499400146183,1.80978956699885,124.944229665695,506.394495766589
0.55,3.36031294977139,-0.0266631504281793,5.19284672193938,1.36587992228577,-1.01666898396499,-3.20293587526127,-2.90882763949224,-4.51331439226052,2.82629921444423,151.763875656489,506.394495766589
0.56,3.1994737140466,-0.0313750823030372,3.15352281291198,1.59960666698762,2.51013126861271,-1.98415157107451,1.45046181289349,-3.22484234497832,-2.24949741164676,178.090202340369,506.394495766589
0.57,2.90862035854513,0.02150487167325,8.05912444376785,-1.04178641355537,2.20259485865101,1.89976596934807,5.37740085217978,6.09248437064727,-0.851689356995394,202.373698319073,506.394495766589
0.58,2.7182649248436,0.00670789212913581,8.55383159954173,-0.312662572486906,-1.77889247481089,2.05537119774336,-5.84965077336026,6.24879018268964,0.715883070431184,225.661767645749,506.394495766589
0.59,2.61593946119145,-0.0200049544150314,5.48946489270496,1.04898433099673,-1.65755903773264,-2.02386696678675,-4.3170422033094,-3.54932945072199,2.44772251199649,246.498279607104,506.394495766589
0.6,2.38552881758408,-0.00038131757951021,8.89861574934849,0.0543931182394821,2.21538711501163,-0.884764271186208,8.24323528551368,-3.35222208296632,-1.95092132147774,267.007845892998,506.394495766589
0.61,2.15801926164141,0.0262744688694396,12.7720596986387,-1.29296226238184,-0.137400180624188,2.1538009823784,-2.2574889721029,12.637286255299,0.0758826174576802,286.119393792139,506.394495766589
0.62,1.99913346414893,-0.0600319613811138,13.8413431416038,3.0244751662272,-1.53464089993666,-1.28258167463479,-12.7512028561836,-6.17552068373213,2.23694129475918,303.713921088085,506.394495766589
0.63,1.8707950784608,0.00144361281051786,13.7553457446781,-0.0236574086702197,1.83739624171945,-0.351925220077121,13.5161960738161,-2.55392637379751,-1.75926746906199,320.066840280143,506.394495766589
0.64,1.77658480058652,-0.047657246891921,12.3049731982885,2.435164221226,-1.10643372620261,1.39080163085099,-5.45399102549791,11.2958564123632,0.645194709540165,335.502709858499,506.394495766589
0.65,1.74441668437546,0.0781046364907639,8.09001111854132,-3.86121697462723,-0.0465952936382356,-1.74554254648221,4.00665809509473,-8.01897545402675,-3.12353600326932,350.077334916207,506.394495766589
0.66,1.65668906848982,-0.0345285735827238,7.01463855075377,1.77758226631282,0.772551400418764,1.46593834309576,4.95393268229873,5.27479892417553,-0.505853479140005,363.718518773277,506.394495766589
0.67,1.48067832258444,0.0401871821293524,10.7450226819083,-1.96472508013582,-1.21407872894074,-0.848549435514876,-7.4680552578145,-7.97143699350799,2.20793455192577,376.329885717184,506.394495766589
0.68,1.36819953770455,0.0953387140136932,11.5663461285667,-4.7258551021105,1.33553245939867,0.312109748737959,9.65993725456629,7.92462500373337,-1.27165023565681,388.287762746779,506.394495766589
0.69,1.30943710416475,-0.0650453072269549,10.0098436372876,3.30395026846263,-1.30511140118979,-0.124662152396167,-10.1500350398491,2.8442654076679,1.61639235691706,399.406330720241,506.394495766589
0.7,1.24864845903872,-0.0324853758287222,8.79781340481601,1.63416994247099,1.24243616110153,-0.128571612301473,8.51413930698201,-2.75344583533792,-1.69992332542017,409.91650213132,506.394495766589
0.71,1.1356222705319,0.109567207495157,10.4405819849963,-5.48074211482649,-1.08081269157889,0.365358508876282,-11.4145285240085,-2.95851734645217,1.34099965482686,419.688260863778,506.394495766589
0.72,0.987327167417773,0.0169800466258586,14.1296150113894,-0.839780097704843,0.949278194434975,-0.27198192416941,13.8653870604222,-2.84645264272189,-1.83263930947367,428.701683014346,506.394495766589
0.73,1.04708597002547,-0.0624322674828885,7.64202342715804,3.15401432354665,-1.03383774534021,0.177387521988152,-6.72423325062078,4.80967936619642,1.34131513883715,437.17615490806,506.394495766589
0.74,0.961222131435972,0.0861736092251956,8.64320961682167,-4.27317680448533,0.940520049723681,-0.216323630140061,9.1447857339345,3.05581517162576,-1.70745775079552,445.134288956419,506.394495766589
0.75,0.866383394168037,0.0974923972920865,10.2889942297418,-4.86727307623764,-0.867553294903477,0.0864652168331676,-10.226256469214,-4.99774229869725,1.58351539764455,452.611868885514,506.394495766589
0.76,0.794247876355389,0.0604203190856687,10.9850908371325,-3.02583651614645,0.788918036762978,0.109948330244295,10.0897970959877,5.29376065612103,-1.35639614314748,459.523839270756,506.394495766589
0.77,0.721832130772739,-0.0574014401993499,11.869398360595,2.8939112518852,-0.619444736794587,-0.374999691213683,-11.9067888348207,-2.73600427983433,2.03580772375618,465.981083111395,506.394495766589
0.78,0.672483403813369,0.0516172999707235,11.772387946151,-2.54643732266176,0.522220840071747,0.426829788388113,6.76053891945605,9.96837873033755,-0.80896776176935,472.049204157642,506.394495766589
0.79,0.651731831517658,-0.0190366088071467,10.3900714827538,0.943708791184597,-0.277674725885161,-0.589926706712654,-5.53921051764768,-8.84088901301641,2.67246284783394,477.706898740224,506.394495766589
0.8,0.575649634950648,0.0123325205709008,11.9496080976569,-0.607712629135001,0.0639553032172475,0.572218762775947,0.467384336834398,11.9559190449283,-0.0898849062386264,482.892614747973,506.394495766589
0.81,0.539662525116628,-0.0491572089917401,11.631783158318,2.49575720181079,0.21956073390352,-0.495424218563102,1.36471434953141,-11.8179836772905,-2.81526512432224,487.779701463106,506.394495766589
0.82,0.570455587956797,-0.079939398831235,8.05999761348413,3.99043471441224,-0.457110668183318,0.350513512363839,-2.80939144008763,8.54367897780099,0.777402238114589,492.431678083284,506.394495766589
0.83,0.428008720866838,-0.0641563201237606,13.3022402960582,3.22310478607153,0.427192106066543,-0.0693858996073478,11.6863293135156,-7.12514621128141,-1.88060053403259,496.639034786371,506.394495766589
0.84,0.313180707401914,0.0897619140966354,17.2874706383131,-4.46443739729841,-0.32486668113844,0.0245152237834044,-16.0260417970441,-7.87107531817166,1.77460776011357,500.586331710253,506.394495766589
0.85,0.338252955214292,-0.01677466846262,14.3728061644748,0.826677462491563,0.237180575855602,0.241747441868653,11.122249045566,9.14092603826122,-0.825414339604856,504.255288681873,506.394495766589
0.86,0.354656608672075,-0.0383297816268374,12.0034668765811,1.94233969406729,-0.0534585101504715,-0.352693450359984,-4.94164921511209,-11.1101756772389,2.88350759740115,507.64100916831,506.394495766589
0.87,0.342390951658042,0.0221847992289238,11.1866637921294,-1.1303063548407,-0.0909684345827748,0.330829975975102,-4.72533545427498,10.2024626487189,0.333041966871783,510.742311006002,506.394495766589
0.88,0.348642462791452,-0.0187285879604639,9.47849329259169,0.944085906770192,0.293815191902771,-0.188613254771291,7.1383707623661,-6.30688482184862,-2.19515529769464,513.7335133924,506.394495766589
0.89,0.281606097401766,0.0898379383431092,11.5548928744013,-4.46863049467748,-0.282475738043751,0.0870649566486488,-11.5104006038468,-4.58201765337232,1.58062808943283,516.43258738678,506.394495766589
0.9,0.35926873471904,-0.0064316701777084,6.46302065776841,0.314055005737339,0.279142355937147,0.226262978080273,5.28618999605906,3.73168352020036,-0.907546730720332,518.965649961256,506.394495766589
0.91,0.316688078765371,0.0151353034353328,7.46084492074571,-0.728716639751279,-0.0889029183148738,-0.304329899545346,-1.03937283198759,-7.42394362778931,2.9051306675143,521.275453709266,506.394495766589
0.92,0.184872158446637,0.0904854443369697,13.0157148943462,-4.55249661668425,-0.204949627720753,0.018999492169578,-10.5534329272226,-8.87463312517424,1.93352832250865,523.36145948093,506.394495766589
0.93,0.16187388024883,0.0543290579238594,13.1847471647012,-2.70287272681007,0.125988549220481,0.115246193460023,4.02735655938212,12.8422536152356,-0.506087085174597,525.31292373432,506.394495766589
0.94,0.216257582656017,-0.0320226447372457,9.51686742842284,1.57897885778665,0.0763887928670783,-0.204835407477571,0.439059799559349,-9.63696873378365,-2.93164819963332,527.164389194171,506.394495766589
0.95,0.0910461927480759,0.109134515291534,14.9251067752268,-5.45744144200842,-0.0089612972777236,0.141843035757622,-15.2654872983207,4.4167156224599,0.938607110272044,528.764267504317,506.394495766589
0.96,0.151317903343212,-0.0622996424631053,11.0987056215571,3.09423211642281,0.14373613391174,0.0782194165877158,11.3672044579747,-1.8820737697776,-1.46298995545783,530.289191093489,506.394495766589
0.97,0.0514736883697203,0.0267862609659459,15.3298164422587,-1.34349805281392,-0.0539149432166172,-0.021452814940417,-9.00206950724004,-12.4808254437789,2.42931621363426,531.665631693739,506.394495766589
