t,iq,id,vq,vd,ia,ib,va,vb,theta_e,omega,r
0,0,0,0,0,0,0,0,0,0,0,0
0.01,0.00147717031864424,0.000826820936551076,-0.0709836759797715,-0.0414024559304037,0.000826988893080008,-0.00147707629529589,-0.0388666386317502,0.072403245881239,-2.12090890589217,-0.00630978822811139,0
0.02,0.00162846696427692,0.000914678578807556,-0.0789319506730588,-0.0458018642085477,0.000909960369643053,-0.00163110811473359,-0.0433387280546773,0.0803107605034043,-2.120953796633,-0.00623797113515989,0
0.03,0.00167983351771169,0.000945541369571977,-0.0816468060157584,-0.0473472911563394,0.00093754039904506,-0.00168431206400658,-0.0448414893253605,0.0830494295435052,-2.12099610461479,-0.00573884907986518,0
0.04,0.00164251067494728,0.000927909291508243,-0.0801475896743495,-0.0464643839507509,0.000914885930498466,-0.00164980020146655,-0.0440222570201978,0.0815145140044296,-2.12103174118983,-0.00493729913563809,0
0.05,0.00167140802667232,0.000945803238273422,-0.0817389900697719,-0.0473604037069382,0.00093010644974895,-0.0016801936047041,-0.0449075257254882,0.0831118792359133,-2.12106453343916,-0.00449881192816798,0
0.06,0.00166840121781329,0.000946177839312043,-0.0818043523596606,-0.0473791748426559,0.000927298954984015,-0.00167896747297011,-0.0449510138752613,0.0831633610752989,-2.121093511758,-0.0039763334973184,0
0.07,0.00171266293366337,0.000972795120213419,-0.084061918760456,-0.0487120387448438,0.000951063879473186,-0.00172482525706718,-0.0461761472021807,0.0854811811683203,-2.12111852359035,-0.00374697402536849,0
0.08,0.00166330291380195,0.000946741608790029,-0.0819044821905085,-0.0474074113263513,0.000922578585747629,-0.00167682587348725,-0.0450176283019866,0.0832419365081409,-2.12114117043403,-0.00311632306395798,0
0.09,0.00165960425808096,0.000946176304569499,-0.0818693259161687,-0.0473791143771985,0.000919689147979123,-0.00167442759289815,-0.0450008442872637,0.0832003066014119,-2.12116061204268,-0.00275783912960937,0
0.1,0.0016573340619849,0.000946158673152372,-0.081883926365585,-0.0473782391807351,0.000917734944104222,-0.001673240867349,-0.0450123312158365,0.0832079622597941,-2.12117762079989,-0.00244878178242846,0
0.11,0.00165537097017488,0.000946153475791684,-0.0818978324535604,-0.0473779516091597,0.0009160395733747,-0.00167222335489668,-0.0450230951929985,0.083215660536425,-2.12119250910303,-0.0021783660085654,0
0.12,0.00165365261098409,0.000946149143602051,-0.081909997780555,-0.0473777543449242,0.000914555470426488,-0.00167133283677022,-0.0450324825026121,0.0832224420624055,-2.12120554150004,-0.00194166172192417,0
0.13,0.00173333956587355,0.000991453176805953,-0.0857453342080692,-0.0496463011928061,0.00095875530759793,-0.00175163743753498,-0.047113726187158,0.0871625743386564,-2.12121841710776,-0.00209269855612724,0
0.14,0.00183315685445985,0.00105046266342347,-0.0910750277926195,-0.0526011849893621,0.00101294477651795,-0.00185415175754976,-0.0501096812889453,0.0924692661960277,-2.12122944726807,-0.00237131064256039,0
0.15,0.00165366491128804,0.000948376309460995,-0.0821517578853957,-0.0474892536491279,0.000913344444890589,-0.00167326841485747,-0.0451773953536482,0.0834454521521218,-2.12123938048373,-0.00134820546805669,0
0.16,0.00164834871679097,0.000946183524623659,-0.081953491973293,-0.0473794516047345,0.000909948400739845,-0.00166862538108669,-0.0450652467325879,0.0832484883821499,-2.12124660698681,-0.00119631608384722,0
0.17,0.00164741235714152,0.00094613443349097,-0.0819543059209966,-0.0473770194106562,0.000909165537921205,-0.00166809947705654,-0.0450666890612154,0.0832471246607936,-2.12125289670934,-0.00108157202831728,0
0.18,0.00164668437060658,0.000946131593359255,-0.081959312981757,-0.0473768521386588,0.000908537390495103,-0.00166772126520737,-0.0450705857311617,0.0832498492783017,-2.12125840150619,-0.000981577354518975,0
0.19,0.00164604918097355,0.000946129968043521,-0.081963784715717,-0.0473767733164843,0.000907988844955187,-0.00166739199951621,-0.0450740369868811,0.083252338372632,-2.1212632200811,-0.000894058428366696,0
0.2,0.0016454931537576,0.000946128563555586,-0.081967691308496,-0.0473766942366366,0.000907508656835848,-0.0016671037806948,-0.0450770567047853,0.0832545045872607,-2.12126743799596,-0.000817449433101885,0
0.21,0.0016450061746447,0.000946127334347537,-0.0819710909684135,-0.0473766541469157,0.000907088103919434,-0.00166685134884506,-0.0450796677379544,0.0832564151843209,-2.12127113012709,-0.000750390131493109,0
0.22,0.00164457996432921,0.000946126258226381,-0.0819740633626988,-0.0473766138331347,0.0009067200315408,-0.00166663041493343,-0.0450819530462494,0.0832580813616402,-2.12127436201536,-0.000691690101033162,0
0.23,0.00164420740766155,0.000946125316135948,-0.0819766846905991,-0.0473765370313554,0.000906398289396829,-0.00166643729381605,-0.0450839917695378,0.0832595146518975,-2.12127719103238,-0.000640307317425786,0
0.24,0.00164388096527537,0.00094612449139448,-0.0819789561764685,-0.0473764963539575,0.00090611637647118,-0.001666268073721,-0.0450857427899952,0.0832607798404164,-2.12127966739848,-0.000595329649960509,0
0.25,0.00164359526825613,0.000946123769395005,-0.081980940440577,-0.0473764584329238,0.000905869651036141,-0.00166611997412546,-0.0450872732742322,0.0832618832231334,-2.12128183507283,-0.000555958669488529,0
0.26,0.00166012189048714,0.000955340842401379,-0.0827700795617218,-0.0478380251664346,0.000915130329122734,-0.00168262214925232,-0.0455182366349086,0.0840681441220552,-2.12128362765058,-0.000602680300773041,0
0.27,0.00159950436096726,0.000921292976871677,-0.0799377929863404,-0.046133099971957,0.000881274838101083,-0.00162189691710548,-0.0439960386102511,0.0811336073840852,-2.12128580627168,-0.000277785789882456,0
0.28,0.00158786963635787,0.000913974709965215,-0.0788818898383999,-0.0457666312901708,0.000875184675343114,-0.00160957495524994,-0.0432877037301011,0.0802689964426047,-2.12128734124057,-0.000195838146819236,0
0.29,0.00164142217402139,0.00094543190147259,-0.0819233073989183,-0.0473418392681145,0.00090436907770601,-0.00166439923245006,-0.0450557424687063,0.0832025126487131,-2.12128809905087,-0.000435817188997414,0
0.3,0.00163514036130536,0.000942175007040496,-0.0816217837696012,-0.047178738598956,0.000900720492268492,-0.00165833661838277,-0.0448841575242679,0.0829057378283123,-2.12128719680001,-0.000421932321924027,0
0.31,0.00164254470160082,0.000946036904965898,-0.081977891104382,-0.0473721389410371,0.000905008852125441,-0.00166550229657271,-0.0450863905313097,0.0832569010150454,-2.12128836203909,-0.000436512823607613,0
0.32,0.00164258730277705,0.000946119417257217,-0.0819875578106014,-0.0473762496711968,0.000905000194353057,-0.0016655958835133,-0.0450923886819541,0.0832655099762792,-2.12128944431388,-0.00041773101311725,0
0.33,0.00164246646382134,0.000946120879290766,-0.0819885934791325,-0.0473763375701787,0.000904894862130722,-0.00166553477642982,-0.0450931463567898,0.0832661694441092,-2.12129039320268,-0.000400517966162395,0
0.34,0.00164235748526347,0.00094612064066788,-0.0819893451138516,-0.0473763018675411,0.000904800724801137,-0.0016654783170303,-0.0450937364612654,0.083266569659165,-2.12129122384499,-0.000385431693167653,0
0.35,0.00164226144262331,0.000946120399203424,-0.0819899641510938,-0.0473763023570667,0.000904717786330214,-0.00166542852828147,-0.045094203246133,0.0832669266883455,-2.12129195094404,-0.000372225534912012,0
0.36,0.00164217727434098,0.000946120187133762,-0.0819904944024595,-0.0473762998856299,0.000904645103599364,-0.00166538489407034,-0.0450946034573676,0.0832672306627022,-2.12129258740665,-0.000360665577763934,0
0.37,0.00164210393268849,0.000946120001480295,-0.0819909685495227,-0.0473763002784369,0.000904581766386984,-0.00166534687403924,-0.0450949609605522,0.0832675041521464,-2.12129314453036,-0.000350546625744849,0
0.38,0.00164203989043937,0.000946119838965538,-0.0819913846941771,-0.0473762614839376,0.000904526458317224,-0.0016653136754625,-0.0450952953121764,0.0832677107705656,-2.12129363220576,-0.00034168905076261,0
0.39,0.00164198354542381,0.000946119696707445,-0.0819917279385179,-0.0473762618057029,0.000904477800995806,-0.00166528446562325,-0.0450955521331067,0.083267909850294,-2.12129405908947,-0.000333935615981756,0
0.4,0.00164193418532754,0.000946119572179887,-0.0819920197274007,-0.0473762620975442,0.000904435176033637,-0.00166525887662011,-0.045095769546851,0.0832680795881049,-2.12129443276002,-0.000327148684907789,0
0.41,0.00164189111165862,0.000946119463174276,-0.0819922750480225,-0.0473762623624522,0.000904397978233191,-0.00166523654719336,-0.0450959597726463,0.0832682281255603,-2.12129475985022,-0.000321207778106764,0
0.42,0.00164185316026385,0.000946119367755353,-0.08199247941982,-0.0473762626054288,0.000904365206765771,-0.00166521687197244,-0.0450961099831564,0.0832683481537566,-2.12129504616659,-0.00031600743450159,0
0.43,0.00164182009831257,0.000946119284230433,-0.0819926595410341,-0.0473762628274447,0.000904336655615493,-0.00166519973232222,-0.0450962425086307,0.0832684538688561,-2.12129529679173,-0.000311455339257423,0
0.44,0.00164179122731286,0.000946119211116762,-0.0819928139399179,-0.0473762630314885,0.00090431172284559,-0.00166518476561903,-0.0450963557226951,0.0832685447041494,-2.12129551617528,-0.000307470685030405,0
0.45,0.00164176630061137,0.000946119147116505,-0.0819929596323339,-0.0473762240768511,0.000904290192434527,-0.00166517184525512,-0.0450964842781357,0.0832685963782349,-2.12129570821112,-0.000303982737514314,0
0.46,0.00164174418170031,0.000946119091093557,-0.0819930654243944,-0.0473762242525014,0.000904271090694156,-0.00166516037882641,-0.0450965603517402,0.0832686594497244,-2.12129587630812,-0.00030092957977775,0
0.47,0.00164172462392631,0.000946119042054518,-0.0819931414439378,-0.0473762244171229,0.00090425420295916,-0.00166515023916007,-0.0450966128019049,0.083268705992481,-2.12129602345088,-0.000298257013137835,0
0.48,0.00164170762728939,0.000946118999127973,-0.0819932074464369,-0.0473762245707172,0.000904239525334909,-0.00166514142787728,-0.045096658248007,0.0832687464586319,-2.12129615225136,-0.000295917595050915,0
0.49,0.00164169272612825,0.000946118961552639,-0.0819932573010734,-0.0473762247152895,0.000904226657545613,-0.00166513370280459,-0.04509669127355,0.083268777745874,-2.1212962649959,-0.000293869796912738,0
0.5,0.00164167968761226,0.000946118928660696,-0.0819932944388546,-0.0473762248518394,0.000904215398174634,-0.00166512694338679,-0.0450967146354963,0.0832688017401077,-2.12129636368572,-0.000292077266863517,0
0.51,4.58428576196219,-0.000708185421602947,10.7869528377342,0.0462191094742933,-1.12414591424753,4.44431911684303,-2.59872156116077,10.4693425761669,0.24758928648655,75.8564722881573,3786.90353266867
0.52,4.63879654587013,-0.0442293141414232,8.06287307718009,2.24066759705787,-4.18847098220864,1.99426689723374,-6.26394879515987,5.54918543849779,1.11689006497749,161.718297650827,3786.90353266867
0.53,4.57214535257129,0.100546225359891,11.3971350217866,-5.00223477257773,-2.31066344945991,-3.94657536248877,-1.16954473740511,-12.3914972675633,2.63390129133382,253.948590156665,3786.90353266867
0.54,4.51017381729725,-0.00663569958114119,14.4975806293949,0.375234754379586,4.47589602558935,0.555037532835415,14.4356209923277,1.39050055468087,-1.44889152644729,344.068302396206,3786.90353266867
0.55,4.56091012396381,-0.0231421014711436,11.962792384112,1.22237596239909,-4.4882866208497,0.810999337137594,-11.5377575212813,3.38862154849671,1.38695882131725,431.67891826139,3786.90353266867
0.56,4.54316410531245,0.00680064274449865,12.8521997937076,-0.26297962676185,4.4779990859284,0.766753234727858,12.6198074220388,2.44717356395569,-1.39971722349333,519.772647142048,3786.90353266867
0.57,4.5004917645635,0.0350311863556003,14.9881407496793,-1.6777704530591,-1.78837208645947,-4.13005793994394,-4.30368948087049,-14.4546716904121,2.7407375732761,609.209541316752,3786.90353266867
0.58,4.53533930290209,0.0691164586109037,13.2482389063061,-3.37885362088339,-4.271687473133,1.52537398993754,-13.6307341549785,1.06563235040184,1.24305821963696,697.438779839811,3786.90353266867
0.59,4.40326832471965,0.135065604338406,19.8543453185371,-6.67036126623829,-1.54672572553019,4.12488232401093,-13.7085710314879,15.8355242327022,0.389412650877717,784.964367103655,3786.90353266867
0.6,4.41037735982712,0.0770406472737996,19.5015834136626,-3.73761498452234,-0.707143676440652,4.35399948762951,-7.14030210214655,18.5282920773246,0.178472858525324,871.771419384296,3786.90353266867
0.61,4.31496357084551,0.0434716285124027,24.2752162481851,-2.02982413265096,-2.42336958085635,3.5704453888541,-15.5023443952723,18.7905196350716,0.606382217913536,958.597504460055,3786.90353266867
0.62,4.41449332019147,0.0831992524496392,19.3017142073503,-4.05460639154836,-4.39978350165012,-0.369565323360657,-18.7846725195873,-6.0109968112182,1.67344047890237,1046.64703143542,3786.90353266867
0.63,4.37189966873257,0.0530883230889971,21.4344608235983,-2.48381392986211,0.964678617926972,-4.26447186033943,7.39852604607494,-20.2698607489568,-2.90698155772337,1132.33206684537,3786.90353266867
0.64,4.40463047482462,0.0535163052508186,19.8011470019908,-2.52468947868469,2.41503432300613,3.68391677883523,8.52597896815774,18.049021086828,-0.568125603666311,1219.33612063168,3786.90353266867
0.65,4.3496348142945,0.0977201232503297,22.5542857221589,-4.75869214487795,-2.99999027152691,-3.15102056657121,-11.6618784276285,-19.8831976026422,2.40320579693659,1306.03273841036,3786.90353266867
0.66,4.35233298323305,0.0602106811397958,22.4227502861388,-2.87979532648187,1.24609508966124,4.17057247276483,3.35092510520921,22.3571968827991,-0.276506438565958,1392.2334258996,3786.90353266867
0.67,4.27684964191066,-0.0412483388746718,26.2004534316688,2.20779124604897,3.14358686029731,-2.90017343218253,17.5721973119734,-19.5590384180882,-2.32558534547107,1478.08953213986,3786.90353266867
0.68,4.1891023202933,0.0466809461640028,30.5914564304641,-2.17237595404497,-2.41803128373127,-3.42109369522648,-15.5895747132159,-26.4106339205207,2.53746001822923,1563.57782501755,3786.90353266867
0.69,4.23951534221902,0.0323051346495491,28.0744946051017,-1.3924905815404,-4.18117197300581,-0.701665797075727,-27.410210552736,-6.22869447045218,1.74468251558292,1648.62284488283,3786.90353266867
0.7,4.26076402439631,0.184522090051479,27.0158992085854,-9.07353175574055,-4.26196555214218,0.154298754564663,-26.9508673617551,-9.26490890510876,1.57788870454185,1734.3072874514,3786.90353266867
0.71,4.24990026501708,0.107095788694807,27.5629566336612,-5.13339405886147,-3.84476379403997,-1.81408741205814,-22.3165302132752,-16.9717645574235,2.03685198197437,1819.33817597235,3786.90353266867
0.72,4.08657450595858,0.0280217240244305,35.7332075456203,-1.23637780024896,-0.118869756327578,-4.08494141828234,0.441631994893432,-35.7518630667607,3.1193582749455,1904.8084603456,3786.90353266867
0.73,4.18157273091827,0.178567509065238,30.9873726880663,-8.65134871494718,4.17529716128625,0.290397097451039,29.824886081531,12.0639658040146,-1.45867940712878,1989.13199344469,3786.90353266867
0.74,4.05160193849015,0.15308228409714,37.489966881641,-7.37249054946436,-2.99451104130408,2.73346228750087,-33.3846298143002,18.5827265451176,0.868706201957454,2073.85691804742,3786.90353266867
0.75,4.16804818050019,0.173520946355426,31.6718743123141,-8.3777716348012,2.46922479127659,-3.3623896389235,26.3327852405937,-19.4904874616484,-2.46656538864757,2158.34086232939,3786.90353266867
0.76,3.99507465151274,0.193633379608153,40.32480132759,-9.38094973727236,-3.47252343841558,1.98486682840753,-40.1924960966613,9.93252624475276,1.09995710128623,2242.7930603031,3786.90353266867
0.77,4.04959207846196,0.146993215756233,37.6031394247561,-7.16419863894365,-3.58637707278163,1.88645235806434,-36.996023561568,9.82934775902218,1.12284413127117,2327.64904733053,3786.90353266867
0.78,4.0829716634216,0.172817293419416,35.9383707544286,-8.38132865761242,1.58651699489135,3.76609708400215,4.68435625558161,36.6042343045238,-0.356399937847983,2411.72039751657,3786.90353266867
0.79,3.98805320735758,0.185645234474324,40.6886158957475,-8.95115468861605,3.80834947743081,1.19812636877358,35.1229349098365,22.406831036329,-1.21947798776323,2495.56290861443,3786.90353266867
0.8,4.09211537830406,0.175465814349314,35.4897900364253,-8.47864511463472,4.08850822336503,0.24555453332081,34.4318719025222,12.0772023704902,-1.46795594727812,2579.23141858777,3786.90353266867
0.81,3.92837542769423,0.163748440631666,43.680977784614,-7.97423400359414,3.58026399345818,1.62500978146842,35.3939697779789,26.8119960375862,-1.10306119649297,2663.19253223228,3786.90353266867
0.82,3.88707537737435,0.154390742781947,45.7501547149671,-7.51356184508922,0.63967623603976,3.83718722554591,-1.72847246532944,46.3307959243094,-0.125487320241598,2746.66247319801,3786.90353266867
0.83,3.90854146467563,0.261894020881467,44.680949105057,-12.8381718945549,-3.85793675751098,0.679418011468531,-45.7998036638655,-7.97394851213667,1.46338021246274,2829.74273771869,3786.90353266867
0.84,3.87996560054176,0.242063455048912,46.1137681872143,-11.8924471204282,1.71821611854886,-3.48718527577995,33.2374760190456,-34.1054262958211,-2.62147634961934,2912.91090141963,3786.90353266867
0.85,3.89480633679124,0.199913132781011,45.3757096792781,-9.76197606446022,-0.522452104648053,3.86478013088925,-17.9699869116006,42.7940507077576,0.185651456137097,2995.97633102468,3786.90353266867
0.86,3.9015101566628,0.270401323916589,45.0444001407712,-13.1938410109267,1.48483077635615,-3.61803481797846,31.7725619390722,-34.5482232899369,-2.68295938413718,3078.57911805889,3786.90353266867
0.87,3.67966525528022,0.21002119012277,48,-10.1124334942276,-3.53219534537137,1.05244540635317,-49.03841635758,1.22271514090928,1.3382284057117,3161.22199073301,3786.90353266867
0.88,3.8431622212187,0.159484753126778,47.9693128215698,-7.65058032578836,-3.77711513848243,-0.727139928575939,-44.9313700600328,-18.4596407446989,1.80245613024451,3243.81082765094,3786.90353266867
0.89,3.21066838366882,0.178305808530197,47.9212255332649,-8.73779687473225,-2.01246207041509,2.50802329462602,-38.5187482488076,29.8177628969562,0.731686938119847,3319.26068933596,3786.90353266867
0.9,2.56423979998412,0.200560383963066,48,-9.71772022318645,-0.239834495950995,2.56086501674531,-17.7639805463116,45.6385262852164,0.171436778584943,3383.24634885992,3786.90353266867
0.91,2.14097115103869,0.140860906137481,48,-6.7985737761419,0.0420793005650841,2.14518731045141,-9.00265964071724,47.6358344608662,0.0460851472511898,3438.07759176232,3786.90353266867
0.92,1.91333308106424,0.11753018460996,43.4756014616075,-5.68732222196784,-0.437881740408409,1.86625732545277,-17.9543007305674,40.0014579956952,0.291812049715161,3484.76827711444,3786.90353266867
0.93,1.53008631331226,0.107963587028708,46.1013823869047,-5.2639440442429,-1.08169035455281,1.08755056856085,-38.1921215871098,26.351630187902,0.853140367856238,3524.44479596544,3786.90353266867
0.94,1.2360973848919,0.157898434664828,46.6898324416928,-7.79153828785645,-1.2460150073067,0.0177556236919703,-45.5160555638081,-12.9975847078147,1.68359877459226,3558.33464885028,3786.90353266867
0.95,0.941266083126286,0.105541243764474,48,-5.1798929495779,-0.462659767602428,-0.826478513224221,-13.8597203806942,-46.2465073485345,2.74291977920402,3587.08085832556,3786.90353266867
0.96,0.784308869354739,0.168802092097194,47.0998111194739,-8.33220764413652,0.295229192071423,0.745972032313379,-0.489511534470719,47.8286344167669,-0.164859441219872,3611.6642236929,3786.90353266867
0.97,0.596757426173668,0.106030981191117,47.7861247973356,-5.17885061846076,-0.534741060890423,0.285331373079717,-47.0461535632667,9.84853551429829,1.25648422494104,3632.5924404639,3786.90353266867
0.98,0.471675003184124,0.14842347698744,46.607834832395,-7.3136761879537,-0.289974920814687,-0.400526381713241,-7.80164343523441,-46.5286415754374,2.81981385011885,3650.63875124867,3786.90353266867
