t,iq,id,vq,vd,ia,ib,va,vb,theta_e,omega,r
0,0,0,0,0,0,0,0,0,0,0,0
0.01,0.000527796808512719,0.000289679784759171,-0.0241222591252512,-0.0144929217429832,0.000165391376021712,-0.000578903741145258,-0.00666808696261082,0.0273398021611909,-2.36135078451468,-0.0045953397713301,0
0.02,0.000638450359467923,0.000346721907337115,-0.0295797671820621,-0.0173467875525499,0.000202663770609062,-0.000697683551916429,-0.00847763657184963,0.0332265457592861,-2.36138616148388,-0.00495197550190283,0
0.03,0.000677365710903174,0.000368624385409329,-0.0316276685601362,-0.0184425809340198,0.000214444528337147,-0.00074075757714115,-0.00913809725726803,0.0354532563888623,-2.36142090043137,-0.00463480337994284,0
0.04,0.000661054580510735,0.000362018073474358,-0.0311809659042515,-0.0181120668379138,0.000207645271887188,-0.000724523074166176,-0.00905776750693832,0.0349035305900908,-2.36145085300362,-0.00388417225417693,0
0.05,0.000673059444499811,0.000371101116873414,-0.0319568907815554,-0.0185664965276024,0.000209613449662835,-0.000739450645070741,-0.00927958165377689,0.0357749497003786,-2.36147716108568,-0.00347684070908698,0
0.06,0.000671825794034047,0.00037257356738686,-0.0321145256494853,-0.0186401734768859,0.000207682095648526,-0.00073961416143276,-0.00933725860390747,0.035939037642981,-2.36150012765947,-0.00300915679723722,0
0.07,0.000679804135518383,0.000379303457756633,-0.0326466832490605,-0.0189768779105233,0.00020849523544074,-0.000750023008002117,-0.00947149870807548,0.0365543230633303,-2.3615194019462,-0.00270291373603773,0
0.08,0.000667538736221013,0.000373900582263776,-0.0322616384393569,-0.0187065619877465,0.000203696597838633,-0.000737507495420694,-0.00939222064832291,0.0360906493081852,-2.3615366153559,-0.00224386224631811,0
0.09,0.000663028140821609,0.00037301998150978,-0.0321946877384214,-0.0186625020188657,0.00020113963747783,-0.000733684583702154,-0.00937593530037626,0.0360122026183041,-2.3615510194625,-0.00191478166078844,0
0.1,0.000660312594951476,0.000372874774442169,-0.0321872877860689,-0.0186552417745285,0.000199324045845421,-0.000731654457523948,-0.00937545168645509,0.0360019505911038,-2.36156325087781,-0.00164600608665934,0
0.11,0.000658211843557766,0.000372849398712381,-0.0321904219835973,-0.0186539730697439,0.000197857017334166,-0.000730145263500027,-0.00937818269236409,0.036003384120905,-2.36157367183993,-0.00141905054214947,0
0.12,0.000656461209398864,0.000372843758536281,-0.0321948858748757,-0.0186536912282575,0.000196623342027104,-0.000728898517692945,-0.00938120255700666,0.0360064426390591,-2.3615825569164,-0.0012259322780488,0
0.13,0.000682241175613581,0.000387937455183703,-0.0334158221319225,-0.0194088365567721,0.000204017517930509,-0.000757842558328894,-0.00970272091165878,0.037405578623385,-2.36159089995088,-0.00130701651483247,0
0.14,0.000697250085408721,0.00039737136245692,-0.0343798717228453,-0.0198808239789243,0.000207860505319301,-0.000775148819022349,-0.0100448887938587,0.0384229482325248,-2.36159839261524,-0.00130191207956115,0
0.15,0.00066041153458001,0.000376825641290735,-0.0325775929029288,-0.0188528964487415,0.000196554324101067,-0.000734511644984387,-0.00950792176065956,0.0364188232600822,-2.36160499719647,-0.000818297625559146,0
0.16,0.00065276625058418,0.0003734854271089,-0.0322802534438058,-0.0186857840651802,0.00019354895938077,-0.000726728245279531,-0.00941745200123319,0.0360899554769931,-2.36160952901651,-0.0006551832998393,0
0.17,0.000650765784938735,0.000372941891837926,-0.032225265998362,-0.0186585982766718,0.000192525860151848,-0.000724924516558359,-0.00939797647663439,0.0360317789799509,-2.36161318449489,-0.000563480901457916,0
0.18,0.000649919152949255,0.000372853018780784,-0.0322161294917907,-0.0186541538015864,0.000191991407014939,-0.000724260711772111,-0.00939459993283536,0.0360221868518145,-2.36161626209383,-0.000494289622839138,0
0.19,0.000649360539264957,0.000372838123874781,-0.0322155124440969,-0.0186534052847999,0.000191607249793493,-0.000723853602875275,-0.00939460386167082,0.0360212463559639,-2.36161887909806,-0.000436996972529018,0
0.2,0.000648915079101204,0.000372835319393341,-0.0322163390004916,-0.0186532726810105,0.000191294355202463,-0.000723535365369054,-0.00939519907802093,0.0360217616808379,-2.36162110943425,-0.000388463733823163,0
0.21,0.000648541334246265,0.000372834536416586,-0.0322173100195007,-0.0186532217825532,0.0001910306968649,-0.000723269470271079,-0.00939584963578816,0.0360224340846561,-2.36162301118557,-0.000347136656010065,0
0.22,0.000648223581905921,0.000372834130079415,-0.0322181749194368,-0.0186532035634891,0.000190806351320166,-0.000723043592729305,-0.00939641241541167,0.0360230513982351,-2.36162463294201,-0.000311904809429317,0
0.23,0.000647952861360797,0.000372833825974083,-0.0322189188721866,-0.0186531880424403,0.000190615181769363,-0.000722851177501393,-0.00939689681830987,0.0360235823818956,-2.36162601596181,-0.000281861422475862,0
0.24,0.000647722071270722,0.000372833573479519,-0.0322195518506823,-0.018653172340367,0.000190452204469172,-0.000722687147344945,-0.00939731063928491,0.0360240324306847,-2.36162719539535,-0.000256240926899935,0
0.25,0.000647525038336633,0.000372833359229712,-0.0322200755940796,-0.0186531719218722,0.000190313065668032,-0.000722547109926685,-0.00939764302791724,0.0360244139377029,-2.36162820121289,-0.000234391916691978,0
0.26,0.000652590853115072,0.000375800778009728,-0.0324510667814496,-0.0188016265245289,0.000191765475728871,-0.000728235572215924,-0.00945452187947987,0.0362930421878961,-2.3616288779512,-0.000269433621116376,0
0.27,0.000640136734243971,0.000368555923495149,-0.0319098123321897,-0.0184391568744324,0.000188156843137625,-0.000714286713898825,-0.00933153271622592,0.0356533466378894,-2.36163010652634,-0.000125870529283883,0
0.28,0.000639620881018514,0.000368383225518147,-0.0316718640470138,-0.0184305238727003,0.000187916410044278,-0.000713798637652192,-0.00917031080708854,0.0354781141287991,-2.36163071699325,-0.000108817186085857,0
0.29,0.000645572980024523,0.000372109532068511,-0.032158975466583,-0.0186169570335988,0.000189452870298623,-0.000720650807485569,-0.00938032093871052,0.0359555332506409,-2.36163097494101,-0.000160654248227712,0
0.3,0.000637055320523122,0.000367803087057824,-0.0317718559848852,-0.0184015064623857,0.000186525141086875,-0.000711566556267651,-0.00926128616829583,0.0355287890494236,-2.36162998101442,-9.8877107575153e-05,0
0.31,0.0006451971821071,0.00037201536159624,-0.0321356828826067,-0.0186122374587891,0.000189256051724656,-0.000720317277280031,-0.00936732128447325,0.0359356478932448,-2.36163026341088,-0.000171180929417346,0
0.32,0.000646658785457717,0.000372699928933245,-0.0322050720707066,-0.018646493450696,0.000189796884873669,-0.000721837907240086,-0.00939174765194913,0.0360090747052512,-2.36163075802645,-0.000175349898253171,0
0.33,0.000646863047060126,0.000372811115610391,-0.0322184467506521,-0.0186520609342101,0.000189861145816189,-0.000722061406588068,-0.00939717834546941,0.0360225030676872,-2.36163122808579,-0.000167974421559042,0
0.34,0.000646839245187011,0.000372829116891035,-0.0322211481911392,-0.0186529507394963,0.000189831313187193,-0.000722057222143423,-0.00939843076843528,0.0360250532426582,-2.36163163812503,-0.000159606388411341,0
0.35,0.000646781154228463,0.000372831982193146,-0.0322217854060677,-0.018653096608748,0.000189788169826129,-0.00072201800462677,-0.0093987625262097,0.0360256121506059,-2.36163198954961,-0.000152075018639498,0
0.36,0.000646724460015758,0.000372832396198209,-0.0322220092634746,-0.0186531217036479,0.000189747788593323,-0.000721978046453987,-0.0093988913045924,0.0360257917679959,-2.36163228957539,-0.000145577160395383,0
0.37,0.000646674692471654,0.000372832419377056,-0.032222132244321,-0.0186531249387267,0.000189712588264948,-0.00072194272949845,-0.00939896627118769,0.0360258838806675,-2.36163254549933,-0.000140021520449461,0
0.38,0.000646632026256411,0.000372832385522411,-0.0322222222559792,-0.0186531252287776,0.000189682449705455,-0.00072191241390389,-0.00939902150262305,0.0360259501291418,-2.36163276376282,-0.000135280969637816,0
0.39,0.000646595588260856,0.000372832347934272,-0.0322222914926126,-0.0186531254881925,0.000189656717005586,-0.000721886517479893,-0.00939906330315987,0.0360260012842994,-2.36163294989948,-0.000131237724065914,0
0.4,0.000646564683279639,0.000372832314461233,-0.032222353837596,-0.0186531103057693,0.000189634892264426,-0.000721864552396694,-0.00939911222247055,0.0360260364228961,-2.36163310863655,-0.000127789556728346,0
0.41,0.000646538140586393,0.000372832285684505,-0.0322223924522383,-0.0186531105170793,0.000189616148839657,-0.000721845687512823,-0.00939913435113578,0.0360260652966396,-2.36163324400738,-0.000124848950046346,0
0.42,0.000646515556014069,0.000372832261105813,-0.0322224227215287,-0.0186531107087908,0.000189600200369792,-0.000721829635793092,-0.00939915134274961,0.0360260880362465,-2.36163335945111,-0.000122341204869545,0
0.43,0.00064649623107074,0.000372832240138715,-0.0322224400734632,-0.0186531108843615,0.000189586553937616,-0.000721815900795753,-0.00939915987390971,0.0360261014212876,-2.36163345790128,-0.000120202605717362,0
0.44,0.000646479816510443,0.000372832222256491,-0.0322224529421415,-0.0186531110455205,0.000189574962503315,-0.000721804234332244,-0.0093991657845567,0.0360261114726452,-2.36163354185931,-0.000118378813867021,0
0.45,0.000646465846671892,0.000372832207006252,-0.0322224601326856,-0.0186531111945796,0.000189565097371759,-0.000721794305431121,-0.00939916815590362,0.036026117362504,-2.3616336134583,-0.000116823488959916,0
0.46,0.000646453855893803,0.000372832194000755,-0.0322224571929313,-0.0186531113338431,0.000189556630027723,-0.000721785783107367,-0.00939916378977404,0.036026115944354,-2.36163367451784,-0.000115497111972162,0
0.47,0.000646443669553193,0.000372832182909626,-0.0322224514150125,-0.0186531114641619,0.000189549436782323,-0.000721778543276301,-0.00939915775787738,0.0360261124176593,-2.36163372658909,-0.000114365981171468,0
0.48,0.000646434996611759,0.000372832173451053,-0.0322224419970447,-0.0186531115869853,0.000189543312207587,-0.000721772379079484,-0.00939914944758151,0.0360261062257839,-2.36163377099543,-0.000113401355806655,0
0.49,0.000646427546031199,0.000372832165384757,-0.032222426016158,-0.0186531117037498,0.00018953805098708,-0.000721767083650553,-0.00939913676171468,0.0360260953023489,-2.36163380886499,-0.000112578725838153,0
0.5,0.000646421259603851,0.000372832158505643,-0.0322224105486701,-0.0186531118147441,0.000189533611637485,-0.000721762615645516,-0.00939912464183422,0.0360260846874547,-2.36163384115983,-0.000111877189168362,0
0.51,4.72722233258091,0.0179150476530405,3.63962060540987,-0.879826962242152,-1.07940268585588,4.60237349335658,-1.70029572366726,3.33615468569597,0.234157908924557,72.5548539331305,5354.07406283286
0.52,4.71958717813235,0.0706743894742774,4.02226335673637,-3.49882347041114,-4.1111907812408,2.31896708936532,-5.20569144966897,-1.1494105963003,1.07219456305271,157.045100351054,5354.07406283286
0.53,4.69941334205299,0.0412520571670498,5.03195992011538,-2.01217358248161,-2.61737459147888,-3.90327269602918,-1.08469408081641,-5.30969885348748,2.55967810795655,247.8034541701,5354.07406283286
0.54,4.67697432240535,0.0168639000041673,6.15497783249964,-0.765638373943277,4.6741599618969,-0.163100748503202,6.17590892321033,0.572802942055555,-1.60207059247962,332.323739188459,5354.07406283286
0.55,4.64253200877362,0.0649175415535197,7.87831230617537,-3.15083632901345,-4.22389407758545,1.92770240468479,-8.48019944937129,0.285992420787868,1.15663146306807,418.297716053098,5354.07406283286
0.56,4.66951660824891,0.0572695581768135,6.53044564571477,-2.74726890720558,4.59520193609055,-0.831735729397171,6.89593005043142,1.62491708086613,-1.73759464995285,504.614020237088,5354.07406283286
0.57,4.65370770797938,0.0483342294257505,7.32233441916057,-2.29923681223722,-3.55683273671024,-3.0013784353372,-4.04585181427861,-6.52182139909311,2.28208593851756,591.768106662768,5354.07406283286
0.58,4.65475872667142,0.0609145310176767,7.27132011416393,-2.89982488818596,-2.76567397291038,3.74453426465548,-6.70595679518519,4.03871564310948,0.649244111713238,677.014445138777,5354.07406283286
0.59,4.61054675999353,0.0433676973449864,9.48353718151896,-2.01837859841575,1.65206275936906,4.30461506088125,1.42350173789295,9.59087964902131,-0.357047593284737,763.208741167353,5354.07406283286
0.6,4.57063207322072,0.0907206601317618,11.4810094600664,-4.35457815007931,3.13540947058485,3.32687770119304,4.47931807974519,11.4329190772851,-0.735932276943813,848.041306455429,5354.07406283286
0.61,4.57193023190077,0.12367658710563,11.417921967216,-5.99157311202493,2.25800275557706,3.97734402577558,0.0779614454053847,12.8942550160606,-0.489298415465018,933.363936243877,5354.07406283286
0.62,4.56867837147058,0.0792087425641281,11.5824119589775,-3.76323351184749,-1.62891593564692,4.2691602173539,-7.8081452538923,9.34596495533106,0.381839990579992,1018.86686165455,5354.07406283286
0.63,4.54286920744387,0.105167252536717,12.8748820530196,-5.02313259527882,-4.36446258466715,-1.26498503310845,-10.7700606420116,-8.66026805106585,1.87604969979845,1103.15124333682,5354.07406283286
0.64,4.5748712184647,0.0823273630127255,11.2769082149938,-3.8866831295915,3.38239440086555,-3.08149843050921,11.0368515419197,-4.5235906844973,-2.29168418170454,1188.38249380479,5354.07406283286
0.65,4.49725171694532,0.159569716644252,15.1600381397601,-7.72275453498806,-1.78943732635677,4.12900103597453,-13.4903469791379,10.3671708961087,0.444416059239251,1272.67528934807,5354.07406283286
0.66,4.49141868581188,0.166126191957474,15.4540060204586,-8.02439463549721,2.61630070653945,-3.65450548445006,15.8018743159287,-7.31559836583176,-2.48329717466308,1356.95141951015,5354.07406283286
0.67,4.48609910672505,0.110710757896742,15.7223687026588,-5.26696356078884,-4.46248510847636,0.472830544592961,-16.0965369024839,-3.97935704856895,1.48990703563843,1441.46458031815,5354.07406283286
0.68,4.54675023477476,0.150425956726307,12.6922609624252,-7.20896110768895,1.06427344679287,4.42299533080615,-4.50120951738779,13.8853059552554,-0.203061545429247,1525.28036270097,5354.07406283286
0.69,4.45171265913927,0.156816326553118,17.4466481065703,-7.54565996124481,4.31020654098466,1.12448056180064,14.5554216711798,12.2254739940575,-1.28038529986643,1609.39071606269,5354.07406283286
0.7,4.41452373600511,0.194580227573784,19.3087281467984,-9.37113196526368,4.31594010860728,-0.947914690059286,20.6286027385277,5.92501865088702,-1.74294596347581,1692.77777752713,5354.07406283286
0.71,4.42808711285087,0.208605883322095,18.6332774499932,-10.0582086123559,-2.93010351549923,3.32655456621586,-20.1870250012625,6.39144824093096,0.769193000313678,1776.38567519193,5354.07406283286
0.72,4.44230083960863,0.20095453983668,17.9253594146339,-9.65166285962273,-4.43123449783717,0.372263753065262,-18.2845266349143,-8.95260810248799,1.53218985739283,1859.89916190475,5354.07406283286
0.73,4.39236710428938,0.218432466296551,20.4249255027669,-10.5750291024085,-1.23475982213133,-4.22089678893314,5.53068656689002,-22.3253293012485,2.90668760013083,1943.56715075939,5354.07406283286
0.74,4.43561712474084,0.245826563398419,18.2653388911936,-11.8754434951608,4.40845191062498,0.548344534278787,15.8574307193562,14.9395667272423,-1.39168267182194,2026.44378184759,5354.07406283286
0.75,4.39465178814079,0.202166132951088,20.3165929904081,-9.71787671459578,-4.02734724364066,1.77039816523328,-22.4527225396754,-1.7539467307575,1.20259990531307,2109.8163959001,5354.07406283286
0.76,4.35341804906522,0.231818857913552,22.381349310772,-11.2029709594553,4.07991282264585,-1.53632680521468,24.7201910139994,3.91707946314286,-1.87773325252357,2192.78985015378,5354.07406283286
0.77,4.36114245810936,0.251100796067976,21.9982406387342,-12.1475328270374,-4.16740701304342,-1.30970757703644,-16.2702922896146,-19.1510504618967,1.93280986890938,2275.62521252008,5354.07406283286
0.78,4.35932711922514,0.23140016802595,22.0921846910955,-11.1135729529813,-0.060792480560525,4.36504103583019,-12.5668142370554,21.2990917209644,0.0669580805325954,2358.16757088821,5354.07406283286
0.79,4.29641123468837,0.286304918556058,25.2412743471196,-13.8384132513134,4.09933075893392,1.3178039811763,18.3615677070532,22.1692679924256,-1.19322246087657,2440.68080953915,5354.07406283286
0.8,4.3167102458727,0.272771244972435,24.2296891771811,-13.1486982212111,-1.87928696942596,3.89572483441168,-23.3416421156705,14.667441695103,0.512572216062049,2523.02581896019,5354.07406283286
0.81,4.29938496607444,0.296643951445752,25.0994195213486,-14.3606091378631,-1.64316838298008,3.98405652389758,-24.011804131082,16.1133862825195,0.460068552210979,2605.36912359665,5354.07406283286
0.82,4.3161152152069,0.254910092503966,24.2664380798349,-12.2565900776022,-3.51905802919706,2.51198333858818,-27.0679995392514,2.53128788483752,1.0098450799333,2687.44789011926,5354.07406283286
0.83,4.342046933984,0.30421488591241,22.9734956111405,-14.6746332770879,-3.77793959471934,-2.16173326115467,-10.9333356016571,-24.971754744784,2.16047128112675,2769.17844619307,5354.07406283286
0.84,4.20602085014348,0.364706007035203,29.7785069584223,-17.6782991289245,2.66330290784382,-3.27573495333183,33.4134547338387,-9.1007021440243,-2.37245691204803,2850.93859612105,5354.07406283286
0.85,4.26438272174997,0.285118343205848,26.8642248608697,-13.7142283663327,0.385779733802535,4.2564570318728,-13.0757656746143,27.1807098708233,-0.0236260066214845,2932.53489251818,5354.07406283286
0.86,4.19969726412312,0.322587706080977,30.10237157247,-15.6274020241832,-1.22692881963818,-4.02941256387815,8.71716993880092,-32.7777274467063,2.92268034999448,3014.09980442747,5354.07406283286
0.87,4.19925978650379,0.339147883362742,30.1282183393276,-16.4497986549902,-2.6455418299155,-3.27870591354342,-3.37825768379455,-34.1598125157881,2.54325583745104,3095.33938505733,5354.07406283286
0.88,4.20834718895007,0.255261927727229,29.6779211805048,-12.2286291272744,-1.39330491717222,3.97920169409326,-22.7613902669836,22.6326642055844,0.397387508481058,3176.39746061723,5354.07406283286
0.89,4.24189717952733,0.408537510873373,28.0045769514445,-19.8257849672324,4.04512600436051,1.34072748473316,17.60262021896,29.4527730650846,-1.15473434634829,3257.1515151071,5354.07406283286
0.9,4.17629737379866,0.440454053068456,31.2888296767513,-21.479377326686,3.34567992536464,-2.53808694970722,37.8888802823648,2.18798167989008,-2.11471226212748,3337.94437539505,5354.07406283286
0.91,4.24299221195397,0.441511038035223,27.958390104716,-21.4234844645102,2.24727643470083,-3.62597070223234,34.0528124057823,-9.00240140769048,-2.4830779893771,3418.46136955644,5354.07406283286
0.92,4.15231775031118,0.362442123151267,32.4965100611135,-17.4999272497845,-0.055451614623077,4.16773704912143,-20.6680605620987,30.5794357780065,0.100370216506204,3499.00429292684,5354.07406283286
0.93,4.16844532598885,0.380200052332414,31.6946307297898,-18.3680091962557,-3.06232928362065,2.85352902109498,-36.3043677146793,4.89144802372655,0.911635932336898,3579.26536841005,5354.07406283286
0.94,4.14777990134779,0.468443630118932,32.7324955533881,-22.7357274553017,-3.37937221519978,-2.45017570303834,-8.84944201790477,-38.8589364760035,2.31059176115908,3659.27854684698,5354.07406283286
0.95,4.08192418946855,0.446112821797571,36.0300109659749,-21.727114032294,3.55265805923706,-2.0590634891811,41.7393393346686,5.29686004024698,-1.9872109230762,3739.30126823233,5354.07406283286
0.96,4.09128678903605,0.409561265404578,35.5666288376532,-19.7799691234744,-1.91114751251105,3.64058830488749,-36.096626839923,18.7953663486599,0.583185596027466,3818.93919158924,5354.07406283286
0.97,4.08403345326039,0.340136182016961,35.9341652820845,-16.352619756689,2.01184539251301,-3.57036412516864,33.7091104358634,-20.5516004498382,-2.54536290879147,3898.63646238208,5354.07406283286
