t,iq,id,vq,vd,ia,ib,va,vb,theta_e,omega,r
0,0,0,0,0,0,0,0,0,0,0,0
0.01,0.000648388526019427,0.00036986124120576,-0.031539989957572,-0.0185168227937197,0.000745129251707885,-4.45804516481973e-05,-0.0364784292273101,0.00263967687528046,-1.11216009058289,-0.00194798122839129,0
0.02,0.000718128153374617,0.000409653754767393,-0.0350566183896688,-0.0205090026898146,0.000825278233853982,-4.93971678450563e-05,-0.0405135865894745,0.00286966651491825,-1.11217463220426,-0.00208299263740367,0
0.03,0.000744954100102717,0.000424992825423804,-0.0363750874382671,-0.0212769402970683,0.000856122119656065,-5.1287709611205e-05,-0.0420357411342432,0.00297517089281937,-1.11218951599179,-0.00208304125572786,0
0.04,0.000729097976486615,0.000416197005560277,-0.0356386249353585,-0.0208365930465956,0.000838009802115061,-5.04319176047635e-05,-0.0411803953330422,0.00290692918505862,-1.11220343232441,-0.00195615973014421,0
0.05,0.000744761921680576,0.000425216497663667,-0.036418102129386,-0.0212881386845104,0.000856047389368941,-5.15970641153161e-05,-0.0420791864466872,0.00296733539430095,-1.11221722124947,-0.00192771532622682,0
0.06,0.000745045365292843,0.000425528166740309,-0.0364568690421166,-0.0213037474334248,0.00085643882622037,-5.17624765248738e-05,-0.0421208181293205,0.002964731889716,-1.11223055259208,-0.00185414041215844,0
0.07,0.000765107686012833,0.000437163330887398,-0.0374457471333288,-0.0218862544874546,0.000879578250234734,-5.33258922333195e-05,-0.043265348960975,0.00304986772629396,-1.11224321480116,-0.00184562612388138,0
0.08,0.000745248571221075,0.000425939990270258,-0.0365138596102063,-0.0213243661151201,0.000856802032362908,-5.20632841575688e-05,-0.0421809738454904,0.00295905040369279,-1.11225562480437,-0.00171474548043215,0
0.09,0.000744279141111458,0.000425548341862436,-0.0364894313788453,-0.0213047524052832,0.000855758771377058,-5.21512834617399e-05,-0.0421503524687012,0.00295277228484265,-1.11226740571922,-0.00164594476369829,0
0.1,0.000744003699977778,0.000425533206434215,-0.0364974740066191,-0.0213040037668717,0.000855504492165023,-5.22692954254552e-05,-0.0421571996449742,0.00294901737134703,-1.11227870385688,-0.00158199224702894,0
0.11,0.000743763067318325,0.000425531218131315,-0.0365063243430291,-0.0213039099319893,0.000855287266735593,-5.23832919072757e-05,-0.0421650623690829,0.00294547293997141,-1.11228954318823,-0.00152071026218607,0
0.12,0.000743533464473838,0.000425529745912136,-0.0365148748503778,-0.0213038216824532,0.000855080181098947,-5.24924884179366e-05,-0.0421726600791523,0.00294204783523097,-1.11229994249603,-0.00146191868252799,0
0.13,0.000778976152718748,0.000445869756776414,-0.0382393144789432,-0.0223221313895766,0.000895864236324615,-5.50541241586415e-05,-0.0441696699289899,0.00309240682270584,-1.11231032943542,-0.00151379816502785,0
0.14,0.000817322672851508,0.000468193879365015,-0.0402464674388355,-0.0234397710477626,0.000940130343834115,-5.81102128230798e-05,-0.0464641567269711,0.00320673474553837,-1.11232026905535,-0.00157717844798685,0
0.15,0.000745559135943205,0.000427008416945604,-0.0366687465443444,-0.0213778495065241,0.000857549513856967,-5.29475647641085e-05,-0.0423433163964117,0.00294159467131922,-1.1123298960649,-0.00130091238436067,0
0.16,0.00074277457575356,0.000425575857448638,-0.0365513343442505,-0.0213061388245037,0.00085441803174579,-5.29028152055703e-05,-0.0422062661297819,0.00292962341201694,-1.11233867446315,-0.00124325272443938,0
0.17,0.00074249485539961,0.000425524934928189,-0.0365537073827968,-0.0213035951636169,0.000854144214478077,-5.29881252183472e-05,-0.0422072437842006,0.00292664696597974,-1.11234707993172,-0.00119544242664526,0
0.18,0.000742313419859305,0.00042552207635596,-0.0365601632441864,-0.0213034374868213,0.000853979820978117,-5.30727437738723e-05,-0.0422129396547403,0.00292398886826172,-1.11235514358417,-0.00114984481933798,0
0.19,0.000742142258581464,0.00042552093230883,-0.0365664945492254,-0.0213033819133766,0.000853825415735866,-5.31540708586577e-05,-0.0422185700169138,0.00292146372434358,-1.11236287987512,-0.00110610806661594,0
0.2,0.000741978256846705,0.000425519890157871,-0.0365725773055289,-0.0213033292593871,0.000853677491419218,-5.3232050471809e-05,-0.0422239797432319,0.00291903801720502,-1.1123703021141,-0.00106414714176023,0
0.21,0.000741820687607734,0.000425518892147022,-0.0365783998941,-0.0213032943008869,0.000853535369949625,-5.33069637270563e-05,-0.0422291649111892,0.0029167306674558,-1.11237742305103,-0.00102388961249392,0
0.22,0.000741669724386513,0.000425517934628759,-0.0365839947259088,-0.021303241660567,0.000853399204794713,-5.33787412556916e-05,-0.0422341388896634,0.00291449611467645,-1.11238425491687,-0.000985266317909655,0
0.23,0.000741524931175843,0.000425517015901427,-0.0365893626459877,-0.0213031890275507,0.000853268603702223,-5.34475847260907e-05,-0.042238910226359,0.00291235033482255,-1.11239080944663,-0.00094821091663474,0
0.24,0.000741385871970371,0.000425516134394555,-0.0365945035009669,-0.0213031540770934,0.000853143174492014,-5.35136954904148e-05,-0.0422434865687488,0.00291030971386187,-1.11239709789818,-0.000912659760822569,0
0.25,0.000741252603874055,0.000425515288603162,-0.0365994410669204,-0.0213031014537177,0.000853022967228215,-5.35770563419769e-05,-0.0422478735580625,0.00290833247417319,-1.11240313107365,-0.000878551786392921,0
0.26,0.000748683896571998,0.000429814238112985,-0.0369677038647476,-0.0215183305890707,0.000861589095655942,-5.4148744377423e-05,-0.0426733423179322,0.00293862821547589,-1.1124088723233,-0.000869528221916694,0
0.27,0.000723360975626024,0.000415364477973384,-0.0357603601753474,-0.0207949184516404,0.000832485973927757,-5.24008953577103e-05,-0.0412705081590454,0.0028243848135687,-1.11241459459147,-0.000759057319975247,0
0.28,0.000720135640314031,0.000413491388541772,-0.0354807752611554,-0.0207011457325216,0.00082876447461136,-5.21527992619622e-05,-0.0409782753604648,0.00286422699059187,-1.11241994124923,-0.00071919684718982,0
0.29,0.000740019855733215,0.000425094431720697,-0.0365810964954074,-0.0212820435758138,0.000851730078856033,-5.37637008700782e-05,-0.0422220413914787,0.00289848586427502,-1.11242491437349,-0.000753073224945421,0
0.3,0.000736265410118646,0.000423064255166949,-0.0364085753795167,-0.0211803996611141,0.000847464629346526,-5.36080231280642e-05,-0.0420223402832698,0.00288385299340161,-1.11242920304508,-0.00071748080964238,0
0.31,0.000740412656068536,0.00042542591604213,-0.0366169027732082,-0.0212986315959594,0.00085222852551766,-5.38948197950906e-05,-0.0422614654939425,0.00289789766335758,-1.11243390470569,-0.000704080896842779,0
0.32,0.000740466326874546,0.000425507380783178,-0.0366280085705587,-0.0213027068949332,0.000852312458055806,-5.39479951333872e-05,-0.0422732150255116,0.00289683004389605,-1.11243844270433,-0.000678902958525187,0
0.33,0.000740375696593717,0.000425509623346883,-0.0366318269890132,-0.0213028145227121,0.000852231939763522,-5.39938192235294e-05,-0.0422766743222094,0.00289542110856188,-1.11244279747029,-0.000654300983569357,0
0.34,0.000740283407797079,0.000425509136450543,-0.0366352314136498,-0.021302801577954,0.000852148735608985,-5.40377781052421e-05,-0.0422797095308727,0.00289407978231146,-1.11244697549214,-0.000630681561483968,0
0.35,0.000740194872833866,0.00042550857759328,-0.0366384964202141,-0.021302766614517,0.00085206887481897,-5.40798663065438e-05,-0.0422826104714538,0.00289277325173006,-1.11245098391053,-0.000608020373279005,0
0.36,0.000740109801781778,0.000425508038207452,-0.0366416204677458,-0.021302749294448,0.000851992137519676,-5.41203000478632e-05,-0.0422853932898897,0.00289153805504704,-1.1124548296092,-0.000586279083548736,0
0.37,0.000740028309944531,0.000425507520581486,-0.03664462209639,-0.0213027143248569,0.00085191862780624,-5.415903606505e-05,-0.0422880589765601,0.0028903346153467,-1.11245851919355,-0.000565420369880466,0
0.38,0.000739950049188266,0.000425507023940467,-0.0366474961297471,-0.0213026969946192,0.000851848032824568,-5.41962331652733e-05,-0.0422906184837561,0.00288919713515246,-1.112462059001,-0.00054540840528149,0
0.39,0.000739875076608035,0.000425506547438506,-0.0366502571081787,-0.0213026620188777,0.00085178040310476,-5.42318705695739e-05,-0.0422930692204719,0.00288808779272847,-1.11246545511157,-0.00052620881642307,0
0.4,0.000739802985863322,0.000425506090259627,-0.0366528959920401,-0.0213026446790687,0.000851715373595611,-5.42661323590374e-05,-0.0422954186725768,0.00288704247239423,-1.11246871335894,-0.000507788625319715,0
0.41,0.000739733863709145,0.000425505651621501,-0.0366554279654378,-0.0213026273335488,0.000851653021475074,-5.42989842655902e-05,-0.0422976726343607,0.00288603886978596,-1.11247183933893,-0.000490116192708422,0
0.42,0.000739667535522523,0.000425505230772307,-0.0366578546439871,-0.0213026099827313,0.0008515931895427,-5.4330507498528e-05,-0.0422998325385502,0.00288507649580719,-1.11247483842141,-0.000473161163707272,0
0.43,0.000739603884886321,0.000425504826991826,-0.0366601800999791,-0.0213025911715635,0.000851535772820165,-5.43607573516693e-05,-0.0423019013777487,0.00288415246006504,-1.1124777157578,-0.000456894415673962,0
0.44,0.000739543056765651,0.000425504439588143,-0.0366624212255048,-0.0213025561783163,0.000851480900758255,-5.43896733159253e-05,-0.0423038877723456,0.00288324629392907,-1.11248047628983,-0.000441288008187535,0
0.45,0.000739484470197242,0.00042550406789753,-0.0366645580029799,-0.0213025388137804,0.00085142805181774,-5.44175159125181e-05,-0.0423057887155079,0.00288239737463433,-1.1124831247591,-0.000426315135052432,0
0.46,0.000739428328350422,0.000425503711283433,-0.0366666094860838,-0.0213025214441353,0.000851377407688893,-5.44441985891534e-05,-0.0423076134789121,0.00288158164933654,-1.11248566571558,-0.000411950078256709,0
0.47,0.000739374514809868,0.000425503369134615,-0.0366685782038896,-0.0213025040695884,0.00085132886347883,-5.44697760513143e-05,-0.0423093643176072,0.00288079818272313,-1.11248810352271,-0.000398168163800991,0
0.48,0.000739322796744938,0.00042550304086467,-0.0366704606383397,-0.0213024866908877,0.00085128220991195,-5.44943543797399e-05,-0.0423110380643469,0.00288004870807056,-1.11249044236848,-0.000384945719310333,0
0.49,0.000739272970987302,0.000425502725911398,-0.0366722543457976,-0.0213024869333219,0.000851237264332009,-5.45180264039311e-05,-0.0423126403135222,0.00287935028187246,-1.11249268626982,-0.000372260033381731,0
0.5,0.000739225443873786,0.000425502423734636,-0.0366739871765394,-0.0213024695444949,0.000851194390707113,-5.45406151706466e-05,-0.042314180433183,0.00287865913007084,-1.11249483908096,-0.000360089316568607,0
0.51,4.6556981043768,-0.0300624686886585,7.2162848582424,1.51081547079238,-0.676471480873775,4.60638849063839,0.493790020677281,7.35618800450095,0.13935576180146,43.0889248084211,4226.67172199862
0.52,4.64960837941084,0.00752578140652038,7.52211007844765,-0.364339125614859,-2.74897325595812,3.74994143384937,-4.75057364024359,5.84353772293465,0.634196793128766,91.9696573325038,4226.67172199862
0.53,4.63727586168369,0.0192814965466002,8.14017628626333,-0.9453673412399,-4.62068490875691,0.392390325376954,-8.18985226523126,-0.287244242785204,1.49023711225992,141.934237146077,4226.67172199862
0.54,4.66083473115468,0.00737325953496426,6.96372444940117,-0.343620126845183,-1.89642282986698,-4.25758325889855,-2.50925258204037,-6.50501225811946,2.72413396123923,195.640002793582,4226.67172199862
0.55,4.63441521421761,0.0119488176037406,8.2862060600107,-0.568998673114201,4.34258716771025,-1.61860552416333,7.96918676561465,-2.34030610256781,-1.92499568913594,249.036375779876,4226.67172199862
0.56,4.65901782751963,-0.0123888411575632,7.05768790733246,0.660804595211649,-0.385953429485523,4.64302062786709,0.092723833009558,7.08794918161464,0.0802757284632026,297.898329843316,4226.67172199862
0.57,4.63079692510483,0.0295025275580351,8.47040632938499,-1.43749062206735,-2.9634039184451,-3.55856540994217,-4.26834810260502,-7.45623008955632,2.45356816924223,350.857853734242,4226.67172199862
0.58,4.57127539122698,0.00185714427187955,11.4481559014663,-0.0410194665892655,4.01098535465791,2.19284259265046,10.0230590477471,5.53174868068785,-1.07007688854548,401.008980085698,4226.67172199862
0.59,4.61610841518369,0.0505831635892238,9.20828764536452,-2.48168903086765,-4.10436074499679,-2.11311107897758,-6.98019655004985,-6.49832270115711,2.0572070956875,453.430568262389,4226.67172199862
0.6,4.57256418696189,0.0154118072674625,11.3872314059266,-0.702462424323963,3.02531277363166,3.42871162237229,6.97688931280756,9.02693237299027,-0.719605425143509,502.993685389013,4226.67172199862
0.61,4.61520630793998,0.0824156898369901,9.25699974494622,-4.0568143706989,0.0119881206466849,-4.61592654791469,4.24528278216447,-9.17209688215849,-3.12114001335749,554.916765555609,4226.67172199862
0.62,4.58439047708019,0.0214240482525727,10.7996586028542,-1.00395186162453,-4.14214985755236,1.96460927254404,-10.205255243595,3.67332420182862,1.13259495318222,606.611588837636,4226.67172199862
0.63,4.57217949030242,0.0417884170654865,11.4121562471222,-2.0200755596861,2.31747525446631,3.94155806861693,3.94335600104974,10.8980713396709,-0.522379449302603,657.407569678352,4226.67172199862
0.64,4.58063450702275,0.0652219938596232,10.991374455479,-3.1814885482682,4.44265780974138,-1.11770209848353,11.4285321625392,0.566422468767414,-1.80302768241081,707.965433649128,4226.67172199862
0.65,4.54250235902323,0.0277281345839724,12.900011740107,-1.29343895924481,1.87322225278656,-4.13837346343275,6.56626891999981,-11.1788818629787,-2.71043559969322,758.746700077525,4226.67172199862
0.66,4.51938812468677,0.0359176765628875,14.0578347627817,-1.70888794079363,-0.50199264561074,-4.49156570527497,0.249417759328306,-14.1591245136553,3.03823844360299,809.730546301508,4226.67172199862
0.67,4.54315167738778,0.0200926039188216,12.8717904089581,-0.912890918597318,-1.21132540522639,-4.37873516430678,-2.49611713323453,-12.6604011555154,2.87612664653199,860.797875915766,4226.67172199862
0.68,4.52770197690787,0.0432308841145315,13.646449110459,-2.06197590166313,-0.292945611479011,-4.51842195570002,1.3059996315984,-13.7394207631054,3.0863974496639,911.464575389339,4226.67172199862
0.69,4.51974665527734,0.0423430568772326,14.046412248442,-1.99983664248541,2.23427269141128,-3.92911291550271,8.78650983561884,-11.1399411380124,-2.61517881801805,961.646115220715,4226.67172199862
0.7,4.50379509956627,0.0434355889319298,14.8462393047443,-2.03873504005895,4.48068855343152,-0.457697538130584,14.9708545089272,0.66391063392079,-1.66294825562561,1012.12462618261,4226.67172199862
0.71,4.52195436221798,0.0268325372077103,13.9405898091636,-1.2271930829518,1.52730765477926,4.25630386211886,3.47294562907376,13.5567214232534,-0.338589438741904,1063.39422392489,4226.67172199862
0.72,4.53063976882824,0.095033086552905,13.5086414073292,-4.61193707860816,-4.40641041940317,1.057958041797,-14.18101977123,-1.62850684273471,1.35613389044285,1113.25496063637,4226.67172199862
0.73,4.49378724627045,0.0603601037336086,15.3537122498254,-2.89758969329428,1.18106225276998,-4.33622636770125,7.0187780267138,-13.9595580479055,-2.86224116188854,1164.37261999666,4226.67172199862
0.74,4.50291320330155,0.0644563069891554,14.8997835789477,-3.06607972436551,1.92577572216318,4.07084386827903,3.38808005360214,14.8298789316039,-0.427555382085402,1214.20288949321,4226.67172199862
0.75,4.48874732079117,0.076629295099489,15.6106014394014,-3.68914173951705,-3.16199476907176,-3.18692855883846,-8.14136241023881,-13.8209573539331,2.37719147980732,1264.94517344538,4226.67172199862
0.76,4.48314910953265,0.0639496378501003,15.8930055446873,-3.06397768474502,3.04615122825763,3.28993589437075,8.35252375007616,13.8640157061542,-0.732678067902095,1315.55554625093,4226.67172199862
0.77,4.43803553765038,0.0656559274073876,18.1512625195596,-3.11166028316968,-1.50805102459119,-4.17447628349723,-2.97208193098469,-18.1746386420016,2.8097192162994,1365.44149763167,4226.67172199862
0.78,4.42526695966255,0.0780366966851931,18.7922744377567,-3.72366826187128,-1.80535646942077,4.04101044401411,-11.3392329758529,15.4414079470675,0.437787690371209,1415.53310831166,4226.67172199862
0.79,4.50653091354546,0.0846300954336716,14.7317060944311,-4.04746030730828,4.50689448927013,-0.0623312953540522,14.7114994273478,4.12030144420039,-1.56584842883372,1465.78105573523,4226.67172199862
0.8,4.41912229636708,0.136361443573787,19.1047916389136,-6.63600201448952,-0.400804318609747,-4.40302080527971,5.47978752639038,-19.4679612432383,3.0816607947476,1515.99664378006,4226.67172199862
0.81,4.44946590062931,0.142273060872175,17.5903547622001,-6.92209210077729,-4.35325521373627,-0.931212901967621,-15.4112773605504,-10.9466191049057,1.81349660893859,1566.08348363112,4226.67172199862
0.82,4.44849484328232,0.105810419577076,17.641642652571,-5.08775372224682,-3.4546224444958,2.80461868737737,-17.0687556703174,6.76538049826136,0.9126554958737,1616.24434889676,4226.67172199862
0.83,4.42043040889346,0.0821959831722388,19.047659407394,-3.94670331462925,-1.55903491842241,4.1371936506114,-10.7136122899372,16.2360188363619,0.378969946953916,1666.61703287259,4226.67172199862
0.84,4.43962117333997,0.0843708847725607,18.0909107356458,-4.04252849634231,-0.853049874418763,4.35771276253036,-7.76391228909524,16.8328474672611,0.212313587280863,1716.73422408085,4226.67172199862
0.85,4.4796040389703,0.100649360902232,16.0946377675074,-4.82164714346295,-1.70176982842822,4.14499241143581,-10.8636933564292,12.8166225153437,0.412041489182428,1766.34373044828,4226.67172199862
0.86,4.37146983968323,0.135052049208346,21.504262857113,-6.56836074521634,-3.86302332123207,-2.05061903699168,-15.4162596440619,-16.3681282526127,2.0896889042104,1816.43529727005,4226.67172199862
0.87,4.42112269641814,0.101894898776711,19.0245550043171,-4.89205840273916,-0.631825690257368,-4.37692869079576,2.57317230218912,-19.4742063466357,3.02127252825371,1866.32068051542,4226.67172199862
0.88,4.36287644601184,0.15666464770094,21.939826309875,-7.62112609466472,3.9679131151029,-1.82068674021605,23.1840388980128,-1.39207824266243,-1.96509439022503,1916.11851326846,4226.67172199862
0.89,4.38153615338948,0.111711840453018,21.0098456186915,-5.36469429932291,1.41229992566156,4.14918636828148,1.13980164703628,21.653969845085,-0.302588541010216,1965.88096312745,4226.67172199862
0.9,4.40841273957061,0.140696473673186,19.6690466705654,-6.84232558883826,-4.37787608520465,-0.536748882351654,-18.3876852030386,-9.77659701872322,1.72469695782976,2015.93291110475,4226.67172199862
0.91,4.35108656532249,0.147157127514608,22.5384476433213,-7.11040395111052,3.51904015367679,-2.56319447485334,22.6458208509664,-6.76064083535269,-2.16650781643366,2065.34296224188,4226.67172199862
0.92,4.35287900934142,0.154696638881408,22.4519244569048,-7.48824209075729,-2.292936787474,3.70323204899379,-18.7125191697747,14.4915253768941,0.58992122888269,2114.97567172757,4226.67172199862
0.93,4.35805460637834,0.167543607962148,22.1962979437157,-8.14101004836086,2.20659664583742,-3.76186683115225,18.8161853456575,-14.3144282474563,-2.57268133418947,2164.73671290067,4226.67172199862
0.94,4.39009548393439,0.132526361830666,20.5974705260673,-6.39107322758252,-3.38891375329866,2.79387994862778,-20.1958067386559,7.56511726593801,0.911521368919221,2214.3933810244,4226.67172199862
0.95,4.38282277333935,0.0814293663776162,20.9643713175333,-3.83077452474361,4.38186781500214,0.122477165459935,20.7635440948495,4.80155545839888,-1.52427563006654,2263.92938450821,4226.67172199862
0.96,4.36722512291995,0.154615422601836,21.7475537584795,-7.48532218576081,-2.06034014984736,-3.85377213520681,-2.84662821622109,-22.822858070391,2.68601557198916,2313.36608536611,4226.67172199862
0.97,4.37318449796392,0.162069436000792,21.4528607760278,-7.83904523463195,-3.53107309482765,2.58505937152358,-22.1605818968036,5.53032328723183,0.975900090909291,2362.77886263436,4226.67172199862
