t,iq,id,vq,vd,ia,ib,va,vb,theta_e,omega,r
0,0,0,0,0,0,0,0,0,0,0,0
0.01,0.000523522864899234,0.000298269855944563,-0.0253309388996971,-0.0149290116104665,-0.000420412679585859,0.00043161820615091,0.0202042058402933,-0.0213616928067204,1.29011666490836,-0.00179464107488814,0
0.02,0.000586977570629434,0.000334120850150949,-0.0285070406427618,-0.0167234244753008,-0.000471446624267916,0.000483650174603516,0.0227586246247198,-0.0239660029537731,1.29010307526264,-0.00194205154315714,0
0.03,0.000612096584321142,0.000348437943568695,-0.0297399974931029,-0.0174400242378985,-0.000491609366135001,0.000504372342802748,0.0237444644810618,-0.0249964458036707,1.29008908322033,-0.00195172695353375,0
0.04,0.00059806943260639,0.000340661074255258,-0.0290980533087956,-0.0170507706931368,-0.000480279216961092,0.000493020169451632,0.0232351612882045,-0.0244448924624873,1.29007591757231,-0.00182774911372085,0
0.05,0.000612226285757645,0.000348840330547098,-0.0298042279972086,-0.0174601665137332,-0.000491609320079671,0.000504807763014411,0.0237999464772892,-0.0250342159628588,1.29006294312374,-0.00180444135026076,0
0.06,0.000612859654200453,0.000349346282134228,-0.0298624160914,-0.0174854812911587,-0.000492071363656213,0.000505475571771002,0.0238485278824921,-0.0250749609897476,1.29005037877791,-0.00173566485189329,0
0.07,0.000627862702032725,0.000358111102955364,-0.0306067073561605,-0.0179241780662739,-0.000504052363020605,0.000518060179899098,0.0244418223049363,-0.0257029962640751,1.29003846125762,-0.00172132052301239,0
0.08,0.000613340027443897,0.000349918483574831,-0.0299377729911872,-0.0175141337846624,-0.000492362436529512,0.000506170095429305,0.0239124024258614,-0.0251239356813889,1.29002676584567,-0.00160390196764112,0
0.09,0.000612151542628791,0.000349408499517055,-0.0299055163655659,-0.0174886026016667,-0.000491356198817814,0.000505356207601012,0.0238882051645768,-0.0250907310388765,1.29001567435033,-0.00153701258219572,0
0.1,0.000611835726019559,0.000349375407439685,-0.0299139826829122,-0.0174869499413371,-0.000491056550701001,0.000505242115199399,0.0238965312540774,-0.0250917431085866,1.29000504754854,-0.00147583391818967,0
0.11,0.000611586317281278,0.000349371973167195,-0.0299246533703622,-0.0174867654049646,-0.000490812714363507,0.000505174701009009,0.0239065794972602,-0.0250947663947242,1.28999485890493,-0.00141736602080929,0
0.12,0.000611350486665246,0.000349370436249544,-0.0299350412374892,-0.0174867017376705,-0.000490581611867619,0.000505112662055108,0.0239163329736438,-0.0250978176072388,1.28998508989671,-0.00136131839384779,0
0.13,0.000639673777075508,0.000365648295667794,-0.0313117992502142,-0.0183014410065036,-0.000513279202754765,0.000528607299630115,0.0250131166186587,-0.0262624353825312,1.28997537603104,-0.00140649677220899,0
0.14,0.000664204608611967,0.000379986990756794,-0.0326222800263683,-0.0190191163411626,-0.000532870096282874,0.000549187887460439,0.0260731085455088,-0.027315434305381,1.28996603275859,-0.00144036900828842,0
0.15,0.000614122295480893,0.000351266777587352,-0.0301299942255125,-0.0175816054406551,-0.000492705043604979,0.000507716734852751,0.0240766394225122,-0.0252437088403947,1.28995699319199,-0.00121230867181814,0
0.16,0.000610697834758492,0.000349483113308485,-0.0299844130854232,-0.017492331263041,-0.00048990494554759,0.00050505785430435,0.0239612981717277,-0.0251177799779125,1.28994875401178,-0.00115364024360058,0
0.17,0.000610299425417731,0.000349371340896645,-0.0299828082738669,-0.017486737388657,-0.000489549151312807,0.000504843887705935,0.023961109003786,-0.0251121490875632,1.28994088184362,-0.00110773864623556,0
0.18,0.000610103882033082,0.000349363380114417,-0.029990185652322,-0.0174863494131291,-0.000489359666939847,0.000504785731384445,0.0239681153510013,-0.0251140020263572,1.28993333566882,-0.00106439703133692,0
0.19,0.000609928703768272,0.000349361904538341,-0.029997847351658,-0.0174862713601603,-0.000489188109845958,0.000504739296279218,0.0239753167515692,-0.0251162242081978,1.2899261003862,-0.00102288368432184,0
0.2,0.000609761499968133,0.000349360871775738,-0.0300052286131189,-0.0174862122368231,-0.00048902424305748,0.000504695348971387,0.0239822509105083,-0.0251183798001021,1.28991916308384,-0.000983082795551458,0
0.21,0.000609601056105818,0.000349359905148435,-0.0300122982095364,-0.0174861691165518,-0.000488866997770394,0.00050465319717764,0.0239888883303984,-0.0251204576165018,1.28991251148318,-0.000944921219374845,0
0.22,0.000609447306121739,0.000349358979694685,-0.0300190797450936,-0.0174861245465151,-0.000488716311421129,0.000504612804616849,0.0239952562360491,-0.0251224477025005,1.28990613381715,-0.000908331273982419,0
0.23,0.00060929990077296,0.000349358092346527,-0.0300255813937129,-0.0174860814364595,-0.00048857184354337,0.00050457407728358,0.0240013613941512,-0.0251243553799957,1.28990001880456,-0.000873248223509318,0
0.24,0.000609158607227344,0.000349357241457029,-0.0300318161064038,-0.0174860383305829,-0.000488433365366339,0.000504536954557874,0.024007216382806,-0.0251261830904855,1.28989415562865,-0.000839610008383639,0
0.25,0.000609023134446585,0.000349356425526785,-0.030037792971132,-0.0174859952281989,-0.000488300592383777,0.000504501359587512,0.0240128296760151,-0.0251279335928737,1.28988853391747,-0.00080735712551025,0
0.26,0.00061502702839523,0.000352852739435491,-0.0303368945221588,-0.017660988408923,-0.000493097163629217,0.000509527711321591,0.0242515592538436,-0.0253791165052295,1.28988319745648,-0.000798410250013953,0
0.27,0.000596665134861243,0.000342368103422782,-0.0294701366943747,-0.0171362206754887,-0.000478359056250628,0.000494366073576359,0.0235641274917123,-0.0246347500774516,1.28987785960071,-0.000703358350244199,0
0.28,0.00059559229822182,0.0003417784339204,-0.0293200802114636,-0.0171066998319166,-0.000477489303729121,0.000493504456330953,0.0234280154597733,-0.0245649012691396,1.28987289770886,-0.000671522173968416,0
0.29,0.000607689954975476,0.000348883286399194,-0.030018914028653,-0.017462316988532,-0.000487140625567063,0.00050368704552423,0.0240007461894765,-0.025100436179795,1.2898682635429,-0.000688077870102687,0
0.3,0.000603247320564545,0.000346473964420221,-0.0298151927359599,-0.0173417262703537,-0.000483538130904634,0.000500142393474719,0.023838345034148,-0.0249281867361271,1.28986427198997,-0.000649819275833352,0
0.31,0.000607997626957087,0.000349173587191686,-0.0300521127587857,-0.0174768498273484,-0.000487351548414214,0.000504055330927099,0.0240284048074955,-0.0251238039230047,1.28985992555169,-0.000642038623108439,0
0.32,0.000608210254515535,0.000349340570495038,-0.0300716074178163,-0.017485208804814,-0.000487507420582159,0.000504276771990323,0.0240447118245008,-0.0251373414050874,1.28985571643109,-0.000618999887695613,0
0.33,0.000608133230745724,0.000349350385924599,-0.0300768636423244,-0.0174857010583637,-0.000487428658639337,0.000504266815505398,0.0240495239726838,-0.0251393688216062,1.28985167795925,-0.00059590216094309,0
0.34,0.000608041188767659,0.000349350469091721,-0.0300810321463801,-0.0174857044599272,-0.000487338249612468,0.000504243262679085,0.0240534307504688,-0.0251406210063291,1.28984780563065,-0.000573690478022117,0
0.35,0.000607951766093733,0.000349349969843787,-0.0300849717892581,-0.0174856773045753,-0.000487250599272933,0.000504219798138185,0.0240571301127253,-0.0251417765700756,1.28984409276616,-0.000552389327596737,0
0.36,0.000607866010499956,0.000349349455189714,-0.0300887473143713,-0.0174856486900929,-0.000487166553778478,0.000504197260446826,0.0240606760330012,-0.0251428815750382,1.28984053280898,-0.000531965155779883,0
0.37,0.000607783805572945,0.0003493489594695,-0.0300923670568533,-0.0174856200715692,-0.000487085988562864,0.000504175653463048,0.0240640759588268,-0.0251439398786162,1.28983711946233,-0.000512382100910362,0
0.38,0.000607704809922074,0.000349348483997991,-0.0300958276955926,-0.0174856059377981,-0.000487008572193598,0.000504154886799753,0.0240673225309522,-0.0251449646228798,1.2898338466888,-0.000493605539537571,0
0.39,0.00060762924066758,0.000349348028073572,-0.0300991532449983,-0.0174855773092138,-0.000486934510535493,0.000504135022868589,0.0240704467128437,-0.0251459347598481,1.28983070869907,-0.000475602258676043,0
0.4,0.000607556814626225,0.000349347590900841,-0.030102342159706,-0.0174855486766418,-0.000486863528914652,0.000504115985146036,0.0240734428629067,-0.0251468639148024,1.28982769994197,-0.000458340412162012,0
0.41,0.000607487190408067,0.000349347171710481,-0.0301053894622954,-0.0174855345238471,-0.000486795296843221,0.000504097680874768,0.0240763020495716,-0.0251477647491567,1.28982481509526,-0.000441789465296347,0
0.42,0.000607420418363035,0.00034934676976344,-0.0301083092860793,-0.0174855189087605,-0.000486729860315884,0.000504080125838497,0.0240790421447632,-0.0251486259856388,1.28982204905646,-0.000425920140893124,0
0.43,0.000607356607054363,0.000349346384351229,-0.0301111181756134,-0.0174854902613273,-0.000486667321355466,0.000504063351887995,0.0240816821300982,-0.025149441211479,1.28981939693211,-0.000410704367498677,0
0.44,0.000607295248323482,0.00034934601479466,-0.0301138013858667,-0.0174854760892274,-0.00048660718954255,0.000504047219786689,0.0240842000936275,-0.0251502328781362,1.28981685403102,-0.000396115229734101,0
0.45,0.000607236450729541,0.000349345660441628,-0.0301163745766114,-0.0174854619104905,-0.000486549567082174,0.000504031761237481,0.0240866149841364,-0.0251509915205734,1.28981441585533,-0.000382126920682113,0
0.46,0.000607180097857217,0.000349345320667833,-0.0301188416823213,-0.0174854477253305,-0.000486494340113243,0.000504016945493096,0.0240889304737045,-0.0251517183324128,1.28981207809132,-0.000368714696240825,0
0.47,0.000607126240057181,0.000349344994873661,-0.0301212147036956,-0.0174854190590828,-0.000486441555085057,0.000504002787984034,0.024091162002706,-0.0251524028326766,1.28980983660468,-0.000355854831351209,0
0.48,0.00060707436917433,0.000349344682484564,-0.0301234772171135,-0.0174854048634146,-0.000486390721923149,0.000503989149204354,0.0240932856638751,-0.0251530683775636,1.28980768742944,-0.000343524578029128,0
0.49,0.000607024710180211,0.000349344382949409,-0.0301256490919903,-0.0174853892065103,-0.000486342055005846,0.000503976092885727,0.0240953248700733,-0.0251537052603092,1.28980562676478,-0.000331702125128595,0
0.5,0.000606977088456311,0.000349344095739999,-0.030127729900832,-0.0174853749992571,-0.000486295384864866,0.000503963571896253,0.0240972783119824,-0.0251543162458651,1.28980365096493,-0.000320366559757284,0
0.51,4.65421099599159,-0.0291178339464147,7.29052728172607,1.46422941671165,-0.63544187084946,4.61072027694525,0.501583683571469,7.41917580589183,0.130699441492538,40.5813185539745,2073.56245998963
0.52,4.65979381597762,0.0304805710240011,7.01258285669958,-1.51099787033758,-2.59648280939402,3.86948116588705,-5.19457006531329,4.94730984705756,0.597548558450365,86.8680997349811,2073.56245998963
0.53,4.68352052130096,0.0241976137654984,5.82746679723849,-1.18755195581727,-4.61764194892489,0.783155686621986,-5.94290075819454,-0.227111203891875,1.40796069745783,134.723359888013,2073.56245998963
0.54,4.65302038094149,0.0223928355288905,7.35371753030392,-1.09292075139417,-2.4808343974942,-3.93656713352504,-2.96330452896922,-6.81839156641196,2.58407346888377,186.655540608264,2073.56245998963
0.55,4.67347615182997,0.0232172555073338,6.3322445703484,-1.12462416510251,3.89719886837879,-2.57948819787644,5.91372665087808,-2.52783265073731,-2.15051174473413,234.905368586146,2073.56245998963
0.56,4.61056094134059,-0.0144980775767131,9.47936788025092,0.774281828438555,1.16278611576523,4.46154803146312,3.16815857644141,8.96775886124865,-0.258096905058164,282.162624071432,2073.56245998963
0.57,4.61925613914358,0.0134963047485108,9.04604917319312,-0.624196579979256,-4.20941502305796,-1.90224461963005,-7.97378006423303,-4.31734391744804,1.99815287773463,332.221314785231,2073.56245998963
0.58,4.62583120044863,0.0611142691676267,8.71870999399625,-2.99760352384749,4.59253130765868,-0.557409577523333,8.99014900485975,2.0441995294032,-1.67836784759424,380.227261117797,2073.56245998963
0.59,4.59469991075786,0.0510295405556404,10.2767933252275,-2.48328353905367,-4.39995212522022,1.32449710445048,-10.5622430752837,0.467118189965439,1.28950483315887,428.250229300722,2073.56245998963
0.6,4.63762827421541,0.0272303879956577,8.13198514900295,-1.2886436755829,4.61082718594341,-0.49860822816896,8.22086418077421,0.455167120394146,-1.67264474914069,477.47504100902,2073.56245998963
0.61,4.62513794916443,0.0388345435028059,8.7580730723311,-1.86559202612686,-4.21688605716077,-1.90033711522276,-7.17349524515748,-5.35959359615468,2.00258636245873,526.241989555973,2073.56245998963
0.62,4.60100620819285,0.0575460955043696,9.96630791483651,-2.79677835706378,1.19425602277845,4.44368340827678,-0.243682725173812,10.34842410038,-0.250043149439875,574.585454598168,2073.56245998963
0.63,4.61837982499061,0.0716952308351595,9.09927786842806,-3.49785184885659,3.8315595115954,-2.57948136707897,9.53424610258922,-2.03223437100064,-2.14779929364184,622.916208429733,2073.56245998963
0.64,4.63259577329413,0.0237576421401875,8.39018791969467,-1.08964687498461,-2.43917333891377,-3.93852021031186,-3.45163055201,-7.72456019281262,2.59222227197313,671.158465543228,2073.56245998963
0.65,4.6105271116819,0.0629443288100164,9.49537035238786,-3.03978303976654,-4.5352346058765,0.832207489598257,-9.86972847190064,-1.41095674944791,1.40296848791321,719.112973649115,2073.56245998963
0.66,4.5739633548836,0.0641275112651618,11.3253713351723,-3.08426814244427,-2.4016298302933,3.89325407182276,-8.68256077908824,7.89872674368962,0.566750514330511,766.838793477887,2073.56245998963
0.67,4.54743736942119,0.0441183336109745,12.6535313584063,-2.08842512634995,-0.3344541446767,4.53533609353017,-3.13415750489645,12.4358526881369,0.0833123238520296,815.40311420229,2073.56245998963
0.68,4.60547293452805,0.0739945872277086,9.75361504256649,-3.57232916530852,0.286280461837548,4.59716212970344,-3.11877692630489,9.90796510630924,-0.0461277081142349,863.611024775302,2073.56245998963
0.69,4.53155613336593,0.0704955330947246,13.451348692461,-3.37850760920077,-0.725426363353622,4.47367043951432,-5.68548126838471,12.6502331226917,0.176310728069773,911.383968021353,2073.56245998963
0.7,4.54714229833075,0.061173818741489,12.6739992609325,-2.91584268201137,-3.06139726055618,3.36275067919511,-10.7869508603721,7.26457754781886,0.751975482653497,959.655965439952,2073.56245998963
0.71,4.57029090668436,0.0447221626596559,11.5185976584036,-2.09650349425044,-4.54846299345519,-0.448378680049967,-11.2253520114915,-3.32639311201925,1.67884202142902,1007.87865777177,2073.56245998963
0.72,4.55558304944738,0.101497059373494,12.2560299183846,-4.90645073281267,-0.933045539159396,-4.46016418927919,2.58192950533158,-12.9467049160531,2.95764728510946,1055.32037841019,2073.56245998963
0.73,4.55473457537425,0.130968555711675,12.3005463271085,-6.37872586384967,4.50330905632728,-0.694958529622843,12.9968033341277,4.80361183751304,-1.69516376441622,1103.2427605691,2073.56245998963
0.74,4.58015183489852,0.0701842090833149,11.0318135384264,-3.33308384482526,-1.22486358956009,4.41389010294761,-6.31008334338206,9.64329850532562,0.286013219433207,1151.23805747287,2073.56245998963
0.75,4.5868465648698,0.0836348385164349,10.699254300124,-4.0006513612294,-2.36662488301825,-3.93004362048953,-1.88717350092936,-11.2657813785915,2.61779752898217,1199.09342152836,2073.56245998963
0.76,4.53280456106513,0.123082863823402,13.4035653983013,-5.96757580363353,3.84059933656693,2.41065620032004,7.8463586396498,12.3976684282427,-0.983127103523629,1246.81188798979,2073.56245998963
0.77,4.48094055800863,0.113902696848056,15.9990043425819,-5.49673132126525,-4.03022131718649,-1.961916981743,-11.6717919857087,-12.2454672027848,2.04924323350757,1294.45915986326,2073.56245998963
0.78,4.46645294517301,0.113964177430558,16.7257033580648,-5.4907012465003,3.43661959417164,2.85514194220491,8.97291738599146,15.1454186665299,-0.852045220961816,1342.24795493745,2073.56245998963
0.79,4.52399972244609,0.0871667267474878,13.850722420162,-4.17093410347983,-1.25678949707348,-4.34679786589967,0.438342557053332,-14.4584597609367,2.87940320377407,1390.20267513749,2073.56245998963
0.8,4.4876421704884,0.152474360564359,15.6709882897663,-7.41274900141372,-2.69105539086566,3.59449600977219,-15.5921352668169,7.57720526033421,0.676606390326563,1437.46530592609,2073.56245998963
0.81,4.50186351462251,0.123946001026716,14.962350941548,-6.00258355758853,4.2058754781207,1.61020159545408,11.5211630473061,11.2767795536342,-1.17763978535479,1485.2233088313,2073.56245998963
0.82,4.49853988546077,0.135915965176056,15.1309838395848,-6.57090210213517,1.86917692596133,-4.09408254314992,12.5892314401871,-10.659956760467,-2.6830961932137,1532.56489195735,2073.56245998963
0.83,4.2707884199928,0.113082616514934,16.6894823195793,-5.45921263278555,-3.85547358610215,1.8405827428755,-17.4669735822001,1.80184809133302,1.15186790000223,1579.758083589,2073.56245998963
0.84,3.90379781757662,0.0968759821159987,16.2319331819914,-4.62495119698924,-1.15620924815413,3.72990650431211,-9.57141669995352,13.9015758371135,0.325401299216687,1622.74539565273,2073.56245998963
0.85,3.59695802736534,0.115768777456842,14.2780427679014,-5.59277170428335,0.818671182067713,3.50446671493876,-2.68517657728584,15.0973980330072,-0.197318243383429,1662.39239763004,2073.56245998963
0.86,3.27272358690408,0.133062765852173,14.7438754897433,-6.48815529375943,1.52103360344122,2.90084162841358,0.446791758836692,16.1021241051368,-0.442295440534946,1698.71788306452,2073.56245998963
0.87,2.97871995315476,0.113864579495465,15.1019097256723,-5.55167623597252,1.35490894742708,2.65517597269334,1.30761263214215,16.036799418702,-0.433638034761968,1731.84786842169,2073.56245998963
0.88,2.72092231931354,0.0485075642591892,14.885486800212,-2.29831274348056,0.569871930273931,2.66101808235397,0.601611331764842,15.0498512468271,-0.193143200318631,1762.09596324181,2073.56245998963
0.89,2.49046403739886,0.0511987313982336,14.3707631705392,-2.44688659010001,-0.589989621738393,2.42011253414274,-6.0548040120168,13.2606725494826,0.259676735120034,1789.78977134876,2073.56245998963
0.9,2.29054893469885,0.0418473547748042,13.3361950608879,-1.9888438973431,-1.77800066677751,1.44467271459332,-11.7279359475842,6.65320352607765,0.906731333274486,1815.10098635432,2073.56245998963
0.91,2.10966389724345,0.0647365032604932,12.3057821260378,-3.1408160931146,-2.09293363969609,-0.272949361631949,-11.6463975313151,-5.06541449506924,1.73115520948366,1838.20772364024,2073.56245998963
0.92,1.92305759941684,0.034010607560172,12.4035731615291,-1.60555549750012,-0.821661763545755,-1.73901673322264,-3.63611294108151,-11.9668340971477,2.71788103254874,1859.34899555264,2073.56245998963
0.93,1.74752261838259,0.0960567619151412,12.7732728000931,-4.70976747252279,1.06807052005087,-1.38646585513911,11.9064395648865,-6.60114418555887,-2.43027915056777,1878.63827430072,2073.56245998963
0.94,1.5816924271738,0.0746430110914104,13.3745612712355,-3.63593256897752,1.479705163965,0.563733217948921,10.8067376740089,8.67832447476711,-1.1596392414022,1896.30644630153,2073.56245998963
0.95,1.41590520081824,0.0589239351428576,14.6360743179438,-2.85685719630419,-0.272422920852818,1.39069957935957,-6.18666818389265,13.568398625588,0.235031421977897,1912.50031293035,2073.56245998963
0.96,1.28337728896916,0.013968534831644,14.8402410540749,-0.661317764345275,-1.26679307135877,-0.206125447639509,-14.5074890394383,-3.19419121203887,1.74298085774079,1927.31756006253,2073.56245998963
0.97,1.19132495182183,0.0222662655723768,13.5081368922898,-1.06757310803321,-1.05961557941357,-0.544945640665072,-11.3891655322647,-7.3414156073955,2.06449560716137,1940.84649074787,2073.56245998963
0.98,1.09096054472111,0.05278305346386,13.1400380865496,-2.57776405206581,0.599511717493114,-0.912998719308853,9.81858713812272,-9.10498846979984,-2.51221908058514,1953.15285042544,2073.56245998963
