t,iq,id,vq,vd,ia,ib,va,vb,theta_e,omega,r
0,0,0,0,0,0,0,0,0,0,0,0
0.01,0.000542090215683429,0.000291153000294738,-0.0252938415378619,-0.0145650563502679,-0.000387136395136654,0.000478285775536897,0.0176844269489868,-0.0232202568830514,1.17334147544382,-0.00374409408513566,0
0.02,0.000680793107438293,0.000359175939876737,-0.0321385519644942,-0.0179679344061327,-0.000488680196174056,0.000594708564583621,0.022677583306103,-0.0290079369240961,1.1733124729954,-0.00403703844557908,0
0.03,0.000728738923280219,0.000385890658342077,-0.0346699492730865,-0.0193043427175033,-0.000522528987100963,0.00063791494428218,0.024493432711249,-0.0312207428542745,1.17328454977517,-0.00364913998166359,0
0.04,0.000710839175273163,0.000380768182830203,-0.0341388173494361,-0.0190481049637743,-0.000507993581151804,0.00062627411224432,0.0241022034269252,-0.0307794240150175,1.17326156725716,-0.00288091771323767,0
0.05,0.000719137373063319,0.000390302063752076,-0.0347514824131003,-0.0195250396383931,-0.000511941584074202,0.000638286829568916,0.0244818529421183,-0.0314568208709866,1.17324264515409,-0.0024287124072402,0
0.06,0.000714873760421691,0.000392250248736338,-0.0347491323611761,-0.019622499835755,-0.000507246325350462,0.000638440221470751,0.0244414641939967,-0.0315461491740643,1.17322714720536,-0.00197177308481094,0
0.07,0.00071868283458449,0.000398519865368484,-0.0350718882211318,-0.0199361273201236,-0.00050832307379923,0.000645701751943585,0.0246172319735963,-0.0319605758064196,1.17321510250032,-0.00167239572566212,0
0.08,0.000705634382487198,0.000393928382294161,-0.0346031146812018,-0.0197064418033022,-0.0004980636981573,0.000636421247840499,0.024273633365974,-0.0315675484857727,1.17320493085019,-0.00129227054601698,0
0.09,0.000699104778928552,0.000392988217933609,-0.0344027512106873,-0.0196594113751601,-0.000492402487298029,0.000633030032350826,0.0241068621648544,-0.0314467954336675,1.17319707787533,-0.00102653757230697,0
0.1,0.000694921366759838,0.000392795127853923,-0.0342883486706882,-0.0196497554998285,-0.000488616287056396,0.000631235172078016,0.0240049292366887,-0.0313937432955564,1.17319091826101,-0.000825449188087231,0
0.11,0.000691867305683135,0.000392755012099968,-0.0342092846192606,-0.0196477409400901,-0.000485812943974589,0.000630017977259085,0.0239326606432793,-0.0313613876087157,1.17318606124635,-0.000668799399890894,0
0.12,0.000689518186098203,0.000392746315334692,-0.0341497083614738,-0.0196473058160879,-0.000483648035575124,0.000629102197463542,0.0238777802479554,-0.0313380091491937,1.17318222469086,-0.000545557729852358,0
0.13,0.000715037006684396,0.000407647967121218,-0.0353578217708406,-0.0203927659502755,-0.000501403485412172,0.000652724544385124,0.0247028708497594,-0.0324932090637621,1.17317859293266,-0.000646030205073125,0
0.14,0.000728971819304073,0.000416469769483463,-0.0362016618403132,-0.0208340924585277,-0.000510833010386781,0.000666255669943812,0.0253098794771028,-0.0332269428239404,1.17317533105527,-0.000665947561404017,0
0.15,0.000694941858343455,0.000397595853598696,-0.034516669300429,-0.0198899065856054,-0.000486764607988401,0.000635678272152375,0.0241218671783491,-0.0317040118503853,1.17317255173305,-0.000323639629201229,0
0.16,0.000685784404312432,0.000393735079562122,-0.0341155030941838,-0.0196967651283043,-0.00047981576041747,0.000628573303705266,0.0238267471324565,-0.0313706268502053,1.17317123767311,-0.000216051556911597,0
0.17,0.000683132426114049,0.000392945265435932,-0.0340046275021761,-0.0196572606998432,-0.000477676012510905,0.000626818570488035,0.0237397936257921,-0.0312912893372605,1.17317042714265,-0.000173143048071083,0
0.18,0.000682221817863973,0.000392783636448577,-0.0339702914088496,-0.0196491803512883,-0.000476898670582045,0.000626317213421817,0.0237112471004699,-0.0312705572035433,1.17316984538934,-0.000150117013332925,0
0.19,0.000681808600123266,0.000392750518346745,-0.033956928804144,-0.0196475270588011,-0.000476530236925283,0.000626126880240433,0.0236995533148144,-0.0312638690186339,1.17316940073304,-0.000134730242044929,0
0.2,0.000681561346431789,0.000392743699205417,-0.0339499290830018,-0.0196471724540133,-0.000476304696332324,0.000626025014250422,0.02369322614257,-0.0312608398021491,1.17316905314593,-0.000123294163760967,0
0.21,0.000681386257722972,0.000392742268946162,-0.033945303515863,-0.0196471045646942,-0.000476143650099768,0.000625956026011704,0.0236889791822155,-0.0312589925279854,1.1731687793737,-0.000114441409847368,0
0.22,0.000681253078581126,0.000392741948406595,-0.0339418743093189,-0.0196470904110264,-0.000476020850111268,0.000625904262147028,0.0236858162382697,-0.0312576567000082,1.17316856320136,-0.000107491358160138,0
0.23,0.000681149177902364,0.000392741860720838,-0.033939217988959,-0.0196470863727346,-0.000475924982573052,0.000625864028909134,0.0236833633823403,-0.0312566284096637,1.17316839236996,-0.000102009436937358,0
0.24,0.000681067454346534,0.000392741825297059,-0.0339371293013279,-0.0196470866470383,-0.000475849564122196,0.000625832414494847,0.0236814333227786,-0.031255823052834,1.17316825733348,-9.76788460191768e-05,0
0.25,0.000681002902050654,0.00039274180422523,-0.0339354726610311,-0.0196470868805018,-0.000475789989416347,0.000625807449107706,0.0236799025031803,-0.0312551842908893,1.17316815058208,-9.42560505745176e-05,0
0.26,0.000685806213518019,0.00039551214526438,-0.0341534869541,-0.0197856738006604,-0.000479145835109182,0.00063022161836062,0.0238272446469617,-0.0314673794810412,1.17316822251015,-0.000133816776484131,0
0.27,0.00067521869296142,0.000389123129119009,-0.033676840193739,-0.0194660643093658,-0.000471858066678221,0.000620231455063825,0.0235115331231049,-0.0309881434637853,1.17316773937409,-3.77458036190246e-05,0
0.28,0.000674532354848186,0.000388879487758829,-0.0334830237801136,-0.0194538759617578,-0.000471319595323557,0.000619741069157634,0.0233375563352284,-0.03090185489085,1.17316769736091,-3.12261909645198e-05,0
0.29,0.000679235621698878,0.000391951737145044,-0.0338581584804887,-0.0196075661035157,-0.00047446635766732,0.000624394802570926,0.0236239154221698,-0.0311888147309223,1.17316787705592,-7.29483071249952e-05,0
0.3,0.000669029195401328,0.000386970474632531,-0.0333786689498659,-0.0193583664574252,-0.000466985834895284,0.00061584936676417,0.0232783684746756,-0.0307733562342806,1.1731690284135,-2.4531149486191e-05,0
0.31,0.00067834490950444,0.00039156141420889,-0.0338023508638382,-0.0195880290753422,-0.000473797046709268,0.00062368943864509,0.0235800653303006,-0.0311491625248132,1.1731691015482,-9.94425869812093e-05,0
0.32,0.000680623842282737,0.000392500452918693,-0.0339086112802867,-0.0196350074083252,-0.000475534434850045,0.000625437783873779,0.0236598379610094,-0.0312336277518534,1.17316890624844,-0.000111941553121078,0
0.33,0.000681110642083075,0.000392692501826343,-0.033933487210879,-0.0196446166604943,-0.000475908750614107,0.000625803458634075,0.0236790452495101,-0.0312521252733364,1.17316868641268,-0.00010974360473851,0
0.34,0.000681155638472925,0.000392731760027511,-0.0339378644784782,-0.0196465823496096,-0.000475934915089538,0.000625857168814482,0.0236823138736143,-0.0312556371391011,1.17316849570001,-0.000104883183608164,0
0.35,0.000681103251959784,0.00039273977003242,-0.0339373617797194,-0.0196469841362588,-0.000475883416828743,0.000625844341975472,0.0236816899603407,-0.0312558165921203,1.1731683405545,-0.000100233360806386,0
0.36,0.000681039107194961,0.000392741392406553,-0.0339359345039107,-0.0196470658490994,-0.000475823570800839,0.000625821057738302,0.023680338526813,-0.0312553421735885,1.17316821677074,-9.63486373003209e-05,0
0.37,0.00068098258757287,0.000392741711540621,-0.0339345375312949,-0.0196470835236495,-0.000475771275720569,0.000625799512432313,0.0236790406312337,-0.0312548198400264,1.17316811861859,-9.32235331973032e-05,0
0.38,0.000680936312485261,0.000392741766756181,-0.0339333534418152,-0.0196470866236187,-0.00047572854093476,0.000625781681064472,0.023677945294023,-0.0312543660191082,1.17316804094659,-9.07389695299825e-05,0
0.39,0.000680899408828284,0.000392741770093369,-0.033932395560487,-0.0196470867912735,-0.000475694476697866,0.000625767423055821,0.0236770601600049,-0.0312539967050088,1.17316797952206,-8.87711411274252e-05,0
0.4,0.000680870130374877,0.000392741764484359,-0.033931625866807,-0.0196470869408803,-0.000475667454273644,0.000625756103407566,0.0236763489405285,-0.0312536999421478,1.17316793095661,-8.72145021970622e-05,0
0.41,0.000680846905518199,0.000392741758363337,-0.0339310058667787,-0.0196470870761203,-0.000475646019719243,0.000625747122599277,0.0236757760593243,-0.0312534608915037,1.17316789256085,-8.59836287128568e-05,0
0.42,0.000680828570105032,0.000392741753178753,-0.0339305092581884,-0.0196470871997429,-0.000475629097812944,0.000625740032181759,0.0236753171986166,-0.0312532694209614,1.173167862206,-8.50104744193647e-05,0
0.43,0.000680814076397481,0.000392741749009419,-0.0339301090167715,-0.0196470873142401,-0.000475615721474772,0.000625734427310792,0.0236749473889188,-0.0312531151080224,1.17316783820808,-8.42411114592527e-05,0
0.44,0.000680802609488294,0.000392741745698294,-0.0339297844122197,-0.0196470874215452,-0.000475605138602771,0.000625729992916156,0.0236746474749114,-0.0312529899585338,1.17316781923615,-8.36328718105693e-05,0
0.45,0.000680793529093202,0.00039274174307804,-0.033929519291984,-0.0196470875231801,-0.000475596758272371,0.000625726481405387,0.0236744025307425,-0.0312528877440307,1.17316780423746,-8.31520145509575e-05,0
0.46,0.000680786369550917,0.000392741741005947,-0.0339293029235654,-0.0196470876202509,-0.00047559015068675,0.000625723712723478,0.0236742026348034,-0.0312528043292621,1.17316779237982,-8.2771862820845e-05,0
0.47,0.000680780723407815,0.000392741739367567,-0.0339291248105097,-0.0196470877137271,-0.000475584939813907,0.000625721529298243,0.0236740380886283,-0.0312527356661174,1.17316778300575,-8.2471326092485e-05,0
0.48,0.00068077624141793,0.00039274173807239,-0.0339289753536568,-0.0196470878044403,-0.000475580803364636,0.000625719796054346,0.0236739000253714,-0.0312526780505793,1.17316777559462,-8.22337306713103e-05,0
0.49,0.000680772690750618,0.000392741737048238,-0.0339288490674548,-0.0196470878929406,-0.000475577526444258,0.000625718422960892,0.0236737833744047,-0.0312526293686919,1.17316776973574,-8.20458947900213e-05,0
0.5,0.000680769896782897,0.000392741736238783,-0.0339287421470883,-0.0196470879796425,-0.00047557494787181,0.000625717342500889,0.0236736846174305,-0.0312525881551889,1.17316776510383,-8.18973973263065e-05,0
0.51,4.71747631227376,-0.00361249403162794,4.12684976387781,0.18989234141071,-0.792919926209489,4.65036275978521,-0.503315789930522,4.1004415970175,0.168117216208123,51.9429401669697,3479.69830925352
0.52,4.71692940405068,0.0289763127585257,4.15498948708484,-1.42869083444143,-3.2467110587727,3.42186059481418,-3.90868287615178,2.00681172806029,0.765282243630543,111.169890297477,3479.69830925352
0.53,4.69114869987487,0.017444758981944,5.44496560986429,-0.838654449881223,-4.56628385905997,-1.07528236405235,-5.10005671390491,-2.08336585694013,1.80578462658233,173.723612122067,3479.69830925352
0.54,4.69592598429469,-0.0310339436375968,5.20724672772419,1.58822804503645,0.870581252686957,-4.61462590445875,-0.631091463245515,-5.40736630638736,-2.96173587901609,238.454895834715,3479.69830925352
0.55,4.62205828225896,0.0572901848767859,8.90186101133966,-2.80987676583279,3.91516525067122,2.45727206263743,5.95749853785234,7.18656719692117,-0.997914263222321,297.405986459167,3479.69830925352
0.56,4.6634153815264,0.0174173713883581,6.83540100253633,-0.817241124783763,-4.60575612846521,0.731270723185483,-6.87993137516744,0.239027601960762,1.41707233164012,360.981940290418,3479.69830925352
0.57,4.58817473978377,0.0259489802472168,10.5989475840903,-1.23025356664754,4.15423603288815,-1.94790753769768,10.137652800383,-3.32854464104502,-2.00359758565985,421.412889521868,3479.69830925352
0.58,4.57669966296409,0.0113409860581504,11.1743340354213,-0.476341726114813,-4.42025489794732,1.18644640001693,-10.9218192985458,2.40966922732694,1.31104380727297,481.763915098362,3479.69830925352
0.59,4.63942920974517,0.0445660917755821,8.03959329048228,-2.12984431902541,4.357816926512,1.5923947889196,6.77421439619757,4.82507164858742,-1.21085307943267,542.978787360263,3479.69830925352
0.6,4.5884511432222,0.0589964811979944,10.590312619432,-2.84204604939453,-0.720603678610434,-4.53189748525979,1.28385195303825,-10.8896129998664,2.99676259403186,603.939235019645,3479.69830925352
0.61,4.55814371173544,0.0596733573099075,12.1076447864697,-2.8612844300783,-4.45133787583415,0.982764530073327,-12.4363138848321,-0.346565755764361,1.36659339239098,664.591981714291,3479.69830925352
0.62,4.51439362753616,0.114903144060621,14.2972259450912,-5.6296863293912,-0.698954297605623,4.46143647794214,-8.10945020841235,13.0514694655278,0.180849684607666,725.675736005937,3479.69830925352
0.63,4.4941505816892,0.0316156744297459,15.3116081042248,-1.47172609655743,2.41623543804318,3.78948483434243,6.89443586724498,13.7505663342677,-0.560585230545195,786.47517539979,3479.69830925352
0.64,4.49445879182389,0.094773297549104,15.2984594307468,-4.58916682088555,3.46937548964414,2.85877168049284,8.60650119188262,13.4547928374333,-0.860506939395488,845.958111511624,3479.69830925352
0.65,4.49742302180698,0.0996981634724963,15.1526824764062,-4.86531531913051,3.03775706900342,3.31794899758856,6.32166223911901,14.6051931147743,-0.719177379286605,906.856103294995,3479.69830925352
0.66,4.48445728513436,0.0456463644144853,15.8034299939172,-2.10496134840531,0.661040536132261,4.43570356790993,0.085181690716754,15.9427728432192,-0.137759988302,966.180543433796,3479.69830925352
0.67,4.47549519244752,0.113127064966329,16.2541380578279,-5.48685331257153,-3.38770467642106,2.92682626334459,-16.0451659909915,6.07084933087096,0.883527545226631,1026.15788412387,3479.69830925352
0.68,4.44604500454766,0.0598771234952129,17.7293324686712,-2.83293102681356,-3.22680392520293,-3.05918908874169,-10.7242295494886,-14.3995009829243,2.3430026815199,1086.20295781473,3479.69830925352
0.69,4.44013997580201,0.0963656982582752,18.0273283343079,-4.65727162510228,3.91020043939228,-2.10581620192559,18.172510041678,-4.05396406595279,-2.04310196610518,1145.9630126108,3479.69830925352
0.7,4.41013754929329,0.121815571339389,19.5303173399904,-5.91841088328196,-1.14803236344352,4.25983261755596,-11.2706891920027,17.0127143019964,0.290862080172799,1205.39911881501,3479.69830925352
0.71,4.38357360137882,0.0758399494153785,20.8614806163169,-3.59128987065935,-0.430150578089016,-4.36307686120727,1.89217203121236,-21.0836055133927,3.06062062356354,1264.55036835767,3479.69830925352
0.72,4.42168299739933,0.11129088860298,18.9590438660937,-5.32969885716784,0.191818597410868,4.41892201979891,-4.98345314571114,19.0529847784819,-0.0182171879877637,1323.68290870875,3479.69830925352
0.73,4.35830665716033,0.0595177479038442,22.1310185323992,-2.80568212228326,1.95526287915089,-3.89555212435647,12.6869790065651,-18.349234238509,-2.6627534014407,1383.33100904141,3479.69830925352
0.74,4.35549566200705,0.108668682105193,22.274797782259,-5.19965266807861,-4.28118396171964,0.808464736489657,-22.82134628128,-1.54569014329981,1.40909746783909,1441.93732071582,3479.69830925352
0.75,4.30537910050944,0.142906032274839,24.7839717851972,-6.96614977937233,1.69166248103348,3.96169021800389,2.47746762468136,25.6248834995743,-0.370387619666505,1501.21880079549,3479.69830925352
0.76,4.28842760710226,0.118489129592297,25.6349342529493,-5.65592694416658,4.22438388885419,-0.747818009128881,26.1879640732029,1.82480175674442,-1.7183823849996,1559.58669757699,3479.69830925352
0.77,4.33304832661061,0.128808026023163,23.4073839740798,-6.18393984703896,1.98744627646297,-3.85252600334955,16.7540023965455,-17.4771319225539,-2.63560271088038,1618.35729968134,3479.69830925352
0.78,4.3033873829274,0.161765195660194,24.8940435811516,-7.84967064262502,-0.0829515229473377,-4.305627711601,8.30411597103268,-24.7461591556671,-3.1232835972889,1677.03399648035,3479.69830925352
0.79,4.26865035370147,0.130804158164734,26.6345716142883,-6.30107567263216,-4.04567097083422,-1.36785670510406,-22.7582419785053,-15.2041567262603,1.92746752602771,1735.50737666243,3479.69830925352
0.8,4.25664899657487,0.153680404275061,27.2383681012914,-7.42571132534353,-3.28614064524074,-2.70997380179159,-15.4473440430079,-23.6315350226288,2.29648650835708,1793.80337280185,3479.69830925352
0.81,4.25280604816592,0.201442638365658,27.4343270947438,-9.7766282286494,-0.407711924243744,-4.23800771668691,8.4329448504176,-27.8766964293195,3.09301574951683,1851.9146838465,3479.69830925352
0.82,4.20030774590682,0.192345211431775,30.0631103375155,-9.30196487283116,3.8008201668051,-1.79815124511072,31.3242225347505,-3.01831679159868,-1.96692853191481,1910.18689741421,3479.69830925352
0.83,4.19428737118248,0.157335318671531,30.3680846047915,-7.62687100030245,1.45867158982735,3.93561661593109,2.23323147349205,31.2314329002823,-0.317442840377614,1968.47993854769,3479.69830925352
0.84,4.2167756163313,0.196841412640217,29.2477202600755,-9.50785807319735,-4.18025693962287,-0.587703206517747,-26.9802242089682,-14.7613009990821,1.75711777614428,2026.10097206655,3479.69830925352
0.85,4.19707578221599,0.12905278643464,30.2368489191943,-6.1899080084038,3.71076426322874,-1.96528072450096,29.8705853033217,-7.76724708964931,-2.02711661813258,2084.2206753228,3479.69830925352
0.86,4.10240676479288,0.184938343057974,34.9745049973698,-9.01309317655039,-3.08622324771317,2.70909016458039,-32.9316959853926,14.8308883060288,0.895432012442958,2141.90142095998,3479.69830925352
0.87,4.12815609037183,0.221013154437729,33.6913376325316,-10.6954834989919,3.57707992416191,-2.07244269813821,34.872631061212,-5.77920423718031,-2.04241954280913,2199.29839720123,3479.69830925352
0.88,4.12848696410613,0.181727918500623,33.6791984180821,-8.73775380811139,-4.10749471945145,-0.453780540388498,-31.9400458094754,-13.8010949342552,1.72481601468877,2256.80019283254,3479.69830925352
0.89,4.13374095767467,0.214727073904047,33.4210094180391,-10.3851237838548,1.69666973830474,3.77561039045946,2.41846788727246,34.9136890002314,-0.370436785435075,2314.14891742942,3479.69830925352
0.9,4.1135856422191,0.246259693032648,34.4333828917667,-11.942997815059,3.54545903534938,-2.10046444886438,36.0831078765431,-5.12858461481058,-2.04584332323455,2371.32747354352,3479.69830925352
0.91,4.05319637678801,0.250961380536817,37.4575437701069,-12.1633715445225,-3.99917075635496,-0.705702306106285,-33.5649378430073,-20.6012169595544,1.80729831537269,2428.45661237685,3479.69830925352
0.92,3.9969295471791,0.160606244537939,40.2756868858393,-7.77246577695252,-3.20307071858751,2.39615903950993,-37.595064980039,16.4058912445106,0.968684770668654,2485.61768990461,3479.69830925352
0.93,4.08439712581533,0.148338823263655,35.9071891364844,-7.06423646730721,-1.9968174424468,3.56609371573378,-24.7030221362996,26.9998215898326,0.546749143101695,2542.24915874298,3479.69830925352
0.94,4.0263979388723,0.30903907706538,38.8119996134839,-15.1474763471505,-1.80907713097163,3.61034976802858,-32.9751806685233,25.4647759378089,0.541114963862182,2599.07687414232,3479.69830925352
0.95,4.07809975144825,0.266159729330914,36.2318392201979,-12.9350912119854,-3.16545534315843,2.58488511441989,-37.008229512236,10.5096958238724,0.951193142573959,2655.61353090533,3479.69830925352
0.96,3.9598985205944,0.138147397889365,42.1468772907748,-6.62226367709785,-3.90532345446576,-0.669574277394919,-39.9212085840987,-15.0502739761613,1.77546950973012,2712.18325608132,3479.69830925352
0.97,3.93580131329661,0.339218689268668,43.3566914610159,-16.6429761774856,-0.841807367651669,-3.85965823003331,10.9377500294841,-45.134875371298,3.01282691558011,2768.40543269637,3479.69830925352
0.98,3.9413935423934,0.253786693924477,43.0820854815323,-12.2573506691252,3.92381313401568,-0.450201323142806,43.6401985494489,10.0916701010605,-1.6207311403386,2824.48004266546,3479.69830925352
