t,iq,id,vq,vd,ia,ib,va,vb,theta_e,omega,r
0,0,0,0,0,0,0,0,0,0,0,0
0.01,0.00149150972062281,0.000845079211600267,-0.0731760967512782,-0.0423365415806491,-0.000786968475646028,0.00152297102366743,0.0381314872059192,-0.0754527240875191,0.992437120050425,-0.00265589901910153,0
0.02,0.00166315623032807,0.000944555632777445,-0.0819144407735686,-0.0473200685297237,-0.00087628711688245,0.00170011613682022,0.0427227688616778,-0.0844033738288694,0.99241797755938,-0.00275045063849081,0
0.03,0.00170525255488214,0.000969105073894394,-0.0840540327287437,-0.0485499553387648,-0.000898083508963323,0.00174370207636168,0.0438403987387314,-0.0866036836386872,0.992399274535309,-0.00260142440805658,0
0.04,0.00167972220019571,0.000956135885062347,-0.08290711243432,-0.0479002376250134,-0.000883767833928701,0.00171889991455211,0.0432338283547372,-0.0854333549763958,0.99238291822505,-0.00235127727069642,0
0.05,0.00170159858664108,0.00096917175586871,-0.0840514280752895,-0.0485533016918954,-0.000894931635624449,0.00174178902568339,0.0438336135596347,-0.0866064662076937,0.99236723502756,-0.00220051497291287,0
0.06,0.00170006805834545,0.00096925547556512,-0.084055473559657,-0.0485575043597611,-0.000893579299665869,0.00174103521363817,0.0438334586136914,-0.0866128268269095,0.992352864313279,-0.00202090313840905,0
0.07,0.00174526817675411,0.000995523788086751,-0.0863141844624831,-0.0498734690499074,-0.000917041331937283,0.00178775384685809,0.0450040879508433,-0.0889501738177526,0.992339862661486,-0.00194793274574298,0
0.08,0.00169743692781801,0.000969426288558918,-0.0840644285168292,-0.0485660470747648,-0.000891239167254614,0.00173976211006582,0.0438341122763553,-0.0866259757305696,0.992327768101001,-0.00170731794107914,0
0.09,0.00169579114356612,0.000969242827912417,-0.0840440711004545,-0.0485568376322852,-0.000889942485664192,0.00173871838843062,0.0438211572367192,-0.0866076125200383,0.992316857394399,-0.00157002012954905,0
0.1,0.0016946048585441,0.000969237587112153,-0.0840407461672503,-0.0485565736483681,-0.000888934781821869,0.00173807424482948,0.0438176556446354,-0.0866060096911625,0.992306904528584,-0.00144538198597968,0
0.11,0.00169352497973206,0.000969233917475853,-0.0840378231358113,-0.0485564141469989,-0.000888016840735421,0.00173748880121063,0.0438145090656205,-0.086604675783467,0.992297824578431,-0.00133167978101345,0
0.12,0.00169253986298591,0.000969230576384823,-0.0840351550104893,-0.0485562546648959,-0.000887179456282388,0.00173695472317102,0.0438116448982726,-0.0866034463288087,0.992289540978338,-0.0012279497752336,0
0.13,0.00177068874207568,0.00101379862057194,-0.0878630407937594,-0.050789019839261,-0.000928228326388753,0.00181700810082857,0.0457950927182191,-0.0905662627951954,0.992281305162046,-0.00127689440484536,0
0.14,0.00191299010869723,0.00109656273237728,-0.0951503571570086,-0.0549353002380101,-0.00100210554232251,0.00196411951369021,0.0496287587648869,-0.0980227727765506,0.992273986008507,-0.00146040231820575,0
0.15,0.00169155523078931,0.000970095441716001,-0.0841088851604954,-0.0485995520340895,-0.000885843353277101,0.00173716027421295,0.0438477675467189,-0.086680991584225,0.992267203256073,-0.000951440814839566,0
0.16,0.00168923002316957,0.000969225297824865,-0.0840267558759467,-0.0485559916183222,-0.000884362599264304,0.00173516527804807,0.0438023367032354,-0.0865998575311237,0.992261600844774,-0.000878097796879271,0
0.17,0.00168861056922627,0.000969217279881607,-0.084024505890019,-0.0485555725932178,-0.00088383947736456,0.00173482436239975,0.0438002397632139,-0.0865985000828655,0.992256494190093,-0.000814126586911773,0
0.18,0.00168805631071479,0.000969215357601913,-0.0840229745393245,-0.0485554905894757,-0.000883368388204521,0.00173452379870568,0.0437985990246644,-0.0865977981261493,0.992251835444133,-0.000755788020240665,0
0.19,0.00168755094663969,0.000969213640676743,-0.08402158754923,-0.0485554114281626,-0.000882938835377565,0.0017342497777888,0.0437971129891445,-0.0865971595785172,0.992247585290081,-0.00070256615914882,0
0.2,0.00168708982038242,0.000969212074383105,-0.0840203139791292,-0.0485553292933246,-0.000882546887212706,0.00173399974020735,0.0437957558266945,-0.086596564224588,0.992243707892794,-0.000654012082032891,0
0.21,0.00168666932307379,0.000969210645291535,-0.0840191574471544,-0.0485552500084997,-0.000882189472273341,0.00173377173104037,0.0437945245498309,-0.0865960203529694,0.992240170560053,-0.000609716403236928,0
0.22,0.00168628584583597,0.000969209341395855,-0.0840181053792124,-0.0485551706671248,-0.000881863523413179,0.00173356379386194,0.043793407636232,-0.0865955199628299,0.992236943466425,-0.000569305643187799,0
0.23,0.00168593554954532,0.000969208151739375,-0.0840171190450248,-0.0485551285579994,-0.000881565784764248,0.00173337384477548,0.0437923499114903,-0.0865950742891264,0.992233999402682,-0.000532439078058882,0
0.24,0.00168561633356275,0.000969207066322643,-0.0840162331071655,-0.0485550491063223,-0.000881294459692932,0.00173320074910491,0.0437914190255124,-0.0865946409367631,0.992231313546043,-0.000498805866944161,0
0.25,0.00168532505984212,0.000969206076020123,-0.0840154181919496,-0.0485550097886517,-0.000881046886351531,0.00173304280361924,0.0437905460575935,-0.0865942697037282,0.99222886325036,-0.000468122430998818,0
0.26,0.00169910067629836,0.000976998126929905,-0.0846942762925904,-0.0489453762495321,-0.000888315726941981,0.00174710149032322,0.0441452627295597,-0.0872924170330507,0.992226652808953,-0.00046742318788363,0
0.27,0.00163483928245873,0.000940799211174025,-0.0815953544761561,-0.0471318991760638,-0.000854303983042384,0.0016816561300616,0.0425421763557622,-0.0840796112202443,0.992224443803542,-0.000316762286203018,0
0.28,0.00160462523251837,0.000922887779170119,-0.0798184951373395,-0.0462345753866044,-0.000838798723444102,0.00165013959752644,0.0415450334791416,-0.0823567745870739,0.992222503731809,-0.000234842721676362,0
0.29,0.00168379347165412,0.000968885063417299,-0.0839836644918184,-0.0485389257986981,-0.000879926554254972,0.00173194341143559,0.0437720781401431,-0.086563782232866,0.992221038236416,-0.000368979709687165,0
0.3,0.00168092503166587,0.00096741037762001,-0.0838486052235982,-0.0484650597286246,-0.000878330176437393,0.00172914079876893,0.0436993329655845,-0.0864281141226913,0.992220342736081,-0.000354916822294861,0
0.31,0.00168411036873979,0.000969189734145464,-0.0840108094076538,-0.0485541929187666,-0.000880021503133019,0.0017323736978185,0.043786268171196,-0.0865915034340093,0.992218863615771,-0.000342854464404165,0
0.32,0.0016839743937474,0.000969201400206848,-0.0840115718682011,-0.0485547643915803,-0.0008798989268283,0.0017323103046297,0.0437864764145498,-0.0865924583095195,0.992217505301827,-0.000325893744839532,0
0.33,0.00168382689553821,0.000969200982972736,-0.0840111277419834,-0.0485547678025671,-0.000879773516822668,0.00173223038843874,0.0437859953992386,-0.0865922725636585,0.99221626605062,-0.000310375774149868,0
0.34,0.00168369266608382,0.000969200526412409,-0.0840107355035863,-0.0485547281243783,-0.000879659425908002,0.00173215759924833,0.0437855908011858,-0.086592074356011,0.992215135486797,-0.000296218458641194,0
0.35,0.00168356973150417,0.000969200109358901,-0.0840103497964636,-0.0485547285579714,-0.000879554941808054,0.0017320909321278,0.0437851783233028,-0.0865919089607051,0.992214104078406,-0.000283302797189277,0
0.36,0.00168345808662181,0.000969199728867043,-0.0840100193331949,-0.0485546888236513,-0.00087946004669713,0.00173203038948853,0.0437848418964335,-0.0865917361832508,0.992213163129053,-0.000271519893982337,0
0.37,0.00168335587396942,0.000969199381736491,-0.0840096959142214,-0.0485546892001024,-0.000879373173408867,0.00173197495994445,0.0437844965795601,-0.0865915972262493,0.992212304705233,-0.000260770401338369,0
0.38,0.00168326297195347,0.000969199065042265,-0.084009414153812,-0.0485546494188098,-0.000879294209176787,0.0017319245809609,0.0437842146201383,-0.0865914441313222,0.992211521568612,-0.000250963684768706,0
0.39,0.00168317787235336,0.000969198776116536,-0.084009135867533,-0.0485546497476425,-0.000879221881263793,0.00173187843138967,0.0437839195833315,-0.0865913235101891,0.992210807116821,-0.00024201705881801,0
0.4,0.00168310010691511,0.000969198512524868,-0.0840088715255408,-0.0485546471446184,-0.000879155788510306,0.00173183625845716,0.0437836432505143,-0.0865912053158109,0.992210155325766,-0.000233855089891499,0
0.41,0.00168302978947115,0.000969198272046899,-0.0840086577921656,-0.0485546073049669,-0.000879096017901369,0.00173179812740861,0.0437834346017218,-0.0865910811172691,0.992209560699442,-0.000226408960242093,0
0.42,0.00168296529538297,0.000969198052656026,-0.0840084416107194,-0.0485546075750057,-0.000879041201643962,0.00173176315255524,0.043783206485684,-0.0865909868777138,0.992209018224719,-0.00021961588773111,0
0.43,0.00168290615639958,0.000969197852503109,-0.084008225345433,-0.0485546078292414,-0.000878990940780806,0.00173173108032671,0.0437829824279768,-0.0865908904957788,0.992208523327374,-0.000213418596477572,0
0.44,0.00168285237252099,0.000969197669901895,-0.0840080324983842,-0.0485546080676762,-0.000878945228999453,0.0017317019129925,0.043782781744054,-0.0865908050061192,0.992208071834853,-0.000207764833941326,0
0.45,0.00168280370832648,0.000969197503313416,-0.0840078726860362,-0.0485545681709105,-0.000878903863438759,0.00173167552388395,0.0437826340944898,-0.0865907022447843,0.992207659940204,-0.00020260693034859,0
0.46,0.00168275900484298,0.000969197351333188,-0.0840077075505781,-0.0485545683836232,-0.000878865868513505,0.00173165128111101,0.0437824631828164,-0.0865906285718537,0.992207284170584,-0.000197901396767411,0
0.47,0.00168271825948041,0.000969197212680976,-0.0840075548021678,-0.0485545685845711,-0.00087883123726422,0.00173162918497754,0.0437823055022652,-0.0865905602198032,0.992206941357891,-0.0001936085584295,0
0.48,0.00168268100657749,0.00096919708618801,-0.0840074073950099,-0.048554568775156,-0.000878799575452284,0.00173160898240823,0.0437821549027649,-0.0865904934634445,0.992206628611436,-0.000189692220213255,0
0.49,0.00168264701330358,0.000969196970787837,-0.0840072685593133,-0.048554568956067,-0.000878770684157092,0.00173159054751112,0.0437820138600281,-0.0865904301852483,0.992206343294154,-0.000186119361461151,0
0.5,0.00168261604682803,0.000969196865507822,-0.0840071402069825,-0.0485545691279792,-0.000878744364808787,0.00173157375426812,0.0437818837661178,-0.0865903715366176,0.992206083000804,-0.000182859857570059,0
0.51,4.61365897632408,0.0655935688356649,9.31847073910844,-3.27959485537486,-0.533663446435658,4.58315993524411,-4.46109756334187,8.81409370618254,0.130134361275601,39.8211222522493,1496.16794535848
0.52,4.42910902488313,0.0185162617275823,18.5477691935106,-0.912560706446224,-2.43142658582627,3.70209594202889,-11.0073742772858,14.9562769638181,0.585300489091375,84.4070998745134,1496.16794535848
0.53,4.54431848568293,-0.0400204387403669,12.7892946574555,2.03166437776986,-4.46154736203664,0.864307393894354,-12.1300060598123,4.53394651137791,1.37063643499928,130.253839299171,1496.16794535848
0.54,4.48505561224165,0.00725421330110398,15.7545756479837,-0.344358720663914,-2.6713717680162,-3.60271416373225,-9.0862428798043,-12.8749923147839,2.50517849839846,179.891504493838,1496.16794535848
0.55,4.49379335339038,0.097524023527197,15.3199991908706,-4.85443525713733,3.32973370082819,-3.01936468809409,14.7516076581048,-6.37636168793447,-2.28565089042513,226.33064318883,1496.16794535848
0.56,4.55511437506158,0.0667146613049694,12.2563621284776,-3.28642845787649,2.10072416186256,4.04233544027367,2.5538652557694,12.4296740459472,-0.464622955713354,271.053050111579,1496.16794535848
0.57,4.42095898605364,-0.0570897970306796,18.9667648405817,2.89888912596395,-4.37622055865751,-0.629945412934128,-19.1825381011674,0.414679008174378,1.70084891031778,319.069920744434,1496.16794535848
0.58,4.34964503517961,0.0161045381837162,22.5351264911508,-0.734185508343817,3.78676223728159,-2.14011753100405,20.0185266992522,-10.3744659199476,-2.08149986083811,363.896931263697,1496.16794535848
0.59,4.42255203021469,-0.0463912954095918,18.8926068943136,2.391024340893,-3.08401730518442,3.17016653719783,-11.299827357484,15.3284537495752,0.761135051440041,410.308989113699,1496.16794535848
0.6,4.35180888180458,-0.0336175822254399,22.4327101874754,1.73498497682924,3.13338376342484,-3.02014517477116,14.8170966406902,-16.9319315603842,-2.34551916163131,456.982967295203,1496.16794535848
0.61,4.37388867032384,0.0909564349515396,21.3317414804617,-4.50664825938241,-3.98651266893269,1.80191340354788,-21.387174264571,4.23578211194993,1.16707075656334,502.574195983552,1496.16794535848
0.62,4.34290438084874,0.00797794053619949,22.8840137925167,-0.300748411548019,4.14631593796697,1.29187702638119,21.7455636643994,7.13435335406759,-1.26691987887548,547.838586688311,1496.16794535848
0.63,4.20648878984383,0.0639057451048748,29.7080419461844,-3.0877134605986,-0.998541300136109,-4.0867526418003,-3.60185770021551,-29.6500986810906,2.91714277400469,593.280559203584,1496.16794535848
0.64,4.19795541337477,0.034688991255417,30.1380385144183,-1.62250555103977,-3.82055569799182,1.73993883149353,-28.1901816107405,10.7818157335944,1.15171143793457,638.923231362056,1496.16794535848
0.65,4.2716955839537,-0.0215427138485782,26.4544936914976,1.14487491393215,1.16162580623922,4.1107751990067,8.42226604089203,25.1041114118479,-0.280443281573414,684.668736651352,1496.16794535848
0.66,4.18103765603296,0.0182460307749577,30.9909096912137,-0.840094748080551,4.10853130843971,0.77548648368317,30.2683922678208,6.70571936454543,-1.37987685361986,730.097959306433,1496.16794535848
0.67,4.24809134550832,0.0384969889785209,27.6417054940808,-1.81232233247124,3.540675810424,-2.34763219083004,24.1629625998213,-13.5462036474397,-2.14722643438542,775.001960807542,1496.16794535848
0.68,4.14141521080712,0.104549922317646,32.9792197100134,-5.08222815315366,2.10235295326939,-3.5696446173871,21.7607937254134,-25.2967553674785,-2.58409592432762,819.87288980584,1496.16794535848
0.69,4.18423549885989,0.101872562704471,30.84195644303,-5.01406351690062,1.73560721746161,-3.80865754769925,17.9793489770693,-25.5560192625149,-2.68966635092613,865.548641831027,1496.16794535848
0.7,4.14018040123144,0.0750468651220011,33.0484964512385,-3.59169142118254,2.53331223041147,-3.2755236115701,23.489835571268,-23.5229885386044,-2.46515422799412,909.959234143886,1496.16794535848
0.71,4.1875099337378,0.115785573258266,30.685963360697,-5.69336230461508,3.90885021772218,-1.50649783257087,30.8269267777378,-4.87271045165238,-1.91101631363858,955.366874175136,1496.16794535848
0.72,4.16547381238378,0.0472745409433206,31.7918168854628,-2.21681591509439,3.59273219879721,2.10847867231381,26.0907240412937,18.3004921431439,-1.02873606258254,999.880977198463,1496.16794535848
0.73,3.91516121253011,0.0670637681761304,34.7397023275678,-3.18444433429467,-0.639233272858169,3.86320665923702,-9.38968855165044,33.5979367287523,0.181108795032394,1043.85242506134,1496.16794535848
0.74,3.51542098097645,0.0443073461343357,36.2467833938728,-2.09346544582697,-3.49061524058602,-0.419229121840919,-35.6550179290655,-6.85066423445389,1.70292863446239,1084.82203726607,1496.16794535848
0.75,3.28138238515721,0.0135357396683152,31.1884600536291,-0.587565974653457,1.16914018639414,-3.06606666568531,11.7804511639515,-28.8840136522808,-2.77317123659628,1122.10887453019,1496.16794535848
0.76,2.91089430773656,0.0493661118032256,34.4611939660257,-2.40968594626837,1.92582240552632,2.18333477647852,20.5205322147573,27.7900743710195,-0.70585461737727,1156.01344471171,1496.16794535848
0.77,2.59716327624031,0.0127965089039059,36.251756319327,-0.593259477634637,-2.59651849593377,-0.0592666378772063,-36.2213406652085,-1.59883503169716,1.59854485893247,1186.86808207892,1496.16794535848
0.78,2.3264855983755,0.0565606295713063,37.0317535950496,-2.79395777607246,1.89777826868205,-1.34691201909563,32.2721169749868,-18.3757296544032,-2.16371650401725,1215.06886590476,1496.16794535848
0.79,2.18461150981412,0.072611189946475,32.4848636436712,-3.59301266219991,-1.08889805691166,1.89528384559458,-20.1638380699939,25.7215034596678,0.554706584156072,1240.78120362909,1496.16794535848
0.8,1.94702662649702,-0.000938514356382258,33.7228419501426,0.104971811277228,0.598560280162861,-1.85273828591869,10.2517944765333,-32.1269637265395,-2.82959128222592,1264.21503970478,1496.16794535848
0.81,1.73842132571529,0.0159771274174078,34.4974646109574,-0.715240097082881,-0.387016829365596,1.69486930118225,-8.68424732152577,33.3941683747223,0.23368737330024,1285.567439721,1496.16794535848
0.82,1.53291493805752,0.0542758685871972,35.9697823231677,-2.60492246867836,0.408970958337299,-1.47834936076269,13.2956549589325,-33.523669558342,-2.8363099600755,1305.01537560599,1496.16794535848
0.83,1.45467762189473,0.0335663786443188,31.8424793621214,-1.56129548776798,-0.685308226489227,1.28357559969127,-17.0011652083711,26.9692698656253,0.513473466924614,1322.88979483673,1496.16794535848
0.84,1.3073870251446,-0.0574985794044969,31.8229519592563,2.86777849840582,-0.133176708066793,-1.30185670662269,-7.46364791698438,-31.0679639611022,2.99569830706158,1339.24628088839,1496.16794535848
0.85,1.22116434620633,0.114165335321202,29.358962661756,-5.68533796995353,-0.253204040789215,1.20006824721036,-14.1381403950452,26.3511810470986,0.301159468698405,1354.05184753685,1496.16794535848
0.86,0.963424240453468,0.0691657905830761,36.1249301839004,-3.37384283030754,0.679666839685943,-0.686311271007293,29.4134922131934,-21.2424073979318,-2.28939001668055,1367.52976549878,1496.16794535848
0.87,0.89373489083697,-0.0631125450064616,34.0463049442948,3.12908763074694,-0.895957694420313,0.00224905437895588,-33.727353261494,5.60425835728496,1.49778651098565,1379.89619581765,1496.16794535848
0.88,0.846867171846634,-0.101926959366368,31.2025042976917,5.1034851434066,0.607037217310637,0.599231948912062,27.7916507405784,15.0753435838175,-0.911650162587256,1391.19925825977,1496.16794535848
0.89,0.672530577055726,0.0253287312656464,35.2743704917732,-1.19278831241798,-0.092697903459035,-0.666592844543605,-2.35346917314818,-35.2159784813678,3.04106058676662,1401.38381015728,1496.16794535848
0.9,0.559418437273205,0.00401129366406763,36.6602071739036,-0.254499733949595,-0.391543950346771,0.399572788594143,-26.0258609916306,25.8203431385493,0.782420119692117,1410.81828701571,1496.16794535848
0.91,0.533628204702174,-0.000649520871333131,34.0548248692533,0.036959243045688,0.526701535604922,0.0857028303059168,33.6252808241603,5.39193400901007,-1.41071104757305,1419.29683836313,1496.16794535848
0.92,0.461163630479128,-0.00642470973564353,34.1709826851702,0.404108006833084,-0.17489736196321,-0.426759983773299,-13.7691158509379,-31.276681563664,2.73871372413655,1426.98271576603,1496.16794535848
0.93,0.501922138178483,0.0794582772844065,28.8790020865723,-4.02674138538855,-0.244629744789705,0.445416365423173,-20.8719518481728,20.3610666161821,0.659246044126524,1434.14417885362,1496.16794535848
0.94,0.357679998365925,0.109436796595291,33.1391815650909,-5.43063992592021,0.372298209068583,-0.0361308345380082,31.3976405441174,11.9115646777179,-1.37062316770539,1440.5531176451,1496.16794535848
0.95,0.288689531419904,0.0435509609439567,33.8885198925929,-2.25152260289057,-0.103809103721062,-0.2728772649658,-4.98967101600098,-33.5947066915916,2.92780346295465,1446.44918972248,1496.16794535848
0.96,0.227831298151595,0.0468265432130742,34.4737122302511,-2.33654952192302,-0.163819276285255,0.165115324195249,-30.0035059393025,17.1372672836949,0.984166799626779,1451.78605853586,1496.16794535848
0.97,0.134996300840915,0.0634340794841888,36.8775587750426,-3.14752532715421,0.145899757315559,0.031002330493016,27.4862429980933,24.7864419137069,-0.92214506725055,1456.62879201495,1496.16794535848
0.98,0.134423745842814,-0.016519578751858,34.8703702285514,0.802241825273913,0.0612594404395337,-0.120788744863036,11.1069340053675,-33.0639127875524,-2.79451072434086,1461.05780501754,1496.16794535848
