t,iq,id,vq,vd,ia,ib,va,vb,theta_e,omega,r
0,0,0,0,0,0,0,0,0,0,0,0
0.01,0.000882429605950723,0.000504883856915987,-0.0436344379561761,-0.0252835388478571,0.00101152346702982,0.000102029378517623,-0.0502027102773435,-0.00478637579297614,-0.95057800008371,-0.00124599744917618,0
0.02,0.000976550170507693,0.000558944857516942,-0.0483616476206297,-0.0279908124251983,0.00111953621743671,0.000112730861394484,-0.0556230361679457,-0.00533032721922423,-0.95058726537225,-0.0013413037588199,0
0.03,0.0010082736860008,0.000577097281104969,-0.0499324107701342,-0.0288998397338264,0.00115590284393558,0.000116386052094015,-0.0574296395949562,-0.00550298809300011,-0.950596802017426,-0.00134495824506073,0
0.04,0.000989926743915482,0.000566812285433039,-0.049039826768042,-0.0283847969387328,0.0011349961973759,0.000114082238666563,-0.0564039949579893,-0.00540283809416701,-0.950605753371619,-0.00127863191360432,0
0.05,0.00100809134360225,0.000577233781343003,-0.0499430757181698,-0.028906691866617,0.00115583587647437,0.000116148276027019,-0.0574423994250444,-0.00550258077233189,-0.950614728746241,-0.00126512386458737,0
0.06,0.00100821919477507,0.000577418740413945,-0.0499589179848592,-0.028915933161073,0.00115604842692791,0.000116061970910461,-0.0574607103801843,-0.00550376592871776,-0.950623461389007,-0.00122654758830086,0
0.07,0.00103649488078801,0.000593710198387326,-0.0513587936691459,-0.0297317754632532,0.00118852775921933,0.000119227526745931,-0.0590740936306121,-0.00565293030815733,-0.950631841240442,-0.00123033897531613,0
0.08,0.00100834694540187,0.000577710379920818,-0.049983360519934,-0.028930559074326,0.00115632380909554,0.000115879652606998,-0.0574891929840585,-0.00550511282903862,-0.950640095208983,-0.00115290124460149,0
0.09,0.00100763434354609,0.000577420527963064,-0.0499569682187083,-0.0289160340485753,0.00115557636736342,0.000115692245193328,-0.0574593174083839,-0.00550114003330147,-0.950648011629432,-0.00111673001044502,0
0.1,0.00100743723418709,0.000577413200494262,-0.0499556484242986,-0.0289156552379247,0.00115541258818803,0.000115574806892335,-0.0574580653535934,-0.00550024119042452,-0.950655671301822,-0.00108244561856782,0
0.11,0.00100725556522817,0.000577411020730438,-0.0499548165517057,-0.0289155565694646,0.00115526433571345,0.000115462440527893,-0.0574573718032681,-0.00549941214108313,-0.950663083807789,-0.00104928078518771,0
0.12,0.00100707983344841,0.000577408999444518,-0.0499540139304446,-0.0289154608377869,0.00115512097785334,0.000115353673982024,-0.0574567024402896,-0.00549861145314502,-0.950670257146873,-0.00101718627234245,0
0.13,0.00105514632791532,0.000604982893702606,-0.0523260497450715,-0.0302962865062946,0.00121026284515314,0.000120838407088891,-0.0601895690196975,-0.00575293309697425,-0.950677481504622,-0.00105479380361599,0
0.14,0.00112095934426874,0.000643101899169137,-0.0556657104605609,-0.0322052105771163,0.00128597515467033,0.000128053917507368,-0.0640167955543834,-0.00613977168497955,-0.950684423135705,-0.00111938116617387,0
0.15,0.00100868812768848,0.000578584287203358,-0.0500560044429993,-0.0289743026089556,0.00115711523518674,0.000115307626968244,-0.0575740134023655,-0.00550879054032156,-0.950691199109856,-0.000926562953714312,0
0.16,0.00100645304267153,0.000577422573073632,-0.049952921610029,-0.0289161432584956,0.00115462190895183,0.000114946954575486,-0.0574563596678172,-0.00549585771704228,-0.950697470704871,-0.000895485959936681,0
0.17,0.00100626613425979,0.000577400010123388,-0.0499503509041248,-0.0289150029328463,0.00115445738373832,0.000114849700829811,-0.0574536382343266,-0.00549494346566301,-0.950703534639649,-0.00086829906284878,0
0.18,0.00100612167522967,0.000577397982308205,-0.0499496528456325,-0.0289149138608119,0.001154339314506,0.000114760630559313,-0.0574530506188699,-0.00549427316056861,-0.950709402821542,-0.000842042965951366,0
0.19,0.00100598284708245,0.000577396375943505,-0.0499490239868387,-0.0289148182757571,0.00115422605004992,0.000114674709343321,-0.0574525144895132,-0.00549365925318676,-0.950715081662661,-0.000816635024630611,0
0.2,0.00100584816694768,0.000577394827719108,-0.0499483976025981,-0.0289147466890433,0.00115411617323971,0.000114591363964784,-0.0574519933077857,-0.00549303778622725,-0.950720577274622,-0.000792046896127577,0
0.21,0.0010057179105931,0.000577393329477404,-0.0499477940795108,-0.0289146751117176,0.00115400990452689,0.000114510754370938,-0.0574514897577781,-0.00549243978913813,-0.950725895568722,-0.000768252110829609,0
0.22,0.00100559184518807,0.000577391879498385,-0.0499472082372226,-0.0289146035437641,0.00115390705416296,0.000114432739949662,-0.0574509996554522,-0.00549186192240526,-0.95073104226669,-0.000745225070971316,0
0.23,0.00100546997073257,0.000577390476227621,-0.0499466461960877,-0.028914531984344,0.00115380762195494,0.000114357315472188,-0.0574505280121877,-0.00549130742461695,-0.950736022904789,-0.000722941005034791,0
0.24,0.00100535205439597,0.000577389118162804,-0.0499461023667021,-0.0289144604326631,0.0011537114182273,0.00011428434058509,-0.0574500703085116,-0.00549077274017032,-0.950740842841273,-0.000701375940767827,0
0.25,0.00100523786334762,0.000577387803850041,-0.0499455708634937,-0.0289143888889535,0.00115361825330636,0.000114213675104407,-0.0574496217834698,-0.0054902541506005,-0.950745507261088,-0.00068050667938772,0
0.26,0.00101479697272846,0.000582893815928001,-0.0504206311824887,-0.0291901318676608,0.00116459785626691,0.000115281957324073,-0.0579965017713149,-0.00554162697967356,-0.950749997889474,-0.000674430893861887,0
0.27,0.000977938343480883,0.000561827799740476,-0.0486125988422393,-0.0281351818794813,0.00112236000935157,0.000111004007223595,-0.0559120529400533,-0.00534935151365629,-0.950754462073394,-0.000601187438233755,0
0.28,0.000968849216106986,0.000556533096697355,-0.0480824805537738,-0.027870022245386,0.00111188666409168,0.000110026985261495,-0.0553265602186802,-0.00525688220631771,-0.950758712180459,-0.000569147362101701,0
0.29,0.00100414722791404,0.000577008069564972,-0.0499106676325731,-0.028895375648464,0.00115251194496785,0.000113869154633569,-0.0574102620246338,-0.00548445910349587,-0.950762708111255,-0.000602577054322946,0
0.3,0.00100091669115302,0.000575249296409291,-0.0497556683413101,-0.0288073020526743,0.00114886119080456,0.000113419310133824,-0.057232957680403,-0.00546587036048832,-0.95076627154356,-0.000582077535169226,0
0.31,0.00100456488316975,0.000577342527797453,-0.0499392783779188,-0.028912134977232,0.00115304704068463,0.000113831106775885,-0.0574433259455728,-0.00548701905952868,-0.950770105780096,-0.000570346883487599,0
0.32,0.00100454320147385,0.000577379133609713,-0.0499422595971955,-0.0289139701435911,0.00115305108808805,0.00011378442694061,-0.0574468389981805,-0.00548704403620678,-0.950773825842004,-0.000553803515221721,0
0.33,0.00100445660088358,0.000577378795813675,-0.0499419163745225,-0.0289139335518944,0.00115298082004815,0.00011373023131489,-0.0574465581529242,-0.00548666756655296,-0.950777426052094,-0.000537697543283727,0
0.34,0.00100437123789271,0.000577377825893472,-0.0499415061220273,-0.0289138859911362,0.00115291117837863,0.000113677403687823,-0.0574462157413462,-0.00548626775172526,-0.950780910103695,-0.000522109445725787,0
0.35,0.00100428878528397,0.000577376875673311,-0.049941115729822,-0.0289138384299124,0.00115284390370554,0.00011362638117264,-0.0574458888744428,-0.00548588593717723,-0.950784281741185,-0.000507024269361561,0
0.36,0.00100420889381141,0.000577375955871784,-0.0499407317172015,-0.0289137908686066,0.00115277871846099,0.00011357694789101,-0.0574455666009927,-0.00548551408109825,-0.950787544591731,-0.000492425819903545,0
0.37,0.00100413140413357,0.000577375065713848,-0.0499403500759264,-0.0289137672470126,0.00115271549293954,0.000113529007801841,-0.0574452595881726,-0.00548513016873507,-0.950790702165574,-0.000478298393577615,0
0.38,0.0010040566349338,0.000577374204248624,-0.049939990494196,-0.0289137196829799,0.00115265448637135,0.00011348274289212,-0.0574449560570207,-0.00548478441447675,-0.950793757859364,-0.000464626792701887,0
0.39,0.00100398431045488,0.00057737337055207,-0.0499396428926746,-0.0289136721183419,0.00115259547418788,0.000113437989861571,-0.0574446617336498,-0.00548445128717468,-0.95079671496019,-0.000451396309939898,0
0.4,0.00100391431428148,0.00057737256373011,-0.0499393050226155,-0.0289136245531397,0.00115253836150789,0.000113394678094874,-0.0574443748054805,-0.00548412929727508,-0.950799576649422,-0.000438592712492364,0
0.41,0.00100384637065844,0.000577371782917064,-0.0499389664863562,-0.0289136009205085,0.00115248292376897,0.000113352644494368,-0.0574441007329387,-0.0054837927477096,-0.950802346005094,-0.000426202226783938,0
0.42,0.00100378091468124,0.000577371027274973,-0.0499386524058511,-0.0289135533518928,0.00115242951496029,0.000113312139081661,-0.0574438321656603,-0.00548349502312332,-0.950805026006759,-0.000414211523647524,0
0.43,0.00100371727842442,0.000577370295993576,-0.0499383326384628,-0.0289135297128381,0.0011523775913454,0.000113272771081146,-0.0574435723982883,-0.00548317948708021,-0.950807619537425,-0.000402607703986138,0
0.44,0.00100365601339743,0.000577369588288091,-0.0499380378309948,-0.0289134821408471,0.00115232760166864,0.000113234858331651,-0.0574433185797872,-0.00548290274033992,-0.950810129387081,-0.00039137828489451,0
0.45,0.00100359633526087,0.000577368903398969,-0.0499377317926259,-0.0289134584959389,0.00115227890744969,0.00011319794259489,-0.0574430690777348,-0.00548260464735638,-0.950812558255491,-0.000380511186232385,0
0.46,0.00100353902835347,0.000577368240590943,-0.0499374566751721,-0.0289134109203501,0.00115223214693749,0.000113162477153582,-0.0574428304069303,-0.00548234849989986,-0.950814908755749,-0.000369994717628382,0
0.47,0.00100348330833716,0.00057736759915299,-0.0499371760829542,-0.028913387268752,0.00115218668165753,0.000113128003933501,-0.0574426007638948,-0.00548207405756183,-0.950817183416561,-0.000359817565903938,0
0.48,0.00100342921813107,0.000577366978396291,-0.0499368948920234,-0.0289133607036831,0.00115214254643188,0.000113094545593722,-0.0574423685375221,-0.00548180585553435,-0.950819384684697,-0.000349968782904281,0
0.49,0.00100337726632659,0.000577366377654912,-0.0499366411712717,-0.028913313122737,0.00115210015509385,0.000113062395428784,-0.0574421460681776,-0.00548157479962972,-0.95082151492797,-0.000340437773718197,0
0.5,0.00100332678499883,0.000577365796283404,-0.04993638411815,-0.0289132894616636,0.00115205896392194,0.000113031163230123,-0.0574419344069209,-0.00548132628844215,-0.950823576438475,-0.000331214285284045,0
0.51,4.09312224394672,-0.024142072809155,6.155512173503,1.21274853230782,-0.310075698197202,4.08143180819654,0.779689648712052,6.2252046691213,0.0699284869303641,21.4373376737382,576.022043861974
0.52,3.95342461384317,0.0373636592758675,6.58915946931996,-1.86347826032338,-1.1828868011191,3.77249798357981,-3.80352519924792,5.69409955985254,0.313296685872147,44.854337579252,576.022043861974
0.53,3.82456816492194,0.0711060388751095,6.57836341939653,-3.54911797138085,-2.48667538365889,2.90668595710025,-7.0221156300261,2.56144407141285,0.7262693175095,67.8009370391048,576.022043861974
0.54,3.67641674102852,0.0783243690906927,7.41870081946135,-3.90664200092037,-3.52930635244092,1.0325557762796,-8.17983991763582,-1.84097596233172,1.30747471896767,90.8612061378948,576.022043861974
0.55,3.48479294274018,-0.0200428482477588,10.0129289714172,1.01759539484321,-3.06494030580387,-1.65841023012901,-9.31278157132762,-3.81658831667664,2.06102208992347,114.794763859544,576.022043861974
0.56,3.37652833812631,0.0267382153366733,8.93825932388232,-1.32238509821834,-0.5531000643292,-3.33102669895761,-0.0880397464168168,-9.03512208506393,2.98496766172425,136.752984208419,576.022043861974
0.57,3.33168713103313,-0.0613359266164308,5.51508263792432,3.09439435044314,2.68583645061272,-1.97235488580167,2.50722008289895,-5.80562316681826,-2.22261639265601,156.499269069696,576.022043861974
0.58,3.13880272340492,-0.0188249674270268,9.44265038851058,0.969460691710952,2.63665652878893,1.70307934784246,8.48357086217823,4.25823036234681,-1.00328935309599,176.429394290841,576.022043861974
0.59,3.00855999739675,-0.00809753152835158,9.93530757886892,0.42616496623346,-1.0836511402479,2.80663482380452,-3.15564735220242,9.43047416908147,0.365777923613725,196.567702423718,576.022043861974
0.6,2.90444331719331,0.0547741776584554,9.98551622678525,-2.71423609479155,-2.7896576005418,-0.810309610622021,-8.72883123511912,-5.55743800347513,1.87234301279715,214.345926119829,576.022043861974
0.61,2.85356525555342,0.0397772197321156,7.00082429232094,-1.97060989227554,0.994553141571219,-2.67493568960117,4.36830592174749,-5.81487295592182,-2.77168787299172,233.068242629782,576.022043861974
0.62,2.78375635772093,-0.0365184718453129,5.50450583738815,1.85947529793276,2.32339120697285,1.53378171761788,5.63717751534445,1.40693374327198,-1.00043799901343,249.848807496061,576.022043861974
0.63,2.6418034137113,-0.027130094808719,7.54313408087851,1.38074700501471,-2.07444056755676,1.63601884170562,-5.00843915225094,5.8069674798614,0.892742004776919,266.982464067852,576.022043861974
0.64,2.55894633724927,0.0211839905613614,7.00007500804824,-1.0278734450227,-0.612404081928296,-2.48467630865977,-0.618862734237613,-7.04801978242516,2.90821506427354,282.59470359803,576.022043861974
0.65,2.46056972503009,0.00151458478460342,7.12652744402434,-0.0526906425329671,2.3316876223384,0.785899801206006,6.73498365186315,2.33027142697555,-1.24508723964823,298.55106911566,576.022043861974
0.66,2.42177136670265,-0.0209681146575,4.76391238053026,1.08747030754458,-2.04452680914045,1.29820119439132,-3.40856934783405,3.50130087826893,0.996405900976584,312.994460385524,576.022043861974
0.67,2.22972758098266,0.0471704502315664,9.86042589558915,-2.334257285641,0.407023549409496,-2.19277038629126,4.28973792393419,-9.18013640758861,-2.93690870788954,327.704504726324,576.022043861974
0.68,2.14714221193015,0.0208274155406503,9.77466401146145,-1.02217897461985,1.01846324674654,1.89034020073554,3.64801287284972,9.12583741213031,-0.484482616662822,341.721026920495,576.022043861974
0.69,2.13179866793227,0.0343972838156818,6.5840719113474,-1.68494814586441,-1.88961356002797,-0.987476241481334,-4.98098714827868,-4.62372363109306,2.06847909018425,354.67343922142,576.022043861974
0.7,1.98270416677762,-0.0148709155361162,10.0019697135642,0.774221120303602,1.98259832262179,0.025314980219171,10.0059092993714,-0.721523102147241,-1.56552861238466,367.707209351886,576.022043861974
0.71,1.96922317815461,0.0333773132430084,6.79792921193238,-1.64964169190056,-1.804612756699,0.788876903439239,-6.90908119178352,1.09442056241801,1.1756320019043,380.310432503477,576.022043861974
0.72,1.84979709075537,-0.0211268368250871,9.16309258678431,1.08004643643748,1.42088008339858,-1.18460770249164,6.26945065215898,-6.76925066598854,-2.27717991973106,392.089548141745,576.022043861974
0.73,1.75780162008713,-0.0191665399051588,10.2184039735706,0.996199971639041,-1.06412713506712,1.39923812564078,-5.29706716470668,8.79484358036932,0.639287004715729,403.380998984793,576.022043861974
0.74,1.74414218081803,-0.022860419754718,7.40304246319125,1.17707883195239,0.851049696033054,-1.52258627360885,2.49207753998721,-7.0696606582731,-2.64501019011818,414.472892267631,576.022043861974
0.75,1.63214563364504,0.0421303601356226,9.63670660330002,-2.08553246207134,-0.646445292211089,1.49926075812376,-5.93577400099755,7.87287411416702,0.432897280853309,425.151927767299,576.022043861974
0.76,1.6029906101661,-0.052859000928216,7.84462127361606,2.66616563174667,0.737939672903637,-1.42401475042033,0.971474997260433,-8.22816859526314,-2.6964461475298,435.436594528024,576.022043861974
0.77,1.57416388735532,-0.00499382042726937,6.1815680718498,0.266149942114493,-0.801272987449477,1.35498283460709,-2.90007985267095,5.46554265071021,0.530864700905673,445.248645457882,576.022043861974
0.78,1.42781313370235,0.0268682560379769,10.5079548419835,-1.33172786238972,0.884874560258117,-1.12087878941635,7.69463457866569,-7.278956845691,-2.45450403706292,454.616455278658,576.022043861974
0.79,1.41729741044643,-0.026327324900381,8.11418108045577,1.35302469385248,-1.13633923087907,0.847442169153584,-5.58445154920426,6.04024099876745,0.911437464146925,463.649008393459,576.022043861974
0.8,1.39089353725755,0.00283461944890681,6.6101572504572,-0.106603159595906,1.29585007406222,-0.505336969363202,6.20186469072593,-2.28963260531787,-1.94058457198368,472.331576949656,576.022043861974
0.81,1.36708671002521,0.0425749812980931,5.05356535439754,-2.09712476346773,-1.36613574874432,0.0664215158128288,-5.08938682090856,-2.00863059119364,1.55334737791972,480.711121851685,576.022043861974
0.82,1.22900726232993,0.047999227468784,9.3023477122367,-2.37184430427678,1.15277507044547,0.428803467402906,7.67245640151243,5.76998536653054,-1.17564493049028,488.747787166836,576.022043861974
0.83,1.19910515894206,0.09653086816742,8.23529642828194,-4.80315418295352,-0.850934643256334,-0.850342062711727,-1.68252893989334,-9.38400201051335,2.43617536655536,496.47736462422,576.022043861974
0.84,1.1493896853252,0.0421937511458074,8.23702193490953,-2.08294288236248,0.246820475226166,1.12336842325964,-0.57813866284166,8.47661117982257,-0.179584867217921,503.920709654402,576.022043861974
0.85,1.13172401008416,-0.0271971748576255,6.72751425448367,1.3922520643691,0.465299071587844,-1.0320056663123,1.33442986944021,-6.73922182292338,-2.74204354316084,511.036656567229,576.022043861974
0.86,1.07654502203022,0.0104167996804735,7.17742674514031,-0.49184146184924,-0.917399257965406,0.563414852181013,-6.40548606477527,3.27522685922963,1.02971784027738,517.872204023131,576.022043861974
0.87,1.01094344267076,-1.22395353975291e-05,8.22557305647262,0.0300555960615037,1.00130946702016,0.139233601133544,8.15133871441326,1.10301070218311,-1.43264286260947,524.397816736298,576.022043861974
0.88,0.944884319047162,-0.0463680312494372,9.37590747837997,2.35121119413598,-0.578188605014051,-0.748768527473661,-7.87549693657145,-5.6046751132091,2.43500964694195,530.668133811181,576.022043861974
0.89,0.92289191651428,0.041882360585869,8.38321634819236,-2.06813702055633,-0.017777974577336,0.923670701773946,-2.60496329163254,8.23223379925778,0.0645952522836639,536.711816053743,576.022043861974
0.9,0.939176033115723,0.0690091308492346,5.56290267389324,-3.42638639878919,0.679129273838549,-0.6523781960911,6.46961238434513,-0.911112237512037,-2.26275980644835,542.478839685245,576.022043861974
0.91,0.819284424940318,-0.00526632737760324,9.61783522373323,0.275383541451566,-0.807518680865621,-0.138449569182729,-9.53455880428677,-1.29258612609904,1.73416813728615,547.971051854362,576.022043861974
0.92,0.859955988348084,-0.0212042767933287,5.69303205853913,1.06450555183179,0.403280995045512,0.759827850427424,3.719799134188,4.43924323401289,-0.512598752813721,553.296516652902,576.022043861974
0.93,0.735062419251836,-0.0134664146209472,10.0989633993185,0.674720521237238,0.312200340035883,-0.665604275978291,3.50437341655172,-9.49545556989863,-2.7213298699698,558.390193509506,576.022043861974
0.94,0.748889405625303,0.0478859214828893,7.65778465300246,-2.39450855388588,-0.727974150378807,0.182159379979017,-7.96406101242975,-0.974201825439201,1.38945891021277,563.188573506585,576.022043861974
0.95,0.746967050714874,0.0156878014157003,6.06130261842831,-0.776885409634503,0.519817033704145,0.536652712131374,3.55555468934488,4.97000716528121,-0.748464811497952,567.7900503783,576.022043861974
0.96,0.744848570644493,-0.046489885290089,4.53365988252761,2.34359233616983,0.256378240546786,-0.700878663107648,-0.957634252919176,-5.01292665079294,-2.85325038168541,572.210137377274,576.022043861974
0.97,0.623434638671754,-0.00873468452074552,9.04003983240517,0.456603299698817,-0.611069020488437,0.123861598604084,-8.73686848083838,2.36599575090507,1.35679958518287,576.384602363037,576.022043861974
