t,iq,id,vq,vd,ia,ib,va,vb,theta_e,omega,r
0,0,0,0,0,0,0,0,0,0,0,0
0.01,0.000486019453891593,0.000273682324516111,-0.0231561914053423,-0.013692035471793,0.000485699533083708,-0.000274249681633164,-0.0231401868978582,0.0137190665168546,-1.57196406574039,-0.0023876924195948,0
0.02,0.000591699015829256,0.000330845381598468,-0.0283089503050509,-0.0165518395666875,0.000591305958111506,-0.00033154736578682,-0.0282892869596824,0.0165854244361713,-1.57198310812113,-0.00275515872568934,0
0.03,0.000631813563634533,0.000352904584819679,-0.0302736558634196,-0.0176554419822834,0.000631387191644094,-0.000353666848046437,-0.0302523258975452,0.0176919656543656,-1.57200320247329,-0.00277643774274232,0
0.04,0.000620778117306934,0.000347066143018605,-0.029826259617713,-0.0173633471050528,0.000620352221209722,-0.000347826825010832,-0.029804953417027,0.0173998947491821,-1.57202211569615,-0.00254603263089473,0
0.05,0.000635107717590899,0.000355761552017781,-0.0305693378877182,-0.0177983746695349,0.000634664729877189,-0.000356551224212646,-0.0305471766119644,0.0178363830640655,-1.57204012775252,-0.00245409723012632,0
0.06,0.000636798181159212,0.000357293377902209,-0.0307138905439864,-0.017875008521501,0.000636347175554837,-0.000358096011683784,-0.0306913281219386,0.0179137204428118,-1.57205719409651,-0.00230597803285867,0
0.07,0.000646391986917492,0.000363485587846463,-0.0312253781832361,-0.0181848023823657,0.000645927430390087,-0.000364310482957725,-0.0312021378147444,0.0182246502342708,-1.5720729384254,-0.00221057013913467,0
0.08,0.000637095023084383,0.000358652355332817,-0.0308452014596635,-0.0179429999265146,0.000636631222036065,-0.000359474988773258,-0.030821998838866,0.0179828275592875,-1.57208802244648,-0.00202426846845436,0
0.09,0.000634511660063698,0.000357798328355658,-0.0307765934210575,-0.0179002809036444,0.000634043972682166,-0.000358626450831935,-0.0307531963287986,0.017940448004351,-1.57210194136514,-0.00188312994992052,0
0.1,0.000633253647383981,0.000357646264323496,-0.0307666732631498,-0.0178926728944356,0.000632781517748428,-0.000358480938273798,-0.0307430539003882,0.017933225138455,-1.57211489021613,-0.00175770634368591,0
0.11,0.000632298493061835,0.000357618109768127,-0.0307676469495716,-0.0178912586992077,0.000631822076094395,-0.000358459148191484,-0.0307438130749966,0.0179321831985156,-1.57212695667275,-0.00164194347726871,0
0.12,0.000631448990371171,0.000357611900067538,-0.0307704743697994,-0.0178909508814376,0.000630968550514672,-0.000358458905276602,-0.0307464392026876,0.0179322249801838,-1.57213820466737,-0.00153424343479168,0
0.13,0.00065572357515683,0.000371786742795883,-0.0319544249117806,-0.0186001036589601,0.000655220041921364,-0.000372673430498866,-0.0319292344466578,0.0186433128820241,-1.57214907386383,-0.00155897679410294,0
0.14,0.000670047609604446,0.000380457504990931,-0.0327776493565314,-0.0190338897241853,0.00066952839077571,-0.000381370484156607,-0.0327516740746938,0.0190785508012847,-1.57215941335969,-0.00153750354334711,0
0.15,0.000636735020011363,0.000361636922034116,-0.0311371238750611,-0.0180923076174802,0.0006362379507233,-0.000362510715905883,-0.0311122567079706,0.0181350368258179,-1.57216916621038,-0.00127691665124471,0
0.16,0.00062993828670949,0.000358316372197708,-0.0308496269065723,-0.0179261831562427,0.000629442721728271,-0.000359186202004922,-0.0308248349579026,0.0179687804996314,-1.57217768742059,-0.0011637430223463,0
0.17,0.000628188814451863,0.000357729819058171,-0.0307970923848615,-0.0178968486781279,0.000627691251407957,-0.000358602151348457,-0.0307722004346297,0.017939614610701,-1.57218552338095,-0.0010827714153746,0
0.18,0.000627425225150449,0.000357625553569929,-0.030788862945236,-0.0178916226398118,0.000626925196141047,-0.000358501392137882,-0.0307638476161109,0.0179346012500602,-1.57219280805045,-0.00101192454303176,0
0.19,0.000626877303514457,0.000357606409636175,-0.0307888896024155,-0.0178906670425989,0.000626374868645142,-0.00035848573445008,-0.0307637538863698,0.0179338544936032,-1.57219959532958,-0.000946754626434822,0
0.2,0.000626397543838246,0.00035760233042463,-0.0307903698940449,-0.0178904621248714,0.000625892847145729,-0.000358484941864406,-0.0307651210023646,0.0179338462958571,-1.57220592204531,-0.000886165773615699,0
0.21,0.00062595603072429,0.000357600955724073,-0.0307920163643252,-0.0178904044963268,0.000625449222083877,-0.000358486633683255,-0.0307666617791575,0.0179339724486793,-1.57221181999235,-0.000829713132519906,0
0.22,0.00062554571295438,0.000357600102231089,-0.0307936091536152,-0.0178903551861751,0.000625036934850473,-0.000358488636059798,-0.0307681560293802,0.0179340945671878,-1.57221731833153,-0.000777091048836936,0
0.23,0.000625163280645641,0.000357599381883116,-0.0307950947558483,-0.0178903251207376,0.000624652666399627,-0.000358490574144765,-0.0307695497455408,0.017934224332378,-1.57222244415676,-0.000728035196886012,0
0.24,0.000624806808953041,0.000357598723464356,-0.0307964791367669,-0.0178902950133558,0.00062429448294073,-0.000358492390584773,-0.0307708484681291,0.0179343432396522,-1.5722272227098,-0.000682303057805457,0
0.25,0.000624474493439092,0.000357598111830167,-0.0307977670525071,-0.0178902648657746,0.00062396057162566,-0.000358494083071241,-0.0307720565314344,0.0179344520187895,-1.57223167751889,-0.000639669280423818,0
0.26,0.000628935691259437,0.000360335312946226,-0.0310231578484412,-0.0180272030312919,0.000628416371522649,-0.000361240232391615,-0.0309971772768396,0.0180718392226385,-1.57223573158204,-0.00062532088245398,0
0.27,0.000617420107768992,0.000353781398568288,-0.0304967809737414,-0.0176993155704793,0.000616908771971219,-0.000354672291722048,-0.0304711997839041,0.0177433200149568,-1.57223985293073,-0.000528350126051754,0
0.28,0.000616791499942805,0.000353599181835928,-0.0303750168388056,-0.0176901943302659,0.000616279147786431,-0.00035449139312593,-0.030349384905639,0.0177341326049421,-1.57224346388463,-0.000491947800242066,0
0.29,0.000622067533102738,0.000356890991976186,-0.030741532341456,-0.0178548887932686,0.000621549254168009,-0.00035779284584444,-0.0307156037796271,0.0178994566669978,-1.57224669915943,-0.000489304838389238,0
0.3,0.000613947391185836,0.000352612514646814,-0.030368402130532,-0.0176408271284115,0.000613434481322556,-0.000353504061863467,-0.0303427421643154,0.0176849265671667,-1.5722490891011,-0.000425668306605645,0
0.31,0.000621221227435385,0.000356716382288707,-0.0307214494000214,-0.0178461433068652,0.00062070134243893,-0.000357620237548128,-0.0306954404823451,0.0178908417287186,-1.57225190079244,-0.000437170784219914,0
0.32,0.000622430884664417,0.000357439924939667,-0.0307888307328126,-0.0178823459109276,0.000621908958935075,-0.000358347251867926,-0.030762719706957,0.0179272270416552,-1.57225465310683,-0.000418093082488536,0
0.33,0.000622505162145331,0.00035756725634071,-0.0308021539506863,-0.0178887199122437,0.000621982121966205,-0.000358476302785866,-0.0307759871556765,0.0179337001952781,-1.57225724374452,-0.000394673177456372,0
0.34,0.000622375240164535,0.000357589445699441,-0.0308052146815733,-0.0178898317785635,0.000621851300207316,-0.000358499807079399,-0.0307790028599979,0.0179348910113042,-1.57225966355548,-0.00037177455446628,0
0.35,0.000622216504150123,0.000357593108013604,-0.0308062979956021,-0.0178900154438303,0.000621691749947439,-0.000358504640113513,-0.030780045428918,0.0179351457247514,-1.57226192031234,-0.000350225853579554,0
0.36,0.000622061376791072,0.00035759351947783,-0.0308069691455426,-0.0178900361417345,0.000621535867845493,-0.000358506131954942,-0.0307806788115956,0.0179352321697927,-1.57226402434284,-0.000330098973979903,0
0.37,0.000621915387993146,0.000357593373407412,-0.0308075273881288,-0.0178900262597665,0.000621389176203412,-0.000358506990482478,-0.030781201887809,0.017935283485002,-1.57226598585822,-0.000311328475218864,0
0.38,0.000621779119870479,0.000357593143787078,-0.0308080370801958,-0.0178900134412732,0.000621252252988476,-0.000358507696635896,-0.0307816788011373,0.0179353277039274,-1.57226781448823,-0.000293828303465956,0
0.39,0.000621651990348413,0.000357592913220692,-0.0308085047844605,-0.0178899991421414,0.000621124512779686,-0.000358508337858414,-0.0307821159507929,0.0179353665686511,-1.57226951923112,-0.000277513499149522,0
0.4,0.00062153347555796,0.000357592695346692,-0.0308089379289944,-0.0178899833636742,0.000621005428680169,-0.000358508932321398,-0.0307825206143502,0.0179354003493726,-1.57227110847862,-0.000262303963208185,0
0.41,0.000621422881002498,0.000357592491701631,-0.0308093332966582,-0.0178899838331834,0.000620894303386486,-0.000358509485477073,-0.0307828894081748,0.017935447009211,-1.57227259005589,-0.000248124853925937,0
0.42,0.000621319907659375,0.000357592301746497,-0.0308097053298127,-0.0178899694630234,0.000620790835262058,-0.000358510000943974,-0.0307832366896626,0.0179354757061532,-1.57227397125732,-0.000234906368053776,0
0.43,0.000621223919235409,0.000357592124630063,-0.0308100496296759,-0.0178899550728848,0.000620694385577748,-0.000358510481213459,-0.0307835579162235,0.0179355014625029,-1.57227525888318,-0.000222583425412029,0
0.44,0.000621134279435754,0.000357591959497752,-0.0308103599104335,-0.0178899540176717,0.000620604315767858,-0.000358510928477674,-0.0307838466685842,0.0179355378188096,-1.57227645927318,-0.0002110953538137,0
0.45,0.000621050922074029,0.000357591805541511,-0.0308106566412643,-0.0178899395888439,0.000620520557528369,-0.000358511345544492,-0.0307841233494184,0.0179355582786308,-1.57227757833773,-0.000200385591356486,0
0.46,0.000620973040223927,0.000357591662006397,-0.0308109217313291,-0.017889939948714,0.000620442301959849,-0.000358511733922625,-0.0307843697273986,0.0179355911469209,-1.57227862158617,-0.000190401408127746,0
0.47,0.000620900567694631,0.000357591528187224,-0.0308111725351888,-0.0178899254863645,0.000620369481031112,-0.000358512096030214,-0.0307846031088213,0.0179356069965082,-1.57227959415506,-0.000181093646622743,0
0.48,0.000620832813975401,0.000357591403427023,-0.0308113937820878,-0.0178899243562587,0.000620301402516276,-0.00035851243318728,-0.0307848080953155,0.0179356341064969,-1.57228050083337,-0.00017241647972402,0
0.49,0.000620769716871135,0.000357591287113123,-0.0308116003893703,-0.0178899246645105,0.000620238002621034,-0.000358512747483488,-0.0307849995417856,0.0179356607424529,-1.57228134608455,-0.000164327185069129,0
0.5,0.000620711097764955,0.000357591178673605,-0.0308118001803059,-0.0178899101582639,0.000620179101237461,-0.000358513040686177,-0.0307851852209951,0.017935670791216,-1.57228213407054,-0.000156785934707511,0
0.51,4.73758582356376,-0.0163380804579941,3.12136912094837,0.823228421725258,-0.58224015611866,4.70169998714383,0.444408929144325,3.19736624853066,0.119760234774139,37.181196605035,4927.98424893868
0.52,4.7292970282057,-0.00527719744178134,3.53657193971535,0.276686380939663,-2.46451157844965,4.03639206587959,-1.603284508322,3.16439176202223,0.54704158505203,79.4490946639761,4927.98424893868
0.53,4.73618328489698,0.00894366674476865,3.19305451247986,-0.42730469850487,-4.5442494750552,1.3346568119831,-3.18498408126714,0.483800400069364,1.28701551526782,122.719325816178,4927.98424893868
0.54,4.67742155437703,0.00344536575072851,6.13196361430481,-0.14683310458152,-3.31549088241583,-3.29936425338481,-4.23967382290477,-4.43257302287681,2.35449314860323,169.261672953535,4927.98424893868
0.55,4.6999965923007,0.033385654680723,5.00417491542484,-1.64027333452302,2.72817484280251,-3.82728945817744,4.26241014384732,-3.09259162544005,-2.51521006084629,215.374083270283,4927.98424893868
0.56,4.66550371448636,0.0353879827617796,6.72977617772029,-1.73016403568068,3.3090690960235,3.28910914032238,3.50794576335531,5.99813900421888,-0.780838340950905,257.697931533203,4927.98424893868
0.57,4.69043555429483,0.0241816443069034,5.48421029949591,-1.16880599144617,-4.4763182886287,1.40119414065385,-5.58556710024486,0.494075119187059,1.27258981156832,303.606841298834,4927.98424893868
0.58,4.7235910451488,0.0107933652711161,3.82749029597999,-0.486229762654454,2.33211909492756,-4.10775478645185,2.31958122586,-3.08312248938472,-2.62294982681366,346.964042418423,4927.98424893868
0.59,4.66859494301898,0.0601410355390577,6.57841974027061,-2.95648180685618,-0.329060376342633,4.65737210826657,-3.49432231077431,6.30920775865548,0.0834177720325184,392.420711357621,4927.98424893868
0.6,4.68410284621855,0.0639097384228857,5.80420669905984,-3.12753637284199,-0.175807042504125,-4.68123870491817,2.98796577778777,-5.87727485146219,3.11769774718733,435.251383939996,4927.98424893868
0.61,4.64866533667667,0.0626845706773651,7.57731344503702,-3.0657235222107,-0.832751506173423,4.57389808552684,-4.4661134499247,6.84603318801307,0.193577020843954,480.169576000332,4927.98424893868
0.62,4.65450844879479,0.0408749253639729,7.28642579525465,-1.9737720379913,3.08489283520816,-3.48562130110357,6.34330224591579,-4.09271224796814,-2.40832637864979,524.923551189637,4927.98424893868
0.63,4.62414516899423,0.0118758781601971,8.80591481694491,-0.519451403388733,-4.62288659535166,-0.108531594168264,-8.78940373682063,-0.748563607808942,1.59683725992702,568.963044086344,4927.98424893868
0.64,4.63027653636397,0.0332978195344689,8.50068813569419,-1.58456977149924,1.65022287385948,4.32635343153786,1.48781289374198,8.51815548897155,-0.357209195065981,612.785699910577,4927.98424893868
0.65,4.59080546222705,0.0276522485334452,10.4756865914824,-1.29309389253816,4.18588676914335,-1.88536770810718,10.1012067325116,-3.06230696125417,-1.98796831804638,656.722550925636,4927.98424893868
0.66,4.60411704467267,0.0339798741429835,9.81156032672523,-1.60898461027309,-0.741608579551171,-4.54412423989797,0.0809984120411955,-9.94228277501254,2.98719741482869,700.899469755868,4927.98424893868
0.67,4.60121712548559,0.0446402917611883,9.95804304732859,-2.13682255479188,-4.19903873621304,-1.88182504056377,-8.15451501663602,-6.10184536075556,2.0018173893824,745.062919841861,4927.98424893868
0.68,4.63018789750813,0.0651983854346463,8.51103233157932,-3.15435995130591,-4.49125336363315,1.1276231725838,-9.00816874446303,-1.11380156350694,1.33889020365002,788.871291245536,4927.98424893868
0.69,4.60683041098946,0.0770371223047204,9.6804737542023,-3.73052199177229,-3.82888866955484,2.56289537632438,-10.1565132826516,2.11508968514745,0.997653957743075,832.30871257958,4927.98424893868
0.7,4.64548026108458,0.0739709962455763,7.74959656320872,-3.56335415597849,-3.81028444426684,2.65851293361348,-8.41750137859329,1.37819094279623,0.977523851707962,876.197304268124,4927.98424893868
0.71,4.6139571715589,0.0444480331504605,9.32742990850479,-2.10134610845904,-4.40701489315801,1.36703918748301,-9.53807820381106,0.664581329552689,1.2796447747714,920.459669895556,4927.98424893868
0.72,4.58510894410297,0.106290182457284,10.7715670692082,-5.17009548930292,-4.37039153796799,-1.39075498814047,-8.50440075496999,-8.39236035295356,1.90206310100211,963.622587603447,4927.98424893868
0.73,4.59003544535883,0.0601129478931206,10.5270341998155,-2.87581672315473,-1.39790534642289,-4.37240203990863,-0.323714228130193,-10.9079778129481,2.84524747338671,1007.90521287739,4927.98424893868
0.74,4.603020123713,0.0998627141353268,9.87960717476395,-4.83361363782569,3.73196648629332,-2.69632953589964,10.8768557632822,-1.63231964767201,-2.17476939876294,1051.07981991762,4927.98424893868
0.75,4.56745073920272,0.113403951568983,11.6598878343587,-5.51872531795606,2.63859800519876,3.72991518378583,1.91236562272595,12.7574359167464,-0.590861548928207,1094.93174778911,4927.98424893868
0.76,4.57677456948485,0.0573598659890524,11.1956021566726,-2.72385912669452,-4.41000517976675,1.22556514659153,-11.5199171323509,0.228966059354432,1.31226297035502,1138.83401341728,4927.98424893868
0.77,4.57584853109891,0.102497322975734,11.2438768233643,-4.97959032798808,1.65883545293454,-4.26581298475035,8.90821535890479,-8.47731000807179,-2.74832417488813,1182.21170147028,4927.98424893868
0.78,4.52224676118732,0.0896933058364655,13.9258944831255,-4.3026219293165,1.01453851024874,4.40788750643699,-1.35745654053272,14.5120778788685,-0.206393270956496,1225.50034603303,4927.98424893868
0.79,4.54087714347689,0.0625117241394539,12.9964212412952,-2.93566786116619,-2.18114748981097,-3.98322339010719,-3.49048912250685,-12.8585223318208,2.65437217052819,1268.89046607638,4927.98424893868
0.8,4.56299504476431,0.0880213863071335,11.8925538957994,-4.20498238535874,2.06171179902006,4.07161098347725,1.37942674223214,12.5384168413913,-0.449436904210867,1312.36477590976,4927.98424893868
0.81,4.54163452601287,0.136566166764142,12.9626447332024,-6.62822143042622,-0.558367301397345,-4.50924832344672,5.39390654164221,-13.5229157370003,3.04845341549077,1355.84812869995,4927.98424893868
0.82,4.54912860140877,0.10656808773519,12.5900965541303,-5.1474909959534,-2.40848434040634,3.86071638060818,-11.2145199445276,7.69686541453971,0.58118928657272,1399.39507002609,4927.98424893868
0.83,4.53763243797044,0.124096959923707,13.1671070548219,-6.03098656227088,4.53793594177946,-0.11245259396741,13.1515876701182,6.06475464158513,-1.56823023747037,1442.88479461744,4927.98424893868
0.84,4.57820837415547,0.0754170917593237,11.140474537914,-3.57173776406309,-1.24295058786986,-4.40689839808347,0.605990114759986,-11.6833325539402,2.88315874287561,1486.05120229317,4927.98424893868
0.85,4.54251191235322,0.138218045970286,12.9275659016045,-6.6880014583212,-4.42200738803622,1.04850816031914,-14.0080776910539,-3.95285758005928,1.36840273564156,1529.05945108318,4927.98424893868
0.86,4.49818445476292,0.0772595191098909,15.1462387854069,-3.67543867383199,-4.44522971949928,-0.69250643552552,-14.2954347886734,-6.20950424691451,1.74251453037243,1572.6576301189,4927.98424893868
0.87,4.52397285254048,0.114220366430142,13.8591344051454,-5.48448139826677,-3.35892805725355,3.03265213448981,-14.0893368810925,4.86268741735536,0.861644100682943,1615.53117183652,4927.98424893868
0.88,4.48319652516039,0.128250961100937,15.900329571146,-6.21844461078586,-1.18892058942613,4.32457711507982,-10.5980349983335,13.3854842281694,0.296892756901175,1658.97695402538,4927.98424893868
0.89,4.54739390596879,0.119991404212533,12.6928484779515,-5.75292691318042,-0.100324972558343,4.54787028981788,-6.36074179668794,12.3994166938811,0.0484369218985199,1701.75426114932,4927.98424893868
0.9,4.48955507815062,0.119568595132068,15.5872645582082,-5.75745796251901,-0.400645332497646,4.47324096894385,-7.52213722677715,14.8164972290781,0.115952864485142,1745.04254348132,4927.98424893868
0.91,4.46215787964524,0.107765893017013,16.9596576520557,-5.18126297509617,-2.03951803791449,3.97024339349608,-12.661682218807,12.4160089031049,0.498694619689877,1788.12117100034,4927.98424893868
0.92,4.46803290309481,0.165216562916089,16.6684384954453,-8.00133307110298,-4.09825996235636,1.78742267434048,-18.4398475305701,-1.35284730864031,1.1964870430516,1830.88605187227,4927.98424893868
0.93,4.44679101516638,0.180064414514365,17.7330794154535,-8.74000028457864,-3.67753181002252,-2.50641842321097,-9.02690384488,-17.5887667988551,2.2095024981768,1873.7760625151,4927.98424893868
0.94,4.42974610157274,0.153838150028742,18.5879743518605,-7.42707504060699,1.56471949987471,-4.14704347547925,14.0152386586329,-14.2915121490272,-2.74608414496368,1916.66708145212,4927.98424893868
0.95,4.44912149598599,0.188692401625859,17.6218892193814,-9.16483564620753,4.05859881641633,1.83250172056124,11.6170226601936,16.1111755187105,-1.1043008633056,1959.52127370974,4927.98424893868
0.96,4.46466521578825,0.156830364092988,16.8473864191566,-7.56058695617004,-3.25578031936772,3.05904000696115,-17.6559538128101,5.40963947394903,0.851655997435728,2002.36323381363,4927.98424893868
0.97,4.40744878248202,0.164278458790035,19.7109374645646,-7.92908477960801,-0.25267583225244,-4.40326550482937,7.53201113609212,-19.8660577221544,3.1215274455407,2045.21252132204,4927.98424893868
