t,iq,id,vq,vd,ia,ib,va,vb,theta_e,omega,r
0,0,0,0,0,0,0,0,0,0,0,0
0.01,0.000650761465497549,0.000353897575737092,-0.0318872214378304,-0.0177039817283338,-0.000413236225936423,0.000614792485854316,0.0200805738070975,-0.0304466158323075,1.08987970396333,-0.0029216361194364,0
0.02,0.000814300397309987,0.000435853430187903,-0.0400104152155036,-0.0218038742383198,-0.000520295565145553,0.000763115898507975,0.0253849209514702,-0.0378397680463963,1.08985682997158,-0.00322311047696427,0
0.03,0.000873127781102992,0.000467981902998252,-0.0429742718297224,-0.0234111303214131,-0.000557568037513212,0.00081882664051151,0.0272681028444239,-0.0406364322927959,1.08983417914535,-0.00300831999122176,0
0.04,0.000854717302663232,0.000461631796395011,-0.042161809868055,-0.0230934592067444,-0.000544168377650172,0.000804690225913286,0.0266940038506913,-0.0399794475687554,1.08981477871846,-0.00248187670663398,0
0.05,0.000867766713497524,0.000473187150828162,-0.0428698074643316,-0.0236715187842316,-0.00055037746176665,0.000820980997552603,0.0270535538701291,-0.0408199267096,1.08979811950663,-0.00217347894079684,0
0.06,0.000864952506330529,0.000475520873415869,-0.0427945568147891,-0.0237882622625737,-0.000546791145810329,0.000821755670576773,0.0269322465952309,-0.0408889912785932,1.08978388564746,-0.00184046612721479,0
0.07,0.000871536022986461,0.000483169380589797,-0.0431657805635968,-0.0241708837526299,-0.000549079136715197,0.000831588715247315,0.0270838340923278,-0.0414002676791709,1.08977223816063,-0.00161220124455229,0
0.08,0.000856734343268057,0.000477534714719791,-0.0424890005911273,-0.0238890215151833,-0.000538555873561547,0.000819750394784791,0.026613852494439,-0.0408375241118992,1.08976206022152,-0.00131041343187699,0
0.09,0.000849708003167301,0.000476393267803029,-0.0421827878985662,-0.0238319068403556,-0.000532848280381181,0.000815491843214528,0.0263684792256267,-0.040645426333974,1.08975376140033,-0.00108944533442274,0
0.1,0.000845153795775341,0.000476160850281335,-0.0419907153684998,-0.0238202854564945,-0.000528912882700126,0.000813182179076714,0.0262033037571279,-0.0405464307750871,1.08974690678549,-0.000913151582414964,0
0.11,0.000841683313480399,0.000476112538522143,-0.0418463415788747,-0.02381787493506,-0.000525854007948116,0.000811536512951971,0.0260762002888144,-0.040477638869574,1.08974122324715,-0.000768498350941449,0
0.12,0.000838877215386379,0.000476101679455462,-0.0417301335333496,-0.0238173241217701,-0.000523367583866325,0.000810230932409175,0.0259732451762842,-0.0404235019270383,1.08973650537982,-0.000648793460458528,0
0.13,0.000869516976261352,0.000494231042282511,-0.043241576647766,-0.024724266028658,-0.000542137401849388,0.000840482678392801,0.0268933040978399,-0.0419270017571205,1.08973212247748,-0.000703095021966351,0
0.14,0.000886366832205493,0.000504986964850219,-0.0441391756897487,-0.0252623377402271,-0.00055209446170464,0.000857816822671193,0.0274398817039138,-0.0428194515465462,1.08972818614659,-0.000698756342740884,0
0.15,0.000844707663204217,0.000481938530322525,-0.0420650699822504,-0.0241093169674884,-0.000525825878512282,0.000818109362354539,0.0261345779375314,-0.0408376433364799,1.08972476486792,-0.00041469476831789,0
0.16,0.000833797444577802,0.000477276708560931,-0.0415429535674718,-0.0238760991946441,-0.000518309397223994,0.000808929294727623,0.0257795518459375,-0.0403893526871157,1.08972261528622,-0.000312206149273002,0
0.17,0.000830499450158084,0.00047633352465697,-0.041389309677135,-0.0238289198753801,-0.000515820866372352,0.000806567912354495,0.0256651129773866,-0.0402764739498761,1.08972099838956,-0.000259551343210136,0
0.18,0.000829162577098549,0.00047614247204766,-0.0413298220081342,-0.0238193624634789,-0.000514723088565259,0.000805780599819954,0.0256167474266759,-0.040240507783433,1.08971969652949,-0.000223719813009186,0
0.19,0.000828393587569254,0.000476103584027743,-0.041296993521414,-0.0238174144465976,-0.000514058513528262,0.00080539083885964,0.0255885033891271,-0.0402236174297307,1.08971862531855,-0.000195883725722272,0
0.2,0.000827837703904204,0.000476095512498499,-0.0412737453414974,-0.0238170234584215,-0.000513568745137272,0.000805126912383831,0.0255680392005795,-0.0402125357615186,1.08971773811967,-0.000173233791377965,0
0.21,0.000827396484066398,0.00047609370840442,-0.0412554266223597,-0.0238169252035116,-0.000513177847591439,0.000804921522739408,0.0255518155904764,-0.0402039907468507,1.08971700190572,-0.000154537137048369,0
0.22,0.000827034781639651,0.000476093200922481,-0.0412404379287897,-0.0238169089932935,-0.000512856942746862,0.000804754013523823,0.0255385111034523,-0.0401970561754468,1.08971639063602,-0.000139037553663736,0
0.23,0.000826735821421573,0.000476092979817794,-0.0412280552419349,-0.0238168859651529,-0.000512591609674008,0.000804615737818494,0.0255275241589221,-0.0401913187942966,1.08971588302188,-0.000126172145224014,0
0.24,0.000826487623954068,0.00047609283669113,-0.0412177709167443,-0.0238168853989423,-0.000512371310828771,0.000804500976716284,0.0255183904722414,-0.0401865701094007,1.08971546146546,-0.000115489280158699,0
0.25,0.000826281568832976,0.000476092726001577,-0.0412092288170652,-0.0238168846953657,-0.00051218841353874,0.000804405708446531,0.0255108041990576,-0.0401826256659134,1.08971511137189,-0.000106617740880167,0
0.26,0.000832021181065875,0.000479473991488107,-0.0414895059348195,-0.0239860371102448,-0.000515711775865697,0.000810059206780122,0.025680988458893,-0.0404622776267435,1.08971494336132,-0.000131425096414036,0
0.27,0.000818841517630209,0.000471652943301832,-0.0408499444933867,-0.0235947736562016,-0.000507646718970451,0.000797027439075193,0.025295050558164,-0.0398194892767359,1.08971438195645,-5.32321821500345e-05,0
0.28,0.000818003773875686,0.000471362107584002,-0.0407520882637241,-0.0235802263909846,-0.000507038488368849,0.000796382057716979,0.0252150253111528,-0.039761316289358,1.08971418601879,-4.467049108838e-05,0
0.29,0.000823856336350399,0.00047513576278119,-0.0410950075070562,-0.0237690063749821,-0.000510480538266373,0.000802435589981925,0.0254316656272661,-0.0400873507416227,1.08971418706682,-7.38291872662334e-05,0
0.3,0.000811791597791319,0.000469122750506388,-0.0405039336699918,-0.0234682087397729,-0.000502568285328285,0.000791521870746127,0.0250469035057695,-0.0395471628434875,1.08971497030448,-3.13230525675005e-05,0
0.31,0.000822684359898516,0.00047468305471568,-0.041034555276771,-0.0237463682224809,-0.000509651688289857,0.000801491556461538,0.025388581337436,-0.0400392890570302,1.08971495483741,-8.52019836732823e-05,0
0.32,0.000825217450193211,0.000475807527315892,-0.0411587968950716,-0.0238026041353083,-0.000511376760820082,0.000803660657023229,0.0254726902668672,-0.0401466384151924,1.08971475178303,-9.32603487070905e-05,0
0.33,0.000825736270010375,0.000476034890893734,-0.0411849756470485,-0.0238139806863737,-0.000511731309335237,0.000804102401442068,0.0254906246003286,-0.0401688430585706,1.08971453687285,-9.10269109401789e-05,0
0.34,0.000825781675007483,0.000476080828584637,-0.0411879853171555,-0.0238162824424254,-0.000511750150915107,0.000804164232705213,0.0254922199241555,-0.0401722810803928,1.08971434713457,-8.70004907775609e-05,0
0.35,0.000825725447016466,0.00047609008155236,-0.041185916441954,-0.0238167468548905,-0.00051169589447436,0.00080414649858167,0.0254901645354663,-0.0401717395175814,1.08971418682121,-8.31282826955944e-05,0
0.36,0.00082565606360896,0.000476091921603285,-0.0411830917694993,-0.0238168417382422,-0.000511633427394839,0.000804116091843934,0.025487611197138,-0.0401705199560947,1.08971405301708,-7.9783939033782e-05,0
0.37,0.000825592850114175,0.000476092267731705,-0.041180469701839,-0.0238168609406851,-0.000511577139321717,0.000804087204273873,0.0254852733923017,-0.040169326482425,1.08971394173281,-7.69752453018097e-05,0
0.38,0.000825538949824105,0.000476092316128368,-0.0411782193817701,-0.0238168641073403,-0.000511529260268833,0.000804062352707786,0.0254832733165001,-0.040168290335005,1.08971384927377,-7.46350643393389e-05,0
0.39,0.000825493897096565,0.000476092307971369,-0.0411763320519337,-0.0238168657904368,-0.000511489263299921,0.000804041537099971,0.0254815963454062,-0.0401674204426991,1.08971377247847,-7.26897327248972e-05,0
0.4,0.000825456411363017,0.000476092291418256,-0.041174756745846,-0.0238168659936529,-0.000511455988782699,0.000804024208930619,0.0254801971893709,-0.040166693292204,1.08971370869893,-7.10737175361195e-05,0
0.41,0.000825425270264496,0.000476092275692904,-0.041173443510141,-0.0238168661760567,-0.000511428347060604,0.00080400981187329,0.025479030801238,-0.0401660871178726,1.08971365573052,-6.97315348325275e-05,0
0.42,0.000825399367855445,0.000476092262233158,-0.0411723463950478,-0.0238168663412752,-0.000511405355579679,0.000803997836376987,0.0254780563714821,-0.0401655807069131,1.08971361174102,-6.86168482642056e-05,0
0.43,0.000825377889228614,0.000476092250973723,-0.0411714323919845,-0.0238168664919824,-0.000511386290735143,0.000803987906073754,0.0254772445757863,-0.0401651588261547,1.08971357520848,-6.76911135411833e-05,0
0.44,0.000825360019476752,0.000476092241606449,-0.0411706672229931,-0.0238168666307992,-0.000511370429242106,0.000803979644248075,0.0254765649749283,-0.0401648056484028,1.08971354486879,-6.69223050199119e-05,0
0.45,0.000825345234730912,0.000476092233823515,-0.0411700300542634,-0.0238168667591669,-0.000511357305991833,0.000803972808749689,0.0254759990570089,-0.0401645115610802,1.08971351967217,-6.62838222339813e-05,0
0.46,0.000825332894704915,0.000476092227359369,-0.0411694933283549,-0.0238168654243209,-0.000511346352795998,0.000803967103503763,0.0254755230297393,-0.0401642625466334,1.08971349874682,-6.57535730470444e-05,0
0.47,0.000825322650156616,0.000476092221990724,-0.041169043239912,-0.0238168655377884,-0.000511337259574366,0.000803962367074842,0.0254751232783788,-0.0401640548162936,1.08971348136855,-6.53132100917629e-05,0
0.48,0.000825314379001779,0.000476092217532067,-0.0411686768054278,-0.0238168459668946,-0.000511329917702468,0.000803958543112815,0.0254748069128414,-0.0401638682707978,1.08971346693632,-6.49474961402459e-05,0
0.49,0.000825307277667163,0.000476092213829182,-0.0411683563585997,-0.0238168460702216,-0.000511323614486852,0.00080395525989153,0.0254745223093301,-0.0401637203843559,1.08971345495058,-6.4643776920497e-05,0
0.5,0.000825301456901085,0.000476092210753987,-0.0411680895855067,-0.0238168461693152,-0.000511318447830998,0.000803952568757244,0.0254742853708435,-0.0401635972793518,1.08971344499652,-6.43915432740981e-05,0
0.51,4.67992884167324,0.00186517379206813,6.00422915796164,-0.0847974179481674,-0.504016515397913,4.65270940358459,-0.733319829133433,5.95988258370978,0.108305299799416,33.3742434503602,4728.11007218688
0.52,4.71278706258119,-0.0173475483657972,4.362115383766,0.887345613102152,-2.23900153054,4.14699107557594,-1.27588765671634,4.26468563270712,0.491382564689697,71.274682500945,4728.11007218688
0.53,4.68335286363321,0.0175263596348034,5.83473645117593,-0.845432906807901,-4.28237378544171,1.89614766839111,-5.68333627711629,1.56799075756482,1.15770535317284,111.089541451286,4728.11007218688
0.54,4.65527544014918,0.0330427986093751,7.23968990491604,-1.62021018985563,-3.96895265606311,-2.43312475309542,-5.28860192871659,-5.20277624141481,2.1278463717242,152.95937897438,4728.11007218688
0.55,4.66191705946622,-0.0212223135751115,6.90874558130493,1.11312942911338,1.16049818649341,-4.51521483598302,0.609968598006755,-6.97120943184211,-2.89457064716084,190.801867604337,4728.11007218688
0.56,4.6346868800635,-0.0185840822512651,8.27154628844217,0.978891685426748,4.51573798892409,1.04344537937241,8.28315325185127,0.875259470091471,-1.34772299880158,231.658974344092,4728.11007218688
0.57,4.6491731458219,0.0210222704199423,7.54856833636978,-0.976400172148348,-2.16776859638933,4.11291042793219,-4.41149193011839,6.20265912133789,0.489585648450607,269.812460001681,4728.11007218688
0.58,4.63642318848409,0.0704032582982772,8.18752679159499,-3.44288991496447,-2.38362183744057,-3.97740160627116,-1.12196453998091,-8.81080481571776,2.61687813693643,309.415108869504,4728.11007218688
0.59,4.62516966113011,0.036921242226994,8.75179585082232,-1.76535576601564,4.40451441194434,1.41202350098737,7.76007912211363,4.4149273622124,-1.25257984024843,349.03028534562,4728.11007218688
0.6,4.60169655254062,0.00704326256341581,9.92708031730101,-0.264961730510862,-4.56639883129926,0.568913422869005,-9.88514419765893,0.949237871279111,1.44837868700653,388.3054342317,4728.11007218688
0.61,4.58358127215868,0.00957564602235034,10.8345930712823,-0.3811125691112,4.40735643148374,-1.25877649220959,10.5281042323422,-2.58702050311756,-1.84690865270153,427.277159772615,4728.11007218688
0.62,4.62543536217041,0.0833695798400489,8.74367815867268,-4.0544385189844,-4.56590189216782,0.744407608476383,-9.23387815904211,-2.76149843212688,1.42720420132195,466.035415576372,4728.11007218688
0.63,4.56763593470911,0.0895519468984904,11.6356234143059,-4.34379431088123,4.42128632476451,1.15045417887443,10.0249903099183,7.33183814202365,-1.29663018333712,504.7138820556,4728.11007218688
0.64,4.58541334241528,0.070906329048583,10.7488331888014,-3.43727287707062,-2.6245433147057,-3.76069350220579,-3.16573361516205,-10.8319153629428,2.54774768745314,544.09680871324,4728.11007218688
0.65,4.56972050948388,0.0641316484110726,11.5355948419713,-3.06378173523737,-1.69286494459669,4.24507558030257,-7.25254699751123,9.47930740762107,0.393490116646076,582.448725933502,4728.11007218688
0.66,4.53561178857134,0.0473183300652837,13.2432181977205,-2.24397351813061,4.52030483438713,0.375309905549817,12.9766651977745,3.4676224891667,-1.47752651669215,621.490463840247,4728.11007218688
0.67,4.55821942220566,0.0386626650325255,12.1151097931478,-1.75915347959893,0.311299001816717,-4.5477414212011,2.68381055767689,-11.9443571260789,-3.06476616068585,659.650808898878,4728.11007218688
0.68,4.50203484971351,0.0908725615160233,14.9267384759925,-4.384918679391,-4.27015718732591,-1.42910223777037,-12.5812934179693,-9.15128894126451,1.91393327193796,698.414344003345,4728.11007218688
0.69,4.51477043994676,0.0588177153164327,14.2923746732545,-2.78792744772082,-3.47553998071824,2.88222717555039,-12.8710266076057,6.81037350816734,0.891476710349869,737.087869776802,4728.11007218688
0.7,4.52076518847372,0.125911356819676,13.9951293711301,-6.1421689543043,-0.556255051467316,4.48817912708585,-8.17950398148089,12.910677758926,0.151153582163318,775.555716174617,4728.11007218688
0.71,4.48408862630842,0.0601054440623328,15.8315171337303,-2.84167725055147,1.41444082425258,4.25558698979144,2.0831689410434,15.9490586404016,-0.307482353437059,813.914475795386,4728.11007218688
0.72,4.47034148842181,0.109703298993403,16.5215192650608,-5.30331540329739,2.18162147055668,3.90339795513108,3.01277007641281,17.0882699404971,-0.485117621499358,852.120464330863,4728.11007218688
0.73,4.41725110718109,0.137571737283763,19.1787267320743,-6.66533217758309,1.77472456802969,4.04739249819235,0.966587559995163,20.280925042758,-0.382103523797383,890.185016689088,4728.11007218688
0.74,4.40921310455563,0.105048858222522,19.583435349541,-5.03166381409326,0.100804801426562,4.40931217493254,-5.05051116389959,19.5785831410507,0.000962532018401444,928.452129876794,4728.11007218688
0.75,4.44286492216664,0.137363037461163,17.903701504294,-6.66851536996251,-2.62976987221519,3.58360541073772,-16.2850460435396,9.99044043844315,0.663981866900568,966.7046293307,4728.11007218688
0.76,4.37543609049752,0.117329348344366,21.2780685547019,-5.61350075535862,-4.37685390444159,-0.0368382570914941,-21.0671714815535,-6.35939288893407,1.60602177381557,1004.58607906368,4728.11007218688
0.77,4.40196766067968,0.167601432181353,19.9545216807185,-8.1491937471824,-1.52133095411938,-4.13412163025922,1.57548006917945,-21.4967475862513,2.82703437166901,1042.64383488258,4728.11007218688
0.78,4.37037800444353,0.160816504073535,21.5371028822072,-7.84094360630198,3.98782095334762,-1.7953690132527,22.9042458303176,-0.850129484468384,-1.95704706893733,1080.74137933021,4728.11007218688
0.79,4.29193826467965,0.0952643685066505,25.4622493643581,-4.56369547187386,0.862773969023478,4.20540490869831,0.0726220994118112,25.8678987373044,-0.180158090234104,1118.5324567647,4728.11007218688
0.8,4.33987256005329,0.153706956423935,23.0687762431883,-7.40615963583232,-2.95637023681236,3.18087954642212,-21.5361441445131,11.1001861829645,0.784235639896658,1156.22905150749,4728.11007218688
0.81,4.34076291910671,0.183698332443262,23.0275750912008,-8.90093885990871,-0.29718158332984,-4.33447239047197,8.29553551771667,-23.2525271237994,3.11543156990423,1193.97560447182,4728.11007218688
0.82,4.25841518169472,0.113363168051271,27.1483550429517,-5.45289845918065,2.3583401738677,3.54756010405467,9.80288874185023,25.8973098112372,-0.560079286434052,1231.75600674501,4728.11007218688
0.83,4.25310860756232,0.146982480752374,27.4170897721055,-7.12193366927505,-3.20371292387744,-2.80120691466187,-15.1340911711776,-23.9453134283878,2.32381032142923,1269.47488387874,4728.11007218688
0.84,4.32098139241334,0.195609539456842,24.0269254817259,-9.49617028140344,3.234826864874,2.87141749660307,10.6104793428311,23.5560634706475,-0.799603614468933,1306.92622052692,4728.11007218688
0.85,4.19394574632594,0.21387645501086,30.382253275165,-10.3763153517834,-2.22066915936462,-3.56420433558183,-5.65732313250426,-31.6029101402128,2.63535083989351,1344.44707772196,4728.11007218688
0.86,4.30498855323588,0.0962813213553595,24.8336871493255,-4.53651552662385,-0.172911455220713,4.30259202864824,-6.07942595322962,24.5016850570134,0.062527457845416,1382.07038708067,4728.11007218688
0.87,4.20066737410123,0.129003122033563,30.0534324576683,-6.16817626567351,3.22606579719419,-2.69346387863412,27.456151048464,-13.6899587485126,-2.23576191591433,1419.45761011131,4728.11007218688
0.88,4.23912525167908,0.193224983084942,28.1342859561591,-9.32913331053792,-3.89678239692522,-1.68006123237373,-21.2216454483727,-20.6932969594572,2.02340643352116,1456.73911251048,4728.11007218688
0.89,4.24296585834729,0.182680153011127,27.9460126313021,-8.83779900431069,-0.969217822902796,4.13482141393948,-16.0520981682364,24.5237937038052,0.273275131670103,1494.22221004051,4728.11007218688
0.9,4.22345503714463,0.1954603406211,28.9253912336214,-9.49747655300142,4.01142919907947,1.33574435290241,23.5781795420601,19.2600562921101,-1.20311289183041,1531.57993683819,4728.11007218688
0.91,4.20145145074427,0.149882803496285,30.0295278285044,-7.21883557634208,2.70659226539774,-3.21698888040263,25.4944154872668,-17.4332701362594,-2.40648679516741,1568.78671280068,4728.11007218688
0.92,4.22139687113787,0.217402331352273,29.0361662570549,-10.5797176377447,-4.11175415991258,-0.980271924402389,-24.881294783096,-18.3289537649703,1.85628937687923,1606.00608871805,4728.11007218688
0.93,4.21478271972707,0.181057488180861,29.370908120706,-8.7230448017608,-3.8599024079878,1.702447822797,-30.531466993392,2.56345034667975,1.19833322127127,1643.07031470376,4728.11007218688
0.94,4.18216201158018,0.230947439553122,31.0059999890547,-11.164621056591,-2.87751865748051,3.04363305718546,-30.1885991225235,13.2162506664375,0.812517104151957,1680.09105241827,4728.11007218688
0.95,4.09348847536965,0.202733061459717,35.4438365193177,-9.86203148160345,-2.47689011825798,3.26538878761304,-30.3436598704104,20.8035457992406,0.698422286869983,1717.26048419356,4728.11007218688
0.96,4.1859332912334,0.216309854506224,30.8258017889899,-10.4628516660924,-3.01847963789361,2.90819671745813,-30.1339763872461,12.3144138315082,0.855633397469952,1754.18873563304,4728.11007218688
0.97,4.13329778376011,0.16392667073523,33.4617879031142,-7.903103696009,-3.91781344363557,1.32731320474218,-34.3302693163288,1.89285666948208,1.28378272679667,1791.2059916761,4728.11007218688
0.98,4.15215635818278,0.211072449895786,32.5231297347654,-10.1535145346787,-3.88883109632584,-1.47035597939813,-25.729633522342,-22.3345871678052,1.98307024117359,1828.04263630798,4728.11007218688
