t,iq,id,vq,vd,ia,ib,va,vb,theta_e,omega,r
0,0,0,0,0,0,0,0,0,0,0,0
0.01,0.00118671186350128,0.000679173669223542,-0.0589707773102657,-0.0340404912401608,0.000247835773332962,0.00134467072155145,-0.0125897984356505,-0.0669164000510944,0.337550347328703,-0.00113720245548427,0
0.02,0.0013448623290106,0.000770225381995004,-0.0668998757953599,-0.0386040490010752,0.000281386368260404,0.00152404840304315,-0.0142705334681198,-0.0759092738421813,0.337541956667468,-0.00124785690692012,0
0.03,0.00137109160427959,0.000785251645639662,-0.0682054445509753,-0.0393571842822186,0.000286891738698644,0.00155377136817881,-0.0145494709552236,-0.0773904614015434,0.337533376187041,-0.00122642971895801,0
0.04,0.00135821291155108,0.000778147810467538,-0.0675769762137859,-0.0390011266364505,0.000284465835789068,0.00153926460243465,-0.0144222347057151,-0.0766794283964369,0.337525464871455,-0.00116986119481285,0
0.05,0.00137054475384215,0.000785259459612158,-0.0681948322685173,-0.0393575583032984,0.000287104823375411,0.00155325341190328,-0.0145545645810695,-0.0773803411312216,0.337517528016313,-0.00113819167387351,0
0.06,0.00137029499326083,0.000785270628837815,-0.0681903797637437,-0.0393581331696112,0.000287209925236527,0.00155301924904898,-0.0145571721268527,-0.0773762190765975,0.33750989407671,-0.00109570175229859,0
0.07,0.00140287296958989,0.000803954292888855,-0.0698084180776491,-0.0402945709418986,0.000294063272167508,0.00158994398197626,-0.0149055611024278,-0.0792129530450503,0.337502600039837,-0.0010876989932934,0
0.08,0.00136984622974399,0.000785303581889727,-0.0681829966756871,-0.0393597836496169,0.000287411931111435,0.00155260258621692,-0.0145622860256569,-0.0773695898291336,0.337495525264652,-0.00101574720015975,0
0.09,0.00136952266028659,0.000785257408941166,-0.0681739812153414,-0.0393574573212062,0.000287485988655082,0.00155228003970368,-0.0145635986531478,-0.0773602142952715,0.337488771451709,-0.000978053896898435,0
0.1,0.0013692852132551,0.000785253216268834,-0.0681689425312935,-0.0393572560896732,0.000287570718401136,0.00155205273454798,-0.0145655787107228,-0.0773552987814322,0.337482287922993,-0.000941941979139872,0
0.11,0.00136905754510543,0.000785249281228868,-0.0681641179098082,-0.0393570636391556,0.000287652047943619,0.00155183481556331,-0.0145674760500248,-0.0773505919192008,0.337476063776701,-0.000907274937908217,0
0.12,0.00136883907375298,0.000785245503547616,-0.0681594893830245,-0.0393568683252597,0.000287730091838175,0.00155162569743011,-0.0145692864427403,-0.0773460727501781,0.33747008863586,-0.000873994797725251,0
0.13,0.00142718816953699,0.000818652054220044,-0.0710502902907089,-0.0410312147587645,0.00029994268844715,0.00161774276100749,-0.0151925320490348,-0.0806281049319213,0.337464048359957,-0.000898526839003686,0
0.14,0.00157104883820532,0.00090163193015876,-0.0782833235299209,-0.0451902271054879,0.000330620838245119,0.00178096166461443,-0.0167226480291377,-0.0888301098256071,0.337458353412596,-0.00100990495838276,0
0.15,0.0013686827188487,0.000785496178404591,-0.068169560866179,-0.0393694250023388,0.000288045139968223,0.00155155619572865,-0.01457913358637,-0.0773594824024388,0.337452852260991,-0.000778462859973516,0
0.16,0.00136802520637644,0.000785232000717057,-0.0681422636511054,-0.0393561818727048,0.000288021381181959,0.00155084684743963,-0.0145760653321955,-0.0773292665588246,0.337447805181157,-0.000749882010875826,0
0.17,0.00136784672962413,0.000785228350277162,-0.0681384379271254,-0.0393560228644248,0.000288084539118807,0.00155067583206263,-0.0145775565246841,-0.0773255333290595,0.337442960564169,-0.000722897520608049,0
0.18,0.00136767677730847,0.000785225407450484,-0.0681348325546661,-0.0393558603629559,0.000288145240406306,0.00155051314993645,-0.0145789564469061,-0.0773220096808152,0.337438309763857,-0.000696993640342118,0
0.19,0.0013675133181514,0.000785222583466882,-0.0681313547332055,-0.0393557304862553,0.000288203614198439,0.00155035668724033,-0.0145803305077418,-0.0773186198930999,0.337433845025168,-0.000672126081658539,0
0.2,0.00136735637824741,0.000785219872324385,-0.0681280136635913,-0.0393556006213638,0.00028825965790189,0.00155020646452441,-0.0145816454664166,-0.0773153617433593,0.337429558904459,-0.000648253382687844,0
0.21,0.00136720584118117,0.000785217269516553,-0.0681248111241275,-0.0393554707669683,0.000288313417041352,0.00155006236844228,-0.0145829012888401,-0.077312236806263,0.337425444255814,-0.000625335742761804,0
0.22,0.00136706147412203,0.000785214770719421,-0.0681217427079745,-0.0393553409219845,0.000288364975398003,0.00154992417593518,-0.0145840999664547,-0.0773092408242738,0.337421494219279,-0.000603334953493659,0
0.23,0.00136692292782404,0.000785212371781043,-0.0681187979359329,-0.0393552110856409,0.000288414455016183,0.00154979155422488,-0.0145852454797661,-0.0773063638138981,0.337417702209374,-0.0005822143350706,0
0.24,0.00136678985304122,0.000785210068715361,-0.0681159660777662,-0.0393550812576178,0.000288461977674451,0.0015496641706591,-0.0145863418720983,-0.0773035955586244,0.337414061904138,-0.000561938675102189,0
0.25,0.00136666199085837,0.000785207857694278,-0.0681132405324882,-0.0393549840195766,0.00028850763499247,0.00154954177794368,-0.0145874225448079,-0.077300940528023,0.337410567234237,-0.000542474169913409,0
0.26,0.00137496013799262,0.000789970496010128,-0.068526917018765,-0.0395936988160471,0.00029025989279768,0.00155894770927964,-0.0146759923303394,-0.0777702680408932,0.337407219529744,-0.000532192181186403,0
0.27,0.00132575970726768,0.000761954554442034,-0.0660979758316717,-0.0381895303499919,0.000280115913768449,0.00150324602753612,-0.0141553227060208,-0.0750133953136746,0.337403942739983,-0.000465191457407876,0
0.28,0.00128358151596575,0.00073751155684374,-0.0639141431827569,-0.0369644089485712,0.000271018257546059,0.00145535353391666,-0.0137224376503226,-0.0725470876923131,0.337400801640032,-0.000405916019459927,0
0.29,0.00136600617912212,0.000785092688553005,-0.0680938049299758,-0.0393492204840409,0.000288635631329937,0.00154888117147377,-0.0145893944054763,-0.0772805084961578,0.337397933212091,-0.000471913275979702,0
0.3,0.00136498711841815,0.000784575936170788,-0.0680460022841857,-0.0393233037377197,0.000288489202041931,0.0015477477873901,-0.0145809549936726,-0.077226785477455,0.337395448556087,-0.000457152151553996,0
0.31,0.0013660057353137,0.000785195153233221,-0.0680991801299124,-0.0393543603570206,0.000288740571934157,0.00154891316079695,-0.0145928695937588,-0.0772872057361116,0.337392699837623,-0.000442954233802614,0
0.32,0.00136591186649317,0.000785194877996975,-0.0680972475241514,-0.0393543329506807,0.000288775474385205,0.00154882373072378,-0.0145936875160455,-0.0772853344887799,0.337390059789877,-0.000428252373658652,0
0.33,0.00136581901922303,0.000785193277196401,-0.0680952556307259,-0.0393542682689896,0.00028880862380609,0.00154873485614582,-0.0145944817179199,-0.0772833964948928,0.337387525357863,-0.000414136173175048,0
0.34,0.0013657301561497,0.000785191737389992,-0.0680933555271802,-0.0393541710203069,0.000288840354459564,0.00154864979046842,-0.0145952069589006,-0.0772815358120773,0.337385092319279,-0.000400584704281611,0
0.35,0.00136564475945706,0.000785190259137173,-0.0680915256361248,-0.0393541063281406,0.000288870844615237,0.0015485680441,-0.0145959321482179,-0.0772797535779343,0.337382756617782,-0.000387575379993709,0
0.36,0.00136556262239219,0.000785188839986333,-0.0680897597730169,-0.0393540416306955,0.000288900166475223,0.00154848942002337,-0.0145966289089216,-0.0772780331214046,0.337380514359272,-0.000375086511110114,0
0.37,0.0013654838613704,0.000785187477575086,-0.0680880676613263,-0.0393539769271411,0.000288928285106442,0.00154841402624401,-0.0145972943113893,-0.0772763835632982,0.337378361805466,-0.000363097276119917,0
0.38,0.00136540824356107,0.000785186169636813,-0.0680864414932573,-0.039353912217973,0.000288955281037631,0.00154834164128396,-0.0145979312187869,-0.0772747974840843,0.337376295367518,-0.000351587686503491,0
0.39,0.00136533565254391,0.000785184913994521,-0.0680848790994184,-0.0393538445925773,0.000288981196121864,0.00154827215358285,-0.014598537869674,-0.0772732718232303,0.337374311600426,-0.00034053855340957,0
0.4,0.00136526608832878,0.000785183708558788,-0.0680833839718669,-0.0393537798715828,0.000289006033539269,0.00154820556151456,-0.0145991188569629,-0.0772718117546232,0.337372407196687,-0.000329931455661362,0
0.41,0.00136519931808013,0.000785182551322524,-0.0680819478346063,-0.0393537151450008,0.000289029873413807,0.0015481416437982,-0.0145996744201726,-0.0772704084594671,0.337370578981249,-0.000319748709045702,0
0.42,0.00136513522538264,0.000785181440359909,-0.0680805681191375,-0.0393536504130954,0.000289052757210095,0.0015480802890727,-0.014600205645885,-0.0772690594698714,0.337368823906063,-0.000309973336830288,0
0.43,0.0013650733185035,0.000785180373821516,-0.0680792233084824,-0.0393536182217353,0.000289074850504786,0.00154802103187595,-0.0146007505942047,-0.0772677552120815,0.337367139045104,-0.000300589041458668,0
0.44,0.00136501434807831,0.000785179349931686,-0.0680779539121395,-0.0393535534776026,0.0002890959075313,0.00154796457913851,-0.0146012346499213,-0.0772665123250419,0.337365521589461,-0.000291580177379822,0
0.45,0.00136495733064175,0.000785178366985451,-0.0680767136212261,-0.0393535212716366,0.0002891162564076,0.00154791000149732,-0.0146017347720032,-0.0772653086164267,0.337363968842545,-0.000282931724963315,0
0.46,0.00136490301682756,0.000785177423346643,-0.068075542706056,-0.0393534565160292,0.000289135651157241,0.00154785800599025,-0.0146021764125866,-0.0772641605047175,0.337362478215248,-0.000274629265459947,0
0.47,0.00136485065600294,0.000785176517444167,-0.0680744062935494,-0.0393534242954236,0.000289154342622934,0.0015478078830655,-0.014602632722955,-0.077263056589507,0.337361047222705,-0.000266658956961467,0
0.48,0.0013648006495538,0.00078517564776916,-0.0680733269629556,-0.0393533595288242,0.000289172200232911,0.00154776001030026,-0.0146030350016574,-0.0772619966008563,0.337359673479181,-0.000259007511322769,0
0.49,0.00136475224684918,0.000785174812873481,-0.068072269579469,-0.0393533272960659,0.000289189474638785,0.00154771367823927,-0.0146034564669279,-0.0772609688923827,0.337358354694058,-0.00025166217200998,0
0.5,0.00136470582320472,0.000785174011367085,-0.0680712552480199,-0.0393532950563884,0.000289206043717826,0.00154766923995156,-0.0146038595967816,-0.0772599825764524,0.337357088668783,-0.000244610692828659,0
0.51,4.53535571124713,0.00354643848341715,13.234128834678,-0.169884126481745,-0.363862862524535,4.52073753076236,-1.24138896151864,13.1768729247688,0.0810963204660303,24.8624938033911,2950.43101473385
0.52,4.49531401556524,0.0119753514087336,15.2384053494399,-0.582699684151191,-1.59696582764443,4.20210562134206,-5.99550787961643,14.021498556902,0.365845421717779,52.9164954323016,2950.43101473385
0.53,4.56305056592236,-0.0276472813014816,11.8538741172052,1.4146383571066,-3.4755399977314,2.95682541985437,-8.05870322577502,8.80754424268354,0.859806506991264,82.2411387876032,2950.43101473385
0.54,4.45385052441645,0.017899949188009,17.3162617914399,-0.867743859905342,-4.45386182908706,-0.0148225985201806,-17.3094192026805,-0.994941557057408,1.57814330865008,113.487699314458,2950.43101473385
0.55,4.45800515336594,-0.0154688703655383,17.1110068748925,0.82058261757165,-2.60394930024455,-3.61849378542282,-10.7071032653039,-13.3722792287253,2.51434841182218,141.67071835445,2950.43101473385
0.56,4.48296699077792,0.0587830733116479,15.8654344072004,-2.90208468206817,2.1729438991938,-3.9215766346036,10.3905691176137,-12.3357276981606,-2.62249564883722,171.806240284008,2950.43101473385
0.57,4.40795673384457,1.97360902509658e-05,19.6185272386211,0.0650704009881574,4.19383702709491,1.35713431833511,18.6855502919051,5.97838234460514,-1.25782485467932,200.188837550029,2950.43101473385
0.58,4.46927835977159,-0.00161800920019473,16.5551249016156,0.147207321120928,-1.40928637918331,4.24126909975361,-5.07488379066158,15.7587875490078,0.320439691343073,230.029345769241,2950.43101473385
0.59,4.46484338235467,0.110892413328577,16.7796984788376,-5.49088371529907,-3.88438996199086,-2.2042318796975,-11.5559538310822,-13.3479592473733,2.11177653914747,259.365067096049,2950.43101473385
0.6,4.46381749184332,0.0782728760050597,16.8337014087684,-3.84996135121588,3.65252291886419,-2.56726889335268,16.0979914414488,-6.24903009085951,-2.16591638830688,288.46277563739,2950.43101473385
0.61,4.44400948851395,-0.0181731996009724,17.826932349513,0.990985271563158,-0.256040301459078,4.43666473414597,0.0352673004437686,17.8544203215923,0.0535567990412314,317.54587310266,2950.43101473385
0.62,4.39813401062504,0.0177722592735887,20.123699029368,-0.803971287758287,-2.69438259831248,-3.4762337439429,-11.6262684644998,-16.4450452735012,2.48626925241884,346.618173067264,2950.43101473385
0.63,4.35391306600225,0.0116504127713424,22.3377621774565,-0.484311776039876,3.9813416846035,1.76227498105756,20.2047323471622,9.53828956220938,-1.15140944966882,375.531771658047,2950.43101473385
0.64,4.38770023549909,0.00894769226355219,20.6513920494758,-0.322765109136397,-4.34859073974403,-0.58459558329503,-20.4179652340035,-3.1130156761333,1.70646776101041,404.226078074429,2950.43101473385
0.65,4.40396137258662,0.0198000885980432,19.8413482374661,-0.86275085630828,4.39612355449131,0.263373325130345,19.7448344934653,2.13657430156857,-1.50646155298846,433.361875365163,2950.43101473385
0.66,4.39538503807984,-0.0495607000436323,20.2733928136367,2.61390281360774,-4.29249983744325,-0.946737049826737,-20.379723152662,-1.58424376781288,1.77660185888652,462.304349414347,2950.43101473385
0.67,4.30846945453616,-0.0294251111465031,24.6224078962807,1.61369363103304,3.63889477527254,2.3069936480908,21.7396473158837,11.6728193820797,-1.01259362134752,491.107869199261,2950.43101473385
0.68,4.28055114931212,0.121894288652902,26.0216143302538,-5.95124648316467,-1.96477992662756,-3.80494628075153,-5.91270010508813,-26.0304000069753,2.69339947546906,519.809840066048,2950.43101473385
0.69,4.35339114080581,0.0798297036807833,22.3828843513269,-3.85506988041029,-1.32392773176148,4.1479636651626,-10.8460380271689,19.9554136710048,0.327290016627007,548.882956394791,2950.43101473385
0.7,4.3034392937002,0.0815005859410989,24.8838274304556,-3.94503588962784,4.14173202296943,-1.17144694714748,25.0700566070484,-2.50208662490679,-1.82750028087365,577.734717334228,2950.43101473385
0.71,4.32295797597766,0.141762498129549,23.9112630554615,-6.96028909797756,-2.66051308776442,-3.41023934318092,-8.45702528122326,-23.423766747209,2.51185158847217,606.4844905453,2950.43101473385
0.72,4.2072494228246,0.0635534809862397,29.7002085397486,-3.03828619193389,-2.90957918255547,3.03962756456169,-23.0217954713257,19.0086954724699,0.7786464181715,635.164997398241,2950.43101473385
0.73,4.27744348228702,0.0578054812913789,26.1939842073285,-2.73486060174292,2.93989802409304,3.10754948886753,15.7308808682148,21.1221130163337,-0.744169376971013,663.866088808027,2950.43101473385
0.74,4.2936075506679,0.122912192704434,25.3893374811904,-5.96912019694621,3.73888207323918,-2.11445833458087,25.2371291467676,-6.58302104574657,-2.05686724923091,692.3953402834,2950.43101473385
0.75,4.26540987294736,0.148520542360021,26.8028368665358,-7.21636606085774,-0.225691073521637,-4.26202337805324,6.73010976628554,-26.9290479919394,3.1234937902335,720.872107263466,2950.43101473385
0.76,4.26156939911477,0.0775117312752082,26.9984954624962,-3.70970770382381,-3.41500490735735,-2.55043590287659,-19.0607949335784,-19.4773402954897,2.23045354665016,749.730762413171,2950.43101473385
0.77,4.24943720751326,0.0351406991215233,27.6088381521101,-1.52715814221117,-4.2473784631467,0.136848968320629,-27.6374828578379,-0.865850670408202,1.54685714397419,778.057994216021,2950.43101473385
0.78,4.13765749137213,0.111470733905868,33.201557709045,-5.40214399454588,-3.58128492423018,2.07533937752529,-31.7462960628894,11.1220178174747,1.07252396546365,806.812054911401,2950.43101473385
0.79,4.13906270444967,0.0957291498204951,33.1350688269544,-4.54071122309625,-2.9240338194142,2.93104595058037,-27.0776975748627,19.6303117301492,0.807324645727226,835.144049418121,2950.43101473385
0.8,4.14607338848622,0.137986772204101,32.7883797520986,-6.66168461475663,-1.53951632036094,3.85212336138905,-19.2745328310119,27.3486429795074,0.413477057893047,863.591712738763,2950.43101473385
0.81,4.25759083907236,0.0572765743246408,27.2164615855292,-2.62107257516953,-2.23312014371264,3.62540132711733,-16.7972414452212,21.5744868423756,0.565527803954125,892.059845752367,2950.43101473385
0.82,4.18461992728207,0.10236038924082,30.8689513822306,-4.88573146494856,-3.28238006685177,2.5975955577853,-27.6046104957267,14.6542830177842,0.925792540358477,920.493300988636,2950.43101473385
0.83,4.167749749228,0.111999926195539,31.7164571215227,-5.355965779001,-4.14694487832873,0.430732088148776,-32.0334058245961,-2.91220415560993,1.49416665082071,948.842650335523,2950.43101473385
0.84,4.20097820077163,0.168036879256542,30.0591331312122,-8.13455282441972,-3.3227407136532,-2.57601405003547,-17.7639983869869,-25.5766064121169,2.27025186715032,977.089549069867,2950.43101473385
0.85,4.15264062497668,0.185233324509749,32.4800627928035,-8.97551893964373,0.28129065632265,-4.14724138571427,12.5587952174319,-31.2696511324794,-3.02929380449757,1005.43090466362,2950.43101473385
0.86,4.07629932977021,0.170572459310312,36.3012345924277,-8.32320093172325,3.88673302149716,-1.24041025848861,37.210790607609,-1.55318029893064,-1.83789802746895,1033.89339468607,2950.43101473385
0.87,4.21203794410336,0.163410004080543,29.5183951166296,-7.8846562808298,1.93833872500507,3.74310158279812,5.41062929186796,30.0703931732572,-0.439043353714469,1062.05881108276,2950.43101473385
0.88,4.15536855634338,0.179418715318791,32.3561216312638,-8.75317032869287,-3.75050026413192,1.798061924184,-33.1926700796683,4.66725302533916,1.166899248746,1090.38451635396,2950.43101473385
0.89,4.12988813809595,0.168150305742368,33.6343319159787,-8.09850637775134,-0.831752542080195,-4.04875762021512,2.57019780583722,-34.4999735104764,2.97967056539293,1118.48134272481,2950.43101473385
0.9,4.10665656836044,0.126482651058122,34.8002203512237,-6.05987566345531,3.97447297808602,1.04124472528828,31.6611697297591,15.6635807175004,-1.28378195305051,1146.76418587777,2950.43101473385
0.91,4.08700884080081,0.168250983097805,35.7869316930739,-8.17935886724795,-3.20720742098334,2.53885214553482,-33.7579160365497,14.4225343249106,0.942337270956074,1174.95555504407,2950.43101473385
0.92,4.05134746966403,0.171423084373553,37.5743695399777,-8.33630019827983,0.768526583468525,-3.98147825365297,16.7857474077143,-34.6347488988596,-2.90862492422804,1203.0240852498,2950.43101473385
0.93,4.04640382861687,0.105298762172638,37.8260145703654,-4.98968466119703,2.39814572191487,3.26088467597702,17.5148882639029,33.8959145089593,-0.608092649627446,1231.06745031833,2950.43101473385
0.94,3.96635878260564,0.173332482901497,41.8326521518595,-8.42930849275852,-3.22800464534779,-2.31128365883436,-27.7153839507391,-32.4481358507338,2.23585951875472,1259.17600067698,2950.43101473385
0.95,4.06820946112573,0.246885086326438,36.7446092140386,-12.0978034153703,3.55237988609278,1.9979683707023,24.3183407289665,30.0855689319521,-0.997847237260344,1287.20714400327,2950.43101473385
0.96,4.01610829610365,0.158483116097284,39.3541219597042,-7.62480424555078,-3.20751198389868,-2.42200528844732,-25.6155575568692,-30.833873679007,2.25699743089531,1315.16250598022,2950.43101473385
0.97,3.9966818427603,0.213333928188852,40.3298659170811,-10.3063251010018,2.32398403422297,3.25853883294999,12.936203753053,39.5647956450779,-0.566201852400079,1343.07762905995,2950.43101473385
0.98,3.94004324743401,0.192602006976228,43.1662892985539,-9.37425037072178,-0.360148045152054,-3.92827312063644,7.52824118693628,-43.5262068925233,3.09901156912814,1371.18389865474,2950.43101473385
