t,iq,id,vq,vd,ia,ib,va,vb,theta_e,omega,r
0,0,0,0,0,0,0,0,0,0,0,0
0.01,0.000504328088098203,0.000287942689420266,-0.0247851611286183,-0.0144110711667643,-0.000116025320972446,0.000569030700163537,0.00550645747382821,-0.0281364907270619,0.71992280427131,-0.000854428294398086,0
0.02,0.000569199074794447,0.000324619934805261,-0.0280204937855598,-0.0162467028878956,-0.000131216266064498,0.000641987523507986,0.00625925897068947,-0.0317793188072368,0.719916271214928,-0.000937338816227424,0
0.03,0.000594796291877587,0.000339193839722014,-0.029283572736664,-0.0169761017877773,-0.000137130956853992,0.00067084289547479,0.00654340204547303,-0.033209931553735,0.719909472805556,-0.000950892138365055,0
0.04,0.000581218634346954,0.000331579912183966,-0.0286310690125351,-0.0165950438721309,-0.000133899389016548,0.000655615201697657,0.00639948971792093,-0.0324681401572175,0.719903003289265,-0.000897958080316689,0
0.05,0.000595312635102282,0.000339702792514869,-0.0293311586617711,-0.0170015739531879,-0.000137080074256848,0.000671568443270349,0.00655519605222199,-0.0332625884447474,0.719896589131788,-0.000893294118906498,0
0.06,0.000596190586125059,0.000340298732955809,-0.029384937776172,-0.0170314057533486,-0.000137206627204648,0.00067262231905178,0.00656801446603163,-0.0333227330214479,0.71989032384502,-0.000866372273273587,0
0.07,0.000610293919439187,0.000348513244353458,-0.0300847399365899,-0.0174425309511431,-0.000140324547063633,0.000688642992475495,0.0067200750286076,-0.0341199949390928,0.719884329085823,-0.000863628939176034,0
0.08,0.000596961554019335,0.000340943977541099,-0.0294432768477983,-0.0170637025598963,-0.000137221751650017,0.000673629040105031,0.00658179622644035,-0.0333879687166249,0.719878401605427,-0.000813581308904578,0
0.09,0.0005957734638788,0.000340386093476984,-0.0293950301439651,-0.0170357796581709,-0.0001368541029798,0.000672368698997998,0.00657079325257171,-0.0333333205930391,0.719872729081414,-0.000785765251958597,0
0.1,0.00059551426163922,0.00034034384926593,-0.0293918566823371,-0.017033661739468,-0.000136711293378116,0.000672146705572331,0.00657011081729432,-0.0333295741847707,0.719867249016702,-0.000760434949075982,0
0.11,0.000595331149804825,0.000340339564068015,-0.0293920865543538,-0.0170334539425211,-0.000136590232175736,0.000672006923529899,0.00657024202610051,-0.0333296448368277,0.719861950923936,-0.000736063076660808,0
0.12,0.000595159376363322,0.000340338109191392,-0.0293925657351463,-0.0170333731179728,-0.000136474637480479,0.000671877507560509,0.0065704479809804,-0.0333299855025502,0.719856828459787,-0.000712508033769226,0
0.13,0.000622358154643746,0.000355975181972415,-0.030730998417691,-0.0178159896850142,-0.000142645057573928,0.000702638164620734,0.00686421820501997,-0.0348523494278152,0.719851715421015,-0.000736492671892201,0
0.14,0.000644486085844121,0.000368875451287865,-0.0318769838676251,-0.0184616156793867,-0.000147530037418212,0.000727781767749703,0.00713410776679618,-0.0361396992289912,0.719846749387731,-0.00075234493824416,0
0.15,0.000598435335512862,0.000342433239230052,-0.0295785547912419,-0.0171382282772702,-0.000137048992530413,0.00067572401745563,0.00661372532160365,-0.0335390579681765,0.719841909593658,-0.000650458486017949,0
0.16,0.000594797472809173,0.000340487755806201,-0.0294084731799966,-0.0170408579078565,-0.00013611049649918,0.00067170669064471,0.00657466085285576,-0.0333470083768284,0.719837434580208,-0.000623828244972842,0
0.17,0.000594387940122295,0.000340343730490126,-0.0293959200003923,-0.0170336601500662,-0.000135945907376275,0.000671304393337629,0.00657165339690819,-0.0333328525993249,0.719833123423695,-0.000603544427824973,0
0.18,0.000594228402045675,0.000340332211422135,-0.0293953374165324,-0.0170330771293063,-0.000135846594947787,0.000671177406182843,0.00657156880818775,-0.0333320575681121,0.719828956339198,-0.000584348227678343,0
0.19,0.000594092043159115,0.000340330467179576,-0.0293956477467904,-0.0170329957060045,-0.000135755307376627,0.000671074272457764,0.00657170032739192,-0.0333322637092218,0.719824927460633,-0.000565819846136727,0
0.2,0.000593961667519158,0.000340329471401845,-0.0293960186554371,-0.0170329379607218,-0.00013566749190916,0.000670976112261738,0.00657185842857655,-0.03333253013438,0.719821032124218,-0.000547907978599037,0
0.21,0.000593835611416127,0.000340328559336678,-0.0293963762819235,-0.0170328943881069,-0.000135582548522476,0.000670881237047433,0.00657200141833607,-0.0333327950688541,0.71981726589726,-0.000530589973701588,0
0.22,0.000593713746264749,0.000340327681155211,-0.0293967219028439,-0.0170328522790838,-0.000135500426970486,0.00067078951792274,0.00657213955203786,-0.0333330511220136,0.71981362450028,-0.000513845979615635,0
0.23,0.000593595955648431,0.000340326832278768,-0.029397057107659,-0.0170328101776737,-0.000135421051105248,0.000670700864952942,0.00657227483458109,-0.0333332985562239,0.719810103795692,-0.000497656958225197,0
0.24,0.000593482064944192,0.000340326011486314,-0.0293973801887641,-0.0170327680834878,-0.000135344303979296,0.000670615146626562,0.00657240600736892,-0.0333335361133937,0.719806699783282,-0.000482004514260043,0
0.25,0.000593371957736708,0.000340325217833457,-0.0293976921899809,-0.017032725996069,-0.000135270106903759,0.000670532275360351,0.00657253363011401,-0.0333337646034025,0.719803408595112,-0.000466870863051213,0
0.26,0.000599120753838383,0.000343673091202617,-0.0296841730838399,-0.0172002920996167,-0.000136540404877767,0.000677062470627674,0.00663528732947133,-0.0336596663982111,0.71980025377832,-0.000462523606102492,0
0.27,0.000582164953716851,0.000333969485389305,-0.0288607724222542,-0.0167146382372557,-0.000132656982784365,0.0006579162373934,0.00645755117227194,-0.0327203812488328,0.719797094970918,-0.000418758207382143,0
0.28,0.000581407720804971,0.00033356609207745,-0.0287760592983715,-0.016694442980973,-0.000132459161806519,0.000657081308552425,0.0064167939941641,-0.0326433878453939,0.719794118028202,-0.000403928198781419,0
0.29,0.000592080878824771,0.000339825411830401,-0.0293555296567073,-0.0170077182139004,-0.000134786695584347,0.000669233609652913,0.0065631395860162,-0.0332856545533317,0.719791295755579,-0.000409636013352239,0
0.3,0.000587348249491991,0.000337228121569871,-0.0291285309787826,-0.0168777298853753,-0.000133618161681347,0.000663963070530091,0.00651115661907789,-0.0330292888592447,0.71978878298042,-0.000390015135797697,0
0.31,0.000592372569198485,0.000340093552010217,-0.0293787593291547,-0.0170211297203614,-0.000134773887406331,0.000669630408606961,0.00656819579961302,-0.0333119972474739,0.719786110283409,-0.000386599190093967,0
0.32,0.000592673956336308,0.000340303687102061,-0.0293979978006789,-0.0170316499965266,-0.000134812811995787,0.000669995913193788,0.00657288067512893,-0.0333334159054157,0.719783503398107,-0.000375286643472239,0
0.33,0.000592619101280689,0.000340318577599138,-0.0293996747785221,-0.0170323975388186,-0.00013476376366256,0.000669964821065505,0.00657333998395703,-0.0333351862820434,0.719780981185666,-0.000363740193298733,0
0.34,0.00059253973995569,0.0003403191288965,-0.0294000087671992,-0.0170324278067894,-0.000134709398812022,0.000669905837257247,0.00657345609922212,-0.033335473409215,0.719778542439305,-0.000352530163854654,0
0.35,0.000592461077055949,0.000340318643713986,-0.0294002365528461,-0.0170324027868931,-0.000134656328185546,0.000669846684223494,0.00657354647047296,-0.0333356436994819,0.719776184514008,-0.000341688167535646,0
0.36,0.000592384800666228,0.000340318099706739,-0.0294004451683215,-0.0170323748570777,-0.000134604927639629,0.000669789276193269,0.00657362899706961,-0.0333357971432569,0.719773904740189,-0.000331205256608036,0
0.37,0.000592311027205392,0.000340317568194175,-0.029400644820901,-0.0170323469266011,-0.00013455521853034,0.000669733748094686,0.00657370813397368,-0.0333359433507168,0.719771700528439,-0.000321069776444217,0
0.38,0.00059223975667344,0.000340317053865509,-0.0294008399884094,-0.0170323189949573,-0.000134507195629382,0.0006696801033779,0.00657378674999111,-0.0333360857050686,0.719769569374398,-0.00031127023040031,0
0.39,0.000592170710209972,0.000340316556527919,-0.0294010209785229,-0.0170323051807072,-0.000134460673608676,0.000669628132570835,0.00657384775858751,-0.033336226241061,0.719767508856299,-0.0003017954855294,0
0.4,0.000592104096290091,0.000340316075647933,-0.0294012024198442,-0.0170322772455234,-0.000134415788708979,0.000669577992420344,0.00657392195915859,-0.0333363573591345,0.719765516633109,-0.000292634776560643,0
0.41,0.000592039694260789,0.000340315610683222,-0.0294013772578015,-0.017032249309315,-0.000134372394345412,0.00066952951696918,0.00657399400827822,-0.0333364830773936,0.719763590441399,-0.000283777694933527,0
0.42,0.000591977283469995,0.000340315161108182,-0.0294015383466367,-0.017032235485675,-0.000134330343973482,0.000669482540259691,0.00657404850961123,-0.0333366073406025,0.719761728092332,-0.000275214177066189,0
0.43,0.000591917130599136,0.000340314726413887,-0.029401702793672,-0.0170322075454534,-0.000134289812339459,0.000669437262790701,0.00657411789717028,-0.0333367244178687,0.719759927469932,-0.000266934492928211,0
0.44,0.000591858794344202,0.000340314306108738,-0.0294018521704423,-0.0170321937152081,-0.000134250507517048,0.000669393352683054,0.00657416872932623,-0.0333368390721626,0.719758186528336,-0.00025892923498625,0
0.45,0.000591802541383787,0.000340313899716926,-0.0294020032886474,-0.0170321643162513,-0.000134212604319949,0.000669351010435114,0.00657423433983984,-0.0333369443939646,0.719756503289508,-0.000251189307515494,0
0.46,0.000591748046834055,0.000340313506778517,-0.0294021433251342,-0.0170321504793545,-0.000134175887635062,0.000669309991711728,0.00657428280266341,-0.033337051274726,0.719754875840845,-0.000243705916264307,0
0.47,0.000591695519165142,0.000340313126848594,-0.0294022859764444,-0.0170321225316297,-0.000134140493969346,0.00066927045324236,0.00657434539798229,-0.0333371504655256,0.719753302333191,-0.000236470558462769,0
0.48,0.000591644575282323,0.000340312759496729,-0.029402415270051,-0.0170321086884872,-0.000134106169901363,0.000669232106919315,0.00657439032006685,-0.0333372485668566,0.719751780978836,-0.000229475013160501,0
0.49,0.000591595261213874,0.0003403124043074,-0.0294025365533643,-0.0170320948418001,-0.000134072944916884,0.000669194987322461,0.0065744316451912,-0.0333373403110492,0.719750310048963,-0.000222711331886949,0
0.5,0.000591547635167456,0.000340312060878293,-0.0294026557143472,-0.0170320809913235,-0.000134040856559447,0.000669159138190797,0.00657447319919318,-0.0333374301364776,0.719748887872549,-0.000216171829618798,0
0.51,4.7034873880891,0.0074136971607104,4.82663055679151,-0.365756456854447,-0.275876456473241,4.69539569723177,-0.65578573566894,4.79584042544968,0.0602634187381046,18.7369154049004,2786.83911828368
0.52,4.6603385823739,-0.00312198670354946,6.98515543955935,0.167743839608016,-1.27204903770046,4.48337559154362,-1.74070518887141,6.76686633206007,0.275790318553895,40.0877020890909,2786.83911828368
0.53,4.67784076954361,0.0138989385982415,6.1111504111061,-0.677385348663727,-2.81644458527593,3.73497353990204,-4.2335147104588,4.45896439255524,0.649074278823896,61.8878087186073,2786.83911828368
0.54,4.69305801721906,0.0143662021209159,5.35142733516852,-0.693914773373947,-4.34571092662791,1.77194708807409,-5.22152144354186,1.36198606855136,1.18669123520325,85.1697913081018,2786.83911828368
0.55,4.66586696765903,0.0173778637740551,6.71221071190454,-0.841575898764509,-4.42182172543866,-1.48933178925304,-6.08146947650442,-2.96272706146423,1.89940071863769,108.850908130408,2786.83911828368
0.56,4.70089660124509,0.0480776290316833,4.96192622338006,-2.36930366106163,-1.7217305019967,-4.37451533229741,0.443522295666611,-5.48065686371929,2.7768582234931,130.378312950489,2786.83911828368
0.57,4.64325592707231,0.00273825283131057,7.8452349845064,-0.0944490078995442,2.88822854247667,-3.63565248459528,4.95748400960653,-6.08111707433033,-2.46967479372276,153.021284408918,2786.83911828368
0.58,4.65121531328126,0.04298855080148,7.4485889118424,-2.10407484016234,4.4451001071664,1.36994048895249,6.45937541230943,4.26439643953023,-1.26259959416598,175.677341623968,2786.83911828368
0.59,4.61786526163914,0.00658966302185515,9.11741215644689,-0.275681083621321,-0.476262457558766,4.59324472130893,-1.22743149233767,9.03861805930585,0.104745371474061,197.987020770692,2786.83911828368
0.6,4.65076655214819,0.00372801051726473,7.47370911300262,-0.12486226431519,-4.63988134446255,-0.318032278159348,-7.44716401704924,-0.641612495198873,1.64003406831155,220.284481168208,2786.83911828368
0.61,4.62185554396076,0.00952361490028109,8.92067565150693,-0.414921590367128,0.891419378715241,-4.53508664302376,2.1455292797451,-8.66875528062119,-2.94544582213741,243.213093692365,2786.83911828368
0.62,4.63246752197938,0.0343906161501482,8.39156099704275,-1.64772760938944,4.10945871882679,2.13852451352129,6.6435173006118,5.38488441085834,-1.08354577771962,265.211403687504,2786.83911828368
0.63,4.64814758111558,0.044555006761088,7.60900853767454,-2.14707750476874,-3.7370266142393,2.76439743324387,-7.42058790895899,2.72797137508803,0.943484565647691,287.362903667062,2786.83911828368
0.64,4.6292973357426,0.034111234554016,8.55305504362256,-1.62081225327827,-0.0678606237246669,-4.6289256134425,1.55841238414986,-8.56464440479245,3.1343020018386,309.839372114262,2786.83911828368
0.65,4.60474445048714,0.0592274414171106,9.78226599938956,-2.87436470786155,3.32686407762196,3.18420394339582,4.96537503398949,8.90504078196427,-0.794443507443442,332.29018180152,2786.83911828368
0.66,4.60300807827114,0.0657655882886181,9.87068145860978,-3.19619685582354,-4.55935450985907,-0.635841910116093,-9.26895466377529,-4.66181362126345,1.7236479416706,354.6421606956,2786.83911828368
0.67,4.62263463663334,0.0625491727500213,8.89100202885533,-3.02764955156744,4.38747567914779,-1.45695591824207,9.39027168222252,0.198435425935129,-1.87788062084906,376.893190529993,2786.83911828368
0.68,4.59204987611812,0.0368563532267081,10.4219116078454,-1.73344630626961,-3.75958963462843,2.63699947567763,-9.56406218442073,4.48885199031956,0.967153177798679,399.095284734221,2786.83911828368
0.69,4.61665942806496,0.0733000230040397,9.19308066495016,-3.54847685897242,3.36973282248266,-3.15655157936577,9.19265557623286,-3.54957794500955,-2.30766512342905,421.409045319679,2786.83911828368
0.7,4.58936993959238,0.0677898657246518,10.5592836621551,-3.28513762296164,-3.44674244620757,3.03098637704629,-10.1642832950157,4.35636841397963,0.864262619987616,443.985390395136,2786.83911828368
0.71,4.61886966558903,0.0478254377911349,9.08604139031723,-2.27380634011858,4.00149544099949,-2.30743981413573,9.03312457359402,-2.47568250324091,-2.0835115258645,466.184613781223,2786.83911828368
0.72,4.60341931088848,0.0729895893301575,9.86029631391349,-3.51610351885381,-4.5360277960608,0.78819329188681,-10.2872198257611,-1.93946786772578,1.41460545047631,488.189036107081,2786.83911828368
0.73,4.57692704203874,0.0766781527412665,11.1867168914488,-3.71434261840117,4.30503372539223,1.55590016083579,9.13469370633253,7.44958702129091,-1.20723776771874,510.751734639681,2786.83911828368
0.74,4.58243077112888,0.0885217023507663,10.9133786424532,-4.28420024970745,-2.37165822299382,-3.92195679951752,-1.7576350885274,-11.5916747741094,2.61703015150884,532.656367543247,2786.83911828368
0.75,4.56656210392069,0.0553370661771255,11.7087249205829,-2.63521389446468,-1.38684775559591,4.35123027920337,-6.19143604656308,10.2812796487975,0.320663632699439,555.116208674008,2786.83911828368
0.76,4.56020385343056,0.0876183063586904,12.0285731441096,-4.22487254681187,4.40579456979465,-1.17987726532044,12.6910842894662,1.21346589472638,-1.81324635334626,577.015013232547,2786.83911828368
0.77,4.57564952479365,0.0916347619616285,11.258230768072,-4.42870958601635,-2.81651125916792,-3.60724684909759,-3.20489937437256,-11.6657553816537,2.49869776417645,599.250933377223,2786.83911828368
0.78,4.59421005657805,0.0873785380514049,10.3322075394537,-4.22109834070508,-2.85552357333832,3.6000536350149,-9.83017932830998,5.28580724331812,0.689591161637527,621.541936000021,2786.83911828368
0.79,4.536083214314,0.082637554902552,13.2405744896087,-3.98511835690853,3.75649977691006,2.54393186204666,8.53184204034381,10.8812523420821,-0.957315502565859,643.652663533933,2786.83911828368
0.8,4.52039970887147,0.113772940050776,14.0267731462251,-5.52433462456373,2.82363579378737,-3.53186051733302,13.2585593764773,-7.17490356731305,-2.44200817156459,665.663346343213,2786.83911828368
0.81,4.54953725499873,0.0969253300400468,12.5719548061773,-4.66265572084206,-2.7332587514999,-3.63826611885029,-3.54873867932314,-12.9306171471257,2.51859124879739,687.708864384361,2786.83911828368
0.82,4.56691895395407,0.112617689592148,11.7049576020907,-5.44171857016348,-4.44014615358853,1.07449225719268,-12.59014238079,-2.84721764096782,1.35802049841377,709.801259471179,2786.83911828368
0.83,4.53143830141479,0.122957169828459,13.4811723817709,-5.96851005319138,-1.4777750958727,4.28546757205787,-10.3264889302617,10.5227728007048,0.359192826821241,731.904484740501,2786.83911828368
0.84,4.54630419594814,0.105245850387211,12.7400648821334,-5.09243282715461,2.18484517416475,3.98828410422933,1.3390892466845,13.6546316423939,-0.478019134149756,754.041622044796,2786.83911828368
0.85,4.52196896823552,0.091646187534918,13.9590363265272,-4.40302756921,4.17131732083101,1.74834612771896,10.9780310211733,9.6811250295968,-1.15363954129826,776.074052968493,2786.83911828368
0.86,4.55239132586516,0.146137377108383,12.4401283897133,-7.10905171561763,4.51683690979787,-0.586350788426286,13.0701605639016,5.87080177503101,-1.66779866593487,797.980418174293,2786.83911828368
0.87,4.5159664266697,0.0916954532757793,14.2636323318145,-4.36851474204672,1.67824154280001,-4.19355054184156,9.58935907645091,-11.4271309107559,-2.74061551315465,819.941827018257,2786.83911828368
0.88,4.51026956219187,0.116229261914431,14.5508080869936,-5.62212327016507,0.823973056946391,-4.43588876848665,8.5243276176269,-13.0640776450851,-2.93217012759397,842.090387618963,2786.83911828368
0.89,4.52371748071258,0.1498540483195,13.8807470314045,-7.2728115934474,0.657490749082303,-4.47818958910557,9.62669577471275,-12.365098264258,-2.96269932963568,863.882157315696,2786.83911828368
0.9,4.51749211987022,0.117558836334088,14.1943639547344,-5.68100745512333,1.26317271704713,-4.33888808567328,9.73225205284987,-11.7913987195934,-2.83227769996039,886.024495538051,2786.83911828368
0.91,4.46239444113711,0.133892268020676,16.9516557327441,-6.46349399200253,2.41185623071756,-3.75683920471398,14.9136165275188,-10.3305096068029,-2.54087283865428,907.776806145142,2786.83911828368
0.92,4.48968759930459,0.142297169692798,15.5894357170337,-6.90101136199754,3.83043147889763,-2.34634565001026,16.9614128137171,-1.72189986834837,-2.08871189861655,929.833416243033,2786.83911828368
0.93,4.49345045389211,0.14523107071194,15.4037358148523,-7.05528927152359,4.48699174261847,0.281236816859019,14.665833687436,8.48324855294871,-1.47589059120019,951.772518082431,2786.83911828368
0.94,4.46773353688083,0.140699141119647,16.6920404870101,-6.78635800658664,2.9938423066166,3.31923898627293,5.60425030302214,17.1251642081068,-0.702418612457619,973.546488092182,2786.83911828368
0.95,4.49013126975436,0.170859551475509,15.574667798471,-8.2963317321039,-0.864354032421114,4.40946299594335,-11.649782754472,13.2545071208042,0.231602036930229,995.440286512581,2786.83911828368
0.96,4.50170019130725,0.16614549870344,14.9987654707731,-8.06330292808011,-4.32721217585296,1.25225545489131,-16.5058505032561,-4.18768658347315,1.32599145758398,1017.35425742582,2786.83911828368
0.97,4.47321707721834,0.141221484774192,16.4254884135158,-6.8173116383111,-2.49926258434493,-3.71258684237462,-2.96552138114785,-17.5350531945115,2.58065000144024,1039.23688088492,2786.83911828368
