t,iq,id,vq,vd,ia,ib,va,vb,theta_e,omega,r
0,0,0,0,0,0,0,0,0,0,0,0
0.01,0.000622918950257361,0.000350715412396549,-0.0304648312076589,-0.0175525027187175,-0.000454768363251421,-0.000551556937104264,0.0226351422543793,0.0269043979179194,2.96486363631799,-0.00151214443508558,0
0.02,0.000704578822899792,0.000395942554856596,-0.0345602770812377,-0.0198160109151708,-0.000513654794937684,-0.00062398764095353,0.0255837631311867,0.0305378143384464,2.96485228371467,-0.00159878663920529,0
0.03,0.000735889771120868,0.000413885521906154,-0.0361279967176594,-0.0207140243004917,-0.000536830783246575,-0.00065164997555645,0.0267437885451215,0.0319229184725707,2.96484093836606,-0.00155614022464774,0
0.04,0.000717904006024656,0.000404594711759375,-0.0352985082209773,-0.0202490346525444,-0.00052452876620216,-0.000635572667817253,0.0261405125684517,0.0311878452228583,2.96483066321496,-0.00139844067900466,0
0.05,0.000734480210231124,0.000414537184575828,-0.0361442910321253,-0.020746635689723,-0.00053723746343785,-0.00065013703516726,0.0267793963034529,0.0319326885852049,2.96482091586053,-0.0013352724199999,0
0.06,0.000734705736314153,0.00041528969137285,-0.0361937112926096,-0.0207842896198948,-0.000538023817357264,-0.00065022182268038,0.0268254449747374,0.0319744731628807,2.96481181982558,-0.00123715898385118,0
0.07,0.000750979407352092,0.000425233093973745,-0.0370185252831124,-0.0212819343801365,-0.000550679657938083,-0.000664488652130778,0.0274606573050865,0.0326986887423558,2.96480355095442,-0.00118925496755414,0
0.08,0.000734045701957569,0.00041609755061771,-0.036229823541179,-0.020824731059534,-0.000538713479746172,-0.000649421320047478,0.0268721227481454,0.0320024773499723,2.96479570046926,-0.00106056680892571,0
0.09,0.000731760124431815,0.000415402031471663,-0.0361490340730712,-0.0207899219412545,-0.000537631434750056,-0.000647289863838332,0.0268238747780669,0.0319288781611585,2.96478857260997,-0.000977356243658614,0
0.1,0.000730751409312945,0.000415347489951594,-0.0361278049045553,-0.0207871840166335,-0.00053740456430199,-0.000646302942813455,0.0268176548907447,0.0319082856437621,2.96478201525705,-0.000903616231589419,0
0.11,0.00072991246389717,0.000415341751972674,-0.0361126248239495,-0.0207868977988342,-0.000537255251430701,-0.000645474841255879,0.0268148957229734,0.0318932306162385,2.96477597559414,-0.000835929637726006,0
0.12,0.000729147151301357,0.000415339844628718,-0.0360990032946172,-0.0207867978810648,-0.000537122344661799,-0.000644718808204091,0.0268125787408546,0.0318796898711154,2.96477041216072,-0.000773599247577272,0
0.13,0.000762161291488999,0.000434364957031483,-0.0377242632903537,-0.0217389704280642,-0.000561661719114243,-0.000673868580231171,0.0280359718418169,0.0333119672033494,2.96476500053358,-0.000799710535494517,0
0.14,0.000788133907964618,0.000449868094912702,-0.0390944881763093,-0.0225148710832465,-0.000581495394245155,-0.000696706154828301,0.0290409801363383,0.0345241929432623,2.96475997354939,-0.000811902463876806,0
0.15,0.000732043388180503,0.000417957335866083,-0.0363035681784093,-0.0209178090372893,-0.00054021827194529,-0.00064710128684736,0.0269780157620044,0.0320576116226701,2.96475527658026,-0.000616818694282866,0
0.16,0.000726931864415164,0.000415533381266735,-0.0360722278991573,-0.0207964839884704,-0.000536935461133719,-0.000642493764192457,0.0268180123158623,0.0318511159509004,2.96475131253145,-0.000560674264237518,0
0.17,0.000726057880159861,0.000415348376300521,-0.0360451140174614,-0.0207872265193313,-0.000536601913106245,-0.000641664013240908,0.0268042445836272,0.0318259564380848,2.96474769087807,-0.000519133475083626,0
0.18,0.000725568574912734,0.000415333445272525,-0.0360354522074542,-0.0207864933309681,-0.000536503271595639,-0.000641183177594373,0.0268019291455147,0.0318164849547041,2.96474435721865,-0.000481706055817672,0
0.19,0.000725144079061099,0.000415331497046771,-0.03602782327474,-0.0207863887880826,-0.00053642864064089,-0.000640763998158954,0.0268005817645018,0.031808911107573,2.96474128659008,-0.000447298487163117,0
0.2,0.000724755066303265,0.000415330598591783,-0.0360208917344339,-0.0207863495071464,-0.000536361128153557,-0.000640379693982174,0.0267994135767183,0.0318020187900243,2.96473845806893,-0.000415609323691946,0
0.21,0.000724397043650933,0.000415329838842497,-0.0360145208036738,-0.0207862972742485,-0.000536299059600859,-0.000640025992092806,0.0267983241413434,0.0317956865990841,2.96473585255178,-0.00038641902572919,0
0.22,0.000724067169880995,0.000415329143998383,-0.0360086466307751,-0.020786263731264,-0.000536241874175216,-0.00063970009905811,0.0267973339402203,0.0317898456394807,2.96473345245582,-0.000359530151045545,0
0.23,0.000723763116684795,0.000415328504191175,-0.0360032246341619,-0.0207862459467928,-0.000536189163273733,-0.000639399715870113,0.0267964327658329,0.0317844521054663,2.96473124158516,-0.000334761218336135,0
0.24,0.000723483243294546,0.000415327914740267,-0.0359982389172801,-0.0207862123151031,-0.000536140643481482,-0.000639123220120937,0.0267955871887076,0.0317794955083697,2.96472920502106,-0.00031194508690077,0
0.25,0.000723225547020751,0.000415327371665307,-0.0359936502509245,-0.0207861771905128,-0.000536095967587066,-0.000638868633644479,0.0267948048789552,0.03177493433636,2.96472732902139,-0.000290927796208201,0
0.26,0.000730190297310502,0.000419396692859752,-0.0363387878514623,-0.0209898448461517,-0.000541328302402699,-0.000645007849011087,0.0270560743690416,0.0320788080968729,2.96472564824039,-0.000290587077068381,0
0.27,0.00070957616497873,0.00040767986925523,-0.0353455961637562,-0.0204034354073843,-0.000526168374493682,-0.000626775917999854,0.0263041189595402,0.0312042412238625,2.96472390720398,-0.000218729385047185,0
0.28,0.000708689829417204,0.000407221188264781,-0.0352248629275089,-0.020380483366628,-0.000525561818597079,-0.000625983342689002,0.0262603278205885,0.031089391330073,2.96472244003706,-0.000200533287660431,0
0.29,0.00072123952434444,0.000414710214497793,-0.0359231622380736,-0.0207552932815945,-0.000535142919851968,-0.000637018892041445,0.0267521955025264,0.0317108155080024,2.96472118806215,-0.000219194999854641,0
0.3,0.000715078826744948,0.000411481153186391,-0.035627389281269,-0.0205936807902772,-0.000530880741255725,-0.000631522055394984,0.0265410870299363,0.0314480723536477,2.96472041976954,-0.000195029251805924,0
0.31,0.000721526705774276,0.000415033157719817,-0.0359451353870242,-0.0207714660322321,-0.000535512568294459,-0.00063724375112749,0.0267720425647039,0.0317295492567001,2.96471928347448,-0.000199268345333743,0
0.32,0.000721920986307913,0.000415302563569916,-0.0359688646038935,-0.0207849479204383,-0.000535847840631141,-0.000637583893672415,0.0267895239391795,0.0317505068945471,2.96471819357408,-0.000188455627876147,0
0.33,0.000721827296853544,0.000415322751048591,-0.0359685606403459,-0.0207859554542243,-0.000535851870438998,-0.000637487573971831,0.0267904942594484,0.0317500034018533,2.96471718604485,-0.00017728314914676,0
0.34,0.000721703454670062,0.000415324036967832,-0.035966458377293,-0.0207860158302326,-0.000535831937409527,-0.000637364940217072,0.0267902132649039,0.0317478984425929,2.96471625765673,-0.000166891668085229,0
0.35,0.000721586248071714,0.000415323907173428,-0.0359643684718102,-0.0207860048925552,-0.000535811731473384,-0.000637249126866024,0.0267898619169556,0.0317458201569894,2.96471540243943,-0.000157311234867064,0
0.36,0.000721477865407307,0.000415323687801756,-0.0359624212821139,-0.0207860053129847,-0.000535792946836277,-0.000637142051698389,0.0267895447179411,0.0317438821688385,2.96471461464626,-0.00014848545271931,0
0.37,0.000721378237515114,0.000415323478133571,-0.0359606365051597,-0.0207859885075939,-0.000535775672488046,-0.000637043626307776,0.0267892371651487,0.0317421087548302,2.96471388896297,-0.00014035544600196,0
0.38,0.00072128646765697,0.000415323284407925,-0.0359589910020354,-0.0207859716818868,-0.000535759759937429,-0.000636952964219685,0.0267889522802396,0.0317404739783719,2.9647132204933,-0.000132866410463723,0
0.39,0.000721201717302852,0.000415323105901358,-0.0359574628367715,-0.0207859720321862,-0.000535745063829313,-0.000636869237692212,0.0267887032751314,0.0317389530989539,2.96471260472608,-0.000125967815677046,0
0.4,0.000721123859073614,0.000415322941456164,-0.0359560640600862,-0.0207859537130514,-0.000535731563282163,-0.000636792319306908,0.0267884571164171,0.0317375641752171,2.96471203750656,-0.000119613111202076,0
0.41,0.000721051914404873,0.000415322789968061,-0.0359547627059393,-0.0207859540242508,-0.000535719087480432,-0.000636721243907347,0.0267882450190368,0.031736269074022,2.96471151500705,-0.000113759416350892,0
0.42,0.00072098567408689,0.00041532265041664,-0.0359535639444478,-0.0207859543171345,-0.000535707600870275,-0.000636655803835513,0.0267880496472578,0.0317350760717152,2.96471103370181,-0.000108367231155236,0
0.43,0.000720924870703964,0.000415322521862264,-0.0359524688171463,-0.0207859374049848,-0.000535697057555663,-0.000636595734270787,0.0267878543691529,0.0317339891307236,2.96471059034306,-0.000103400169850583,0
0.44,0.0007208687003113,0.000415322403438459,-0.0359514503778049,-0.0207859376668666,-0.000535687317138594,-0.00063654024235963,0.0267876883810719,0.0317329755956988,2.96471018193905,-9.88247153525968e-05,0
0.45,0.000720816895493195,0.000415322294347256,-0.0359505074765159,-0.0207859379146263,-0.000535678333544018,-0.000636489063520985,0.0267875346483512,0.0317320372852596,2.96470980573397,-9.46099930902366e-05,0
0.46,0.000720769421664432,0.000415322193853578,-0.035949649648805,-0.0207859209645374,-0.000535670101588058,-0.000636442162477053,0.0267873780140013,0.0317311865418049,2.96470945918928,-9.07275626665152e-05,0
0.47,0.00072072547487864,0.00041532210127994,-0.0359488470282421,-0.0207859197327205,-0.000535662480636169,-0.000636398746690572,0.0267872456995423,0.0317303881102548,2.96470913996646,-8.71512259448844e-05,0
0.48,0.000720685020554391,0.000415322016002478,-0.0359481074713007,-0.0207859199447258,-0.000535655465366882,-0.000636358781074352,0.0267871251041649,0.0317296521785309,2.96470884591134,-8.38568502698877e-05,0
0.49,0.000720647709443824,0.000415321937446412,-0.0359474222928084,-0.0207859201464833,-0.000535648995028221,-0.000636321920867204,0.0267870133312812,0.0317289703996717,2.9647085750398,-8.08222056241096e-05,0
0.5,0.000720613623376872,0.000415321865082028,-0.0359468037011389,-0.0207859031575449,-0.00053564308466596,-0.000636288245735448,0.0267868956748283,0.0317283577657104,2.96470832552394,-7.80268146197949e-05,0
0.51,4.65800837973736,-0.014283476909276,7.10056211643809,0.722590150442155,-0.428426026679931,4.63828602212922,0.0883319361524099,7.1366880528693,0.0890395428875748,27.5246142871848,574.513755168589
0.52,4.46489646593848,0.00582803165791346,6.6584108913231,-0.275395133922908,-1.74875486338436,4.10818583383134,-2.86912756729623,6.01484705375451,0.403748128419409,58.1493995116305,574.513755168589
0.53,4.22869698146003,-0.014390771424166,7.10409438297406,0.745007712596647,-3.42595475623129,2.47889476653762,-5.30249261863952,4.7861012863609,0.941027450703942,88.5472461463545,574.513755168589
0.54,4.00311672428721,0.0109419125346146,6.55558096042469,-0.523719730340482,-3.96872493479492,-0.523722851950266,-6.42693118760572,-1.39444598117372,1.70473406785311,119.506700404903,574.513755168589
0.55,3.7752250927811,0.00772530325403853,7.77626397577903,-0.354152530996514,-1.68493093049263,-3.37837119644122,-3.13914508522029,-7.12330496119232,2.68099937257451,146.195587420108,574.513755168589
0.56,3.56465069634371,-0.0391763360290499,8.63501144853531,1.99990739516818,2.33872625896628,-2.69047000687054,4.06933377828303,-7.87423487752994,-2.43701092155983,172.136837388136,574.513755168589
0.57,3.44381091286406,0.00900813507326093,5.08633709657757,-0.411991845515673,3.04265711965776,1.61311884319012,4.29365791500068,2.75772805942583,-1.08069101152536,196.968766703201,574.513755168589
0.58,3.1898522865247,0.0331032578318435,8.96669773988391,-1.6235903533794,-1.35070509964634,2.88995660336195,-5.34438429041868,7.38073645040601,0.447589270741217,220.489063631504,574.513755168589
0.59,3.03597811457204,-0.013055789895277,8.35875283076022,0.70180399270281,-2.54192060848788,-1.66011240160262,-7.39924517064807,-3.95125912014852,2.14504299465807,242.086502866393,574.513755168589
0.6,2.86732094066796,-0.0178201771611004,8.57687564204976,0.932818148825219,2.18150839025567,-1.86087830842082,5.88081128501751,-6.31260676012492,-2.28325801659883,263.507853867344,574.513755168589
0.61,2.71388553570127,-0.0184667521540777,8.65405665244911,0.959254094831892,0.730943826614259,2.61366349099462,3.30946909383958,8.05358797550328,-0.279500207467919,283.510159837923,574.513755168589
0.62,2.62767010286435,0.036684689980067,5.92392895900047,-1.79599843588354,-2.52464691822094,-0.729488775981921,-5.14501402251268,-3.44200165617746,1.86604203721282,302.074880892325,574.513755168589
0.63,2.42362998786524,0.0521472371836833,9.32960440424775,-2.55586707774936,2.01726082544246,-1.34438105258917,9.24434256799512,-2.84887790971033,-2.13712836622775,319.68801169632,574.513755168589
0.64,2.33607477537574,0.0648930802179651,7.21940115408442,-3.19320674270352,-0.560150479402475,2.26885167175648,-5.00205194446883,6.1070286285622,0.269818388834567,336.499824787785,574.513755168589
0.65,2.16794147873347,0.019451936964985,9.45944400357124,-0.920295067120416,-0.750772105802857,-2.03388541422891,-2.32980434149648,-9.21412153151944,2.79694876351143,352.483849374764,574.513755168589
0.66,2.08217479676182,0.0452764701197804,7.91521067810553,-2.21228523141381,1.58794043499144,1.34757078401686,4.45445836688983,6.9067044733051,-0.845357922001297,367.596088830193,574.513755168589
0.67,1.97493085966892,0.025791460310304,7.75122724464587,-1.23662338842108,-1.87530529124605,-0.619876733328603,-6.92378563389722,-3.69756050643784,1.90309586445018,381.904078060606,574.513755168589
0.68,1.81790698639583,0.0175944653769209,10.3499812002,-0.828463854829013,1.81709213720105,0.057197389108158,10.3071439136648,1.25349413490992,-1.52965117091721,395.498611661472,574.513755168589
0.69,1.73986704212286,0.00818360078105163,9.24813197260047,-0.383774228327531,-1.71816500117646,0.274068101608668,-9.19809549055368,1.03453708856644,1.41732036921465,408.405376875474,574.513755168589
0.7,1.63054091892608,-0.0200376306080906,9.9202863442833,1.02772237590656,1.58222586887161,-0.39449524053677,9.33452671257776,-3.51210841044023,-1.82743195501435,420.602839278543,574.513755168589
0.71,1.5699328383896,0.0070390626160016,8.45890680601168,-0.320107792061664,-1.50978038469052,0.430467020177271,-8.23142665200347,1.97463632702738,1.29753078657515,432.023564488502,574.513755168589
0.72,1.47104591603384,0.00775826114889983,9.17892969361319,-0.345364087995335,1.43772075345322,-0.311440705088131,9.05232499026392,-1.55802405123093,-1.77884755361782,442.792004903778,574.513755168589
0.73,1.41582132029242,0.00255836412750132,7.95015042905077,-0.0790262316492127,-1.4126039518655,0.0954286717687862,-7.93821057257649,0.442662281270612,1.50515064385806,453.042851438609,574.513755168589
0.74,1.31704599807657,0.0376604203186602,9.01770646965941,-1.86739592660246,1.30788030528657,0.159616964485601,8.63729534798475,3.19426464014953,-1.42076757456192,462.856310404673,574.513755168589
0.75,1.25566266865028,0.0449430240023341,8.47126019746009,-2.21853746873326,-1.15782896117753,-0.487996628581568,-6.7493222933684,-5.57949876005768,2.00545497503288,471.913651186885,574.513755168589
0.76,1.20283052813061,0.0355370355760632,7.70856540982987,-1.73316624056271,0.876490946032501,0.824516695903453,4.23198324471422,6.67204344346692,-0.786407721622783,480.532627837535,574.513755168589
0.77,1.12315048002265,-0.0208106445977952,8.37722510711153,1.05452937291377,-0.391674348819231,-1.05284912887874,-4.04719963804425,-7.41013547672188,2.76691594312146,488.876466340562,574.513755168589
0.78,1.04358276982323,0.0189272901994639,9.25369792060381,-0.916283767580823,-0.0809490640540086,1.04061063266478,-1.79694353610349,9.12367771661052,0.095768470398412,496.553255665341,574.513755168589
0.79,0.92890471646861,0.0136995916722138,12.1080812991744,-0.654364884245101,0.529269904029548,-0.763495265065977,7.5763931633621,-9.46742271071225,-2.52068474035692,503.797674350345,574.513755168589
0.8,0.922542069078059,0.0513082592668138,9.62414271825747,-2.55125862190234,-0.84041097555437,0.383960673579428,-9.89208164976042,1.13126665808401,1.19780087237772,510.695809705568,574.513755168589
0.81,0.899900852848673,0.0423423783490074,8.14402450614664,-2.0797459376038,0.88186036656979,0.184219205935254,7.36437057707711,4.05173102823688,-1.3178418589141,517.165120470122,574.513755168589
0.82,0.839632746881257,-0.0167006496857364,8.61402803258166,0.844716247552295,-0.491608059692826,-0.680869721004206,-5.85532229429328,-6.37418428623879,2.4963464483161,523.416636069608,574.513755168589
0.83,0.753305083299207,0.0442996015043777,10.5654552530683,-2.18295010167584,-0.00950918715594198,0.754546604642487,-2.93051022966533,10.3829776868113,0.07134118721409,529.181916739059,574.513755168589
0.84,0.728099579074986,0.0152868604538913,9.55883020059505,-0.761273487757651,0.526634400730659,-0.503009834017953,7.5635841806255,-5.89431645482004,-2.31226163904601,534.720357510852,574.513755168589
0.85,0.677675769858545,-0.0207823664710822,9.96344844782764,1.07260018172761,-0.675479106918184,-0.0583466530875753,-10.0076097026968,0.518193169436487,1.62630311633334,539.822426718436,574.513755168589
0.86,0.657519527266947,0.0390293800877724,8.92616550535965,-1.95060673237546,0.44446038966395,0.486117458303191,4.10719286269248,8.16163366257693,-0.681374353084493,544.767528196819,574.513755168589
0.87,0.618325274329458,0.0139542827419392,8.98107638878202,-0.666103357702203,0.101327644031867,-0.610125868519269,2.325386549144,-8.70034506105018,-2.95445409015866,549.309274156837,574.513755168589
0.88,0.586844915748981,0.0271535283686467,8.71455396265095,-1.35386607155281,-0.50728292478305,0.296290910199503,-8.3481814769363,2.84328509576422,1.08840661070143,553.688121409302,574.513755168589
0.89,0.543897496238788,0.00391955963787274,9.15895531310683,-0.166023701911795,0.491531605060126,0.232887377480175,8.1762847295037,4.13066511825504,-1.12112172537638,557.732490167744,574.513755168589
0.9,0.545039532436174,-0.00860218379941795,7.44997011367968,0.443488113281615,-0.0176996292558972,0.544819981836722,0.319059873357921,7.45633537326181,0.0166943244479377,561.580896818194,574.513755168589
0.91,0.438281349228428,-0.00913556383500802,11.2327906262284,0.447725473816762,0.374923596169407,-0.227170193122852,9.24356081494975,-6.39786111234955,-2.13639159400158,565.227789044671,574.513755168589
0.92,0.510082212263222,0.00267547409351876,6.18132831657626,-0.110448299063091,-0.460782327146156,-0.218793666313129,-5.52193977316066,-2.78014383182955,2.0193517809396,568.599930332227,574.513755168589
0.93,0.418344652800005,0.00826997412895349,9.36572067385332,-0.420390643454364,0.0432963341598823,0.416180331643347,0.365894173340268,9.36800797862935,-0.0838939869417253,571.814624004823,574.513755168589
0.94,0.401640256279338,-0.00541577039855407,8.88877005418965,0.297695914160165,0.335954966367876,-0.220178306392573,7.20150867169226,-5.218920270047,-2.16442793633766,574.799310368984,574.513755168589
0.95,0.333660722660778,-0.01368274565772,11.0243546675791,0.690200081219642,-0.288165377121388,-0.168752513473829,-10.0575265568195,-4.56715792890492,2.05958271491252,577.632051921816,574.513755168589
0.96,0.320584497597175,0.0331901240283527,10.4965254286334,-1.67546981316086,0.0266148534298447,0.321197219803594,-1.89017643922774,10.4599941776919,0.02048995903963,580.309951987244,574.513755168589
0.97,0.332491671803086,0.0173765976746872,8.76123080995457,-0.847996876271945,0.295170509750348,-0.154035801484195,8.32072185116986,-2.87121087399179,-1.99955935155421,582.813997703504,574.513755168589
