t,iq,id,vq,vd,ia,ib,va,vb,theta_e,omega,r
0,0,0,0,0,0,0,0,0,0,0,0
0.01,0.00139031802508384,0.000781407691786885,-0.0687326239788843,-0.0391190167977421,0.000639054831249149,0.00146122931612867,-0.0320791419567044,-0.0722869263806833,0.0997597205568349,-0.00298657091972975,0
0.02,0.00153986009577502,0.000866319464800366,-0.0762744288501321,-0.0433698809920559,0.00070868609335404,0.00161846919981161,-0.0355594950546316,-0.0802138229056475,0.0997379699215956,-0.00304012253410243,0
0.03,0.00159648112900289,0.00089944112591546,-0.0791244997934804,-0.0450280340610041,0.00073604069980261,0.00167809130338146,-0.0369273767110081,-0.0832140563138868,0.0997168394160284,-0.0028868886093912,0
0.04,0.0015586898948505,0.00088049619970717,-0.0773224974036324,-0.0440796091850784,0.000720982446961766,0.00163858843434856,-0.0361645634922046,-0.0813259177511222,0.0996982978634602,-0.00254990800757498,0
0.05,0.0015909866214552,0.000899961878013141,-0.0789646495498657,-0.0450541046335746,0.00073716599914363,0.00167264942568159,-0.03697221775144,-0.0830562660935724,0.0996808807309985,-0.00239032359493316,0
0.06,0.00158957019275629,0.000900697387697208,-0.0789437949899738,-0.0450909148681202,0.000738065391175987,0.00167130148694126,-0.0370122410611513,-0.083038589720047,0.0996649792391931,-0.0021730806163375,0
0.07,0.00163004374824722,0.000925074599236361,-0.0809781452407677,-0.046311302571019,0.000758318794580144,0.00171398898512758,-0.0380253615603457,-0.0851837345428359,0.0996508112923745,-0.00207614719759064,0
0.08,0.00158643281532517,0.000901642049995741,-0.0788734599801135,-0.0451381929609693,0.000739363200474659,0.00166825343447719,-0.0370685541015354,-0.0829722932661127,0.0996376061188657,-0.0017974955200762,0
0.09,0.00158253668540363,0.00090073770643872,-0.0787178200984977,-0.0450929224996317,0.000738870425283899,0.0016642780029459,-0.0370399615998887,-0.0828124876168806,0.099625874925389,-0.00163062527173267,0
0.1,0.0015805195837101,0.000900696573150776,-0.0786510983523838,-0.045090869803457,0.000739047719227792,0.00166225898706576,-0.0370454314138592,-0.082745500318928,0.0996152869439603,-0.00148348801695853,0
0.11,0.0015787609616648,0.000900689115209114,-0.0785939439773654,-0.0450905047822578,0.000739231074262257,0.00166050127226028,-0.0370515430167077,-0.082688238652889,0.0996057236149267,-0.00135073698512556,0
0.12,0.00157717579851089,0.000900683512945006,-0.0785424809140111,-0.0450902038135125,0.000739397460122507,0.00165891702199471,-0.0370570749120789,-0.0826366806390024,0.0995970854748595,-0.00123083494823092,0
0.13,0.00165219214550107,0.000943636513010649,-0.0822584115846668,-0.047240538347667,0.000774693198405375,0.00173782599896732,-0.0388279990239467,-0.0865476818384307,0.0995886476717721,-0.00129097748171422,0
0.14,0.00172889152870327,0.000989121038988044,-0.0861815818573671,-0.0495176187545404,0.000812340390808694,0.00181866144107459,-0.0407044273534709,-0.090677501136633,0.0995810577544787,-0.00136642580893458,0
0.15,0.00157949579420893,0.000904055046788001,-0.0787272359995847,-0.0452590226756549,0.000742559847377289,0.00166154366918525,-0.0372085931917292,-0.0828364497934463,0.0995740680335828,-0.0009264934395695,0
0.16,0.00157219889809886,0.000900794744490595,-0.0783855023563143,-0.045095801145263,0.000740050349852933,0.00165395466279088,-0.0370806142300203,-0.0824799751994948,0.0995684610952218,-0.000834154609599798,0
0.17,0.00157100987599078,0.00090066681511639,-0.0783424574533766,-0.0450893708404869,0.000740049568663915,0.00165275508719012,-0.0370789096453842,-0.0824363176162941,0.0995634264843037,-0.000763657535280245,0
0.18,0.00157016432497301,0.000900659112546649,-0.0783148079604209,-0.0450889833620633,0.000740133461242141,0.00165190959316211,-0.0370816470718342,-0.082408597955201,0.0995588801964563,-0.000700526761014159,0
0.19,0.00156940984676392,0.000900656283729017,-0.0782902869686271,-0.0450888600384795,0.000740212417750722,0.00165115553027198,-0.037084299914008,-0.0823840338481158,0.0995547737786456,-0.000643526491406288,0
0.2,0.00156872894305568,0.000900653886135862,-0.078268165116598,-0.0450887481220393,0.000740283829194139,0.00165047501393565,-0.0370866927446057,-0.082361872849025,0.0995510646254779,-0.000592041510614212,0
0.21,0.00156811416324675,0.000900651726106734,-0.0782481939972186,-0.0450886359915275,0.00074034830837375,0.00164986058289851,-0.0370888419052042,-0.0823418652055781,0.0995477143030187,-0.000545537322752448,0
0.22,0.00156755875524847,0.000900649774918963,-0.0782301477717207,-0.0450885236651332,0.000740406556312111,0.00164930549007385,-0.0370907727587243,-0.0823237849157047,0.0995446880968064,-0.000503532037264264,0
0.23,0.00156705705034822,0.000900648012210731,-0.078213843987579,-0.045088448516841,0.000740459168866429,0.00164880406967803,-0.0370925432415788,-0.0823074529847739,0.0995419546517252,-0.000465590420487777,0
0.24,0.00156660377422585,0.00090064641979377,-0.0781991101558713,-0.0450883760903164,0.000740506699639568,0.00164835105080651,-0.0370941385684529,-0.0822926933056412,0.099539485645151,-0.000431319345640872,0
0.25,0.00156619438667253,0.00090064498123687,-0.0781858015815701,-0.0450883005803591,0.00074054962633023,0.00164794189521775,-0.0370955694698279,-0.082279360376018,0.0995372554948912,-0.000400363717786272,0
0.26,0.0015821796305128,0.000909771738703296,-0.0789780691201018,-0.0455451940968858,0.000748045944920323,0.0016647535145003,-0.0374716331293741,-0.0831130363894869,0.0995353107967756,-0.000411205045662141,0
0.27,0.00152895809125327,0.000879672039037646,-0.0763664951614665,-0.0440383278432772,0.000723387265454063,0.00160880284847224,-0.0362319078743893,-0.0803645740003642,0.0995332219145748,-0.000259878666702726,0
0.28,0.00152332296138918,0.000876209463694462,-0.0759753865114508,-0.0438649997628232,0.000720504448981207,0.00160285033860355,-0.036098434627454,-0.0799581176442033,0.0995315596233972,-0.000224465516321547,0
0.29,0.00156314713962669,0.000899705080330443,-0.0780572019931118,-0.0450412467545914,0.00073992863911291,0.00164481118087032,-0.0370620995880928,-0.0821464635046679,0.0995302957883089,-0.000299661235943993,0
0.3,0.001554341563709,0.000895127270100177,-0.0776252661983086,-0.0448120467069348,0.000736249103908477,0.00163559401544035,-0.0368769857788038,-0.0816938761615134,0.0995299020939417,-0.000273976559539207,0
0.31,0.00156417078160866,0.000900428355611246,-0.0781125936299834,-0.0450774341143302,0.000740549329755498,0.00164590040641155,-0.0370927391659749,-0.0822051157234126,0.0995286491842451,-0.000279874402006666,0
0.32,0.00156437984868207,0.000900630585379396,-0.078126480456234,-0.0450875582637057,0.000740731726803147,0.00164612765944522,-0.0371015303496644,-0.0822198960372385,0.0995274694957254,-0.000264485274943758,0
0.33,0.00156420204764565,0.000900637668110789,-0.0781209931272276,-0.0450879119344853,0.000740758198577487,0.00164595065124053,-0.0371025152806291,-0.0822144313952662,0.0995264019017161,-0.000249708223770794,0
0.34,0.00156402544562744,0.000900637343139544,-0.0781152474141329,-0.0450879245677354,0.000740777009957739,0.00164577417647308,-0.0371031780398706,-0.0822086795888284,0.099525437502926,-0.000236323630975299,0
0.35,0.0015638656881636,0.000900636792196597,-0.0781100441000773,-0.0450878881900269,0.000740793768939184,0.00164561450952964,-0.0371037304576038,-0.0822034660880055,0.0995245663984188,-0.000224232318388839,0
0.36,0.00156372153035246,0.000900636284675112,-0.0781053494375458,-0.045087851738693,0.000740808882208883,0.00164547043176158,-0.0371042253266028,-0.0821987618403354,0.0995237795660726,-0.000213310675321093,0
0.37,0.00156359067953144,0.000900635825854881,-0.0781010750147921,-0.0450878525011716,0.00074082259630348,0.00164533965634366,-0.0371047092067562,-0.0821944822741506,0.0995230688534368,-0.000203445609410358,0
0.38,0.0015634730644071,0.000900635411391767,-0.0780972409667944,-0.0450878130104411,0.000740834926157455,0.0016452221064539,-0.0371051036209234,-0.0821906394546884,0.0995224268965063,-0.000194534908121236,0
0.39,0.00156336642797289,0.000900635037010942,-0.0780937558892291,-0.0450878136491858,0.00074084610276002,0.00164511553090648,-0.0371054981840493,-0.0821871501699853,0.0995218470438293,-0.000186486244568507,0
0.4,0.00156327058251935,0.000900634698837309,-0.0780906297200081,-0.045087776962402,0.000740856150827976,0.00164501973808843,-0.0371058153320259,-0.0821840163901979,0.099521323287219,-0.000179216223631391,0
0.41,0.0015631835038591,0.000900634393371155,-0.0780877787141088,-0.0450877775007793,0.000740865276954947,0.00164493270946343,-0.0371061380143366,-0.082181161990595,0.0995208501999893,-0.000172649517979967,0
0.42,0.00156310535353404,0.000900634117449198,-0.0780852267633045,-0.0450877407270775,0.000740873470031692,0.00164485460183065,-0.0371063900924223,-0.0821786031571347,0.0995204228802055,-0.000166718087595062,0
0.43,0.00156303434018197,0.000900633868214715,-0.0780828985511866,-0.0450877382722351,0.000740880912502719,0.00164478362912957,-0.0371066506904978,-0.0821762718988508,0.0995200369001279,-0.000161360474770219,0
0.44,0.00156297031175532,0.000900633643086913,-0.0780807993348634,-0.0450877386908485,0.000740887623501328,0.00164471963684729,-0.0371068883256091,-0.0821741701741868,0.0995196882605739,-0.000156521167331443,0
0.45,0.00156291276694173,0.000900633439734486,-0.0780789156990633,-0.0450877018145201,0.000740893656471226,0.00164466212324542,-0.0371070646582942,-0.0821722805093158,0.0995193733492185,-0.00015215002345567,0
0.46,0.0015628603800472,0.00090063325605168,-0.0780771918621389,-0.045087702172825,0.000740899146409512,0.00164460976656385,-0.0371072596600516,-0.0821705546824659,0.0995190889030845,-0.000148201752134176,0
0.47,0.00156281311542681,0.000900633090136282,-0.078075635512962,-0.0450877025039385,0.000740904099821055,0.00164456252896229,-0.0371074357319727,-0.0821689965329629,0.0995188319748745,-0.000144635443893094,0
0.48,0.00156277050741926,0.000900632940269637,-0.078074231977259,-0.0450877028103289,0.000740908565646698,0.00164451994494124,-0.0371075945534521,-0.0821675913606332,0.0995185999026204,-0.000141414146917099,0
0.49,0.00156273185753263,0.000900632804900103,-0.0780729540333566,-0.045087703095708,0.000740912615701764,0.00164448131752951,-0.0371077390305813,-0.0821663119896445,0.0995183902814444,-0.000138504484174727,0
0.5,0.00156269759578293,0.000900632682625299,-0.0780718302101737,-0.0450876661021467,0.0007409162094437,0.0016444470728674,-0.0371078294339374,-0.0821651830254559,0.0995182009394147,-0.00013587630759647,0
0.51,4.71598980880311,-0.025526452259152,4.20168286719345,1.28719681738551,-0.509880920928342,4.68841475586077,0.848733123248267,4.31168953528145,0.102914945239101,31.5630451700039,5536.43804347503
0.52,4.63124054371695,0.0286847848417692,8.44035268961518,-1.41538560789705,-2.05073088493552,4.15255519267603,-5.0493099761132,6.90994491361979,0.464907550099447,67.3089190771057,5536.43804347503
0.53,4.67391727183206,-0.0497551487459273,6.30787631196287,2.52505876845113,-4.17631021780325,2.09914535071512,-4.44757818404257,5.13656243493475,1.09440080477185,105.077815749881,5536.43804347503
0.54,4.65558421724504,-0.0390791699895088,7.22608929472774,1.99191630993357,-4.19575571605115,-2.01782693921264,-7.38641226931291,-1.27475914152515,2.01067070656011,144.114261566348,5536.43804347503
0.55,4.52890920842202,0.0204999379879132,13.561372569107,-0.970693883328473,0.232570204634134,-4.52298020839178,1.72687534488252,-13.4859546979995,-3.08569178564567,179.772613964263,5536.43804347503
0.56,4.56434316954142,0.00415212344542915,11.7914750396166,-0.154661713255726,4.55707949361526,-0.257434066004844,11.7818880009713,-0.499918981452714,-1.62631768222734,218.129671809427,5536.43804347503
0.57,4.52149525642597,0.0747128736207698,13.9357084039252,-3.6743032038541,-0.392601072160656,4.50503782065207,-5.09373778923509,13.4817768891049,0.103449930475656,254.686977873986,5536.43804347503
0.58,4.60223478595909,-0.027499525624451,9.90061032491472,1.46857201259675,-3.94277420864887,-2.37399511132916,-9.26214720909212,-3.79360219831988,2.106792779292,291.217182666804,5536.43804347503
0.59,4.51174937123793,0.0209708041317997,14.4269090519313,-0.952090732956436,4.25910700402151,-1.48873425828342,13.9508594741667,-3.79680148131708,-1.90241453309745,328.244092274555,5536.43804347503
0.6,4.47542532593278,0.0668984635106709,16.2451924994149,-3.24141904781928,-2.62424143189811,3.62591563050355,-12.3173634930002,11.0768060995901,0.641432496686982,365.141115500395,5536.43804347503
0.61,4.54539460721204,0.14613562812932,12.7488473893506,-7.19179972424098,1.26276951801309,-4.36891072253234,10.772952615037,-9.90951991696433,-2.82808611147099,401.947418689871,5536.43804347503
0.62,4.53659889294401,0.0987759739047548,13.1910818825233,-4.83028023299289,-1.04735020011982,4.41514934818638,-7.99780215821469,11.5486539907789,0.254681956400301,438.862135804426,5536.43804347503
0.63,4.4312660670724,0.0612489834027632,18.4601798605985,-2.9567447508939,1.929891821989,-3.98940947391655,10.911471111178,-15.1809215200367,-2.67720518076407,475.651531008565,5536.43804347503
0.64,4.48098562683974,0.0202185514863618,15.9767424697259,-0.85869556327281,-3.61071842598405,2.65374328563028,-13.4216823424316,8.70931117328959,0.941500815779958,511.6479238354,5536.43804347503
0.65,4.35541951105862,0.0706344882540801,22.2577301435196,-3.4164148977804,4.33468070272793,0.430362119196344,21.7176474597219,5.95165781196718,-1.45562097838948,548.523986537272,5536.43804347503
0.66,4.39186729990277,0.134799105759396,20.4380452122194,-6.57266594925291,-2.01122378113219,-3.90661593723738,-2.85992367253608,-21.2775578101544,2.6968387179083,584.481162154686,5536.43804347503
0.67,4.4411244800829,-0.00056369734879147,17.9779609409872,0.203503400502359,-3.28515635122494,2.9885338735495,-13.1600297942911,12.249984042563,0.832516436287722,620.806354077492,5536.43804347503
0.68,4.44879712403966,0.0268493587044518,17.597189343497,-1.17667946165939,3.1035975890349,3.18750666575979,11.3517246765034,13.4975551199186,-0.766026098113783,657.213783101529,5536.43804347503
0.69,4.36542245712038,0.0178494423146724,21.7688771976657,-0.727224489635135,3.76093395398232,-2.2164403049721,19.1660397885905,-10.3477431707374,-2.09924629012567,693.433024101156,5536.43804347503
0.7,4.42019096522814,0.0216774077750517,19.03343312479,-0.901959762967568,-0.135613092614584,-4.41816332520696,0.411019620399675,-19.0503588103089,3.1158119775777,729.521643583166,5536.43804347503
0.71,4.32800209333102,0.181399319949743,23.6459861535581,-8.87390909503997,-3.31455901863798,-2.78894358944772,-11.4471562537078,-22.5131414401565,2.31217784714667,765.417727274628,5536.43804347503
0.72,4.36291092470733,0.11134871319219,21.903701481614,-5.33653200754015,-4.29686897561771,-0.764399947170404,-20.3917997558149,-9.61380336713354,1.77236760228089,801.383100770758,5536.43804347503
0.73,4.26636784837105,0.0360980239367512,26.7340979277687,-1.63396737109527,-4.25189608988375,0.352955132811015,-26.7816097918723,0.356676796580013,1.49643584839091,837.605956219567,5536.43804347503
0.74,4.29980959683451,0.0388542156660464,25.0652876260604,-1.70059812119867,-4.28012060906941,0.412843542912388,-25.1181938499595,0.486842338769342,1.48367376763886,873.210335964361,5536.43804347503
0.75,4.23625024395738,0.11458378996017,28.2465921960794,-5.54818096036109,-4.19863610454394,-0.574804693761889,-26.9708331120883,-10.061135318661,1.73389504900991,909.3393500172,5536.43804347503
0.76,4.18248406686462,0.129166424992015,30.9382480338809,-6.19924877214053,-3.34325186113912,-2.51645066073457,-20.2532838602534,-24.1952551055123,2.2468932237537,944.968687233614,5536.43804347503
0.77,4.20052780377797,0.110070264551838,30.0395704428065,-5.24203544830932,-0.609701199988365,-4.15750090080363,1.62604787800575,-30.4501345863709,3.02217763694793,980.629106026557,5536.43804347503
0.78,4.22606466492623,0.242930438390803,28.7662157294001,-11.9014645345688,3.20877723900938,-2.7608669617441,30.0782899215581,-8.02723494440542,-2.22388284690628,1016.42798090161,5536.43804347503
0.79,4.29643244249179,0.111891722633774,25.2514619055001,-5.33167575338527,3.73060545013778,2.13411210246609,18.8176052912114,17.6624127969066,-1.02514093529049,1052.055517782,5536.43804347503
0.8,4.19010492730713,0.192030753054371,30.5715442772499,-9.32785818655094,-1.96777767936414,3.70428213241896,-23.5918166746051,21.5651210021201,0.534105757474768,1087.56426989967,5536.43804347503
0.81,4.18474408637647,0.162495255551269,30.8433328183937,-7.81929612064074,-3.08037290697552,-2.83721527743502,-16.3421051119868,-27.3017979568607,2.35393782293345,1123.05572796693,5536.43804347503
0.82,4.12083652322299,0.167541735677663,34.0425178722496,-8.16989886072826,3.9161095242532,-1.29361898500903,34.9769705781284,-1.50059976466269,-1.84920903884831,1158.73305069316,5536.43804347503
0.83,4.15056192853552,0.236094879871224,32.5601141981908,-11.5392683018966,-1.74760344102806,3.77210648415667,-25.5208857668019,23.280896443656,0.490677450768072,1194.06533728484,5536.43804347503
0.84,4.05578757156557,0.149875266790233,37.3027193340627,-7.21247993104627,-0.358133527546552,-4.04272380922915,5.2856896854516,-37.624117544744,3.09017274131726,1229.46387344018,5536.43804347503
0.85,4.16238650803185,0.191966971923773,31.9767105630183,-9.2954826029511,1.54617341517238,3.86932300677642,1.70337581874901,33.2567966898935,-0.334072914272706,1264.80042979312,5536.43804347503
0.86,4.16646381608741,0.0385558084070126,31.776877245201,-1.67093318089993,-1.49557320166683,-3.88898033931564,-9.56597637970521,-30.3488721545715,2.78371461764982,1300.22952069878,5536.43804347503
0.87,4.1902475934277,0.206096197390352,30.5917503210741,-10.0623429508698,0.718489893118112,4.133330716298,-6.23417274588597,31.5949525010295,-0.122963441331879,1335.45735432622,5536.43804347503
0.88,4.00922295043664,0.138408746871612,39.6471002994418,-6.57667747990694,1.32262432706936,-3.78730650158695,20.485689752951,-34.5757395318531,-2.77109902137011,1370.59860532432,5536.43804347503
0.89,4.06355593429811,0.220009582068098,36.9345751227643,-10.645530950184,-3.56556392695826,1.96154146786274,-37.8954481984239,6.43623916204295,1.12193880559524,1405.81292886433,5536.43804347503
0.9,3.96633524831408,0.123881960118588,41.7997994818063,-5.94656095679566,3.42539923151287,2.00344756527656,32.2440766045635,27.2562717159032,-1.01034544640921,1441.02721825149,5536.43804347503
0.91,4.06088428280789,0.165082580297749,37.0765726444169,-7.9845504051963,0.47089702201617,-4.03686628603552,13.674777302841,-35.375496462206,-2.98483879924387,1476.17290829665,5536.43804347503
0.92,4.09543872872429,0.114089870684261,35.3531318615088,-5.34959905908553,-4.08319472463327,-0.33638626615042,-34.5517488897985,-9.19993430229296,1.68084439788498,1511.12526788515,5536.43804347503
0.93,4.00736887810057,0.266824184760344,39.7609393907586,-12.9634026348001,-1.00815182789993,3.88765100833962,-24.8201126664922,33.6592352309163,0.320217747291598,1546.15390332866,5536.43804347503
0.94,3.98323277586529,0.211150571410629,40.9720212875053,-10.2305247269756,2.96126514164417,2.67238408007114,21.6749478313654,36.243162128609,-0.783670797057112,1581.19562341726,5536.43804347503
0.95,3.9332172063261,0.0596279778207389,43.4770978579214,-2.70542431239372,3.92239080581267,-0.297663323832389,43.5611378181994,0.0680502843879349,-1.63138044285953,1616.15753056919,5536.43804347503
0.96,4.07037385342795,0.29894428806818,36.623556431983,-14.5277847177784,3.0533668275136,-2.70818426453556,37.9235374356425,-10.6839469719849,-2.22304231075024,1650.92979511247,5536.43804347503
0.97,4.06808909586697,0.209775417880698,36.742058311905,-10.0989840886428,2.06235660021991,-3.5128392891489,28.6431950132475,-25.1303742123185,-2.55919863611797,1685.84239190701,5536.43804347503
0.98,3.92311325135649,0.178443216643431,43.9951739946347,-8.56638643922224,1.72925499250036,-3.52595189068818,28.659128656847,-34.4617564275904,-2.64017141485991,1720.64407104499,5536.43804347503
