t,iq,id,vq,vd,ia,ib,va,vb,theta_e,omega,r
0,0,0,0,0,0,0,0,0,0,0,0
0.01,0.000812504200565144,0.000457139056048944,-0.0392040922164216,-0.0228880504682256,0.000830936500453397,0.00042270997707126,-0.0407847531008639,-0.0199355866543049,-0.587712901268727,-0.00256316203970104,0
0.02,0.000897404965262302,0.000505762138691451,-0.0435852664594484,-0.0253225207845049,0.000918483823958514,0.000466388762447949,-0.0452403406885375,-0.0222309938061225,-0.587731463882919,-0.00260043982058455,0
0.03,0.000928475164782571,0.000523969597802948,-0.0451760791222744,-0.026234135077908,0.000950872392262955,0.000482132725161787,-0.0468814665037913,-0.0230485588834055,-0.587749452554743,-0.00246205186137673,0
0.04,0.000907598950378749,0.000513506788455792,-0.0442890574167244,-0.025710272925346,0.000930597094294731,0.000470546623204323,-0.0459540243192922,-0.0226001413628232,-0.587765172697359,-0.00217743196250362,0
0.05,0.000925365017056936,0.000524185463554098,-0.0452281855885032,-0.0262449532906846,0.000949342120068073,0.000479395821903847,-0.046920066329002,-0.0230844909092741,-0.587779970736789,-0.0020370305203538,0
0.06,0.000924415950815974,0.000524491110852144,-0.0452713419074072,-0.0262602340377699,0.000949076651428002,0.000478423750664752,-0.0469570250243156,-0.0231112979012779,-0.58779345464159,-0.00185069006891003,0
0.07,0.00094878389510269,0.000539043501419313,-0.0465052049878907,-0.0269888449237535,0.000974705216862706,0.000490620542017199,-0.0482478449166095,-0.0237334637629434,-0.587805467726635,-0.00177060601403822,0
0.08,0.000922555041527696,0.000524915134345756,-0.0453346035408651,-0.0262814776823927,0.000948408637676557,0.000476618042979794,-0.0470103202912368,-0.0231510719728666,-0.587816640546234,-0.00152949459366335,0
0.09,0.000920597683922608,0.000524502959617213,-0.0453066576727934,-0.0262608311724679,0.00094698491659718,0.000475208394315924,-0.046977871570017,-0.0231388000142517,-0.587826563046514,-0.00138808057873937,0
0.1,0.000919527059230726,0.000524488500301505,-0.0453144020927529,-0.0262601082441456,0.000946383411070132,0.000474317023579473,-0.0469817718588907,-0.023145224885861,-0.587835514070154,-0.00126288103041554,0
0.11,0.000918582960842261,0.000524485809162864,-0.045322443264832,-0.0262599834483502,0.000945861437089097,0.000473525249369776,-0.0469863143803706,-0.0231516058870767,-0.587843593257478,-0.0011499519956764,0
0.12,0.000917731529057426,0.000524483679319859,-0.0453297323971331,-0.0262598732017452,0.000945390935999695,0.000472811027185914,-0.046990433833127,-0.0231573899207563,-0.587850885671236,-0.00104802273502528,0
0.13,0.000961683476371733,0.000549613472218216,-0.0474603919132511,-0.0275180674411983,0.000990680449201111,0.00049544154563467,-0.0492192020982043,-0.0242322714798645,-0.587858034458313,-0.00110073752786111,0
0.14,0.00101156674450956,0.0005790772563734,-0.0501187257110295,-0.0289932685702511,0.0010428657474781,0.000520604245260784,-0.0519211842081126,-0.0256259032955202,-0.587864426107202,-0.00118394896319604,0
0.15,0.000918522421870869,0.000526060071457198,-0.0454941757633189,-0.0263388000657635,0.000947150494900868,0.000472576531653996,-0.0471477592427013,-0.0232495422681887,-0.587870311045286,-0.000786929979585845,0
0.16,0.000915011769506676,0.000524522498077374,-0.0453584907740858,-0.0262618214829468,0.000943926286904298,0.000470503511374922,-0.0470085631732828,-0.0231791057051059,-0.587875021537052,-0.000710999182992978,0
0.17,0.000914422758299512,0.000524476751669845,-0.0453582091463481,-0.0262595285996935,0.000943563547681016,0.000470034759805969,-0.0470065971372371,-0.0231799440210599,-0.587879254033654,-0.000651516306668063,0
0.18,0.000913973855372818,0.000524474349108682,-0.0453618710002029,-0.0262593976769125,0.000943314381965012,0.000469658948553093,-0.0470086076013686,-0.0231828841685809,-0.587883073742808,-0.000598116226451199,0
0.19,0.000913571151789021,0.000524473307163623,-0.0453652899456802,-0.0262593524825412,0.000943091793333211,0.000469321178571576,-0.0470105460817201,-0.0231855921157179,-0.587886521460467,-0.000549925662103078,0
0.2,0.000913207854794264,0.00052447239915518,-0.0453683816936699,-0.0262593101161232,0.000942891011512771,0.000469016443146673,-0.0470122976833311,-0.0231880420003741,-0.587889633431569,-0.000506428294586887,0
0.21,0.000912879948052859,0.000524471580367157,-0.0453711693292209,-0.0262592647636794,0.000942709787739242,0.000468741393809472,-0.0470138711246915,-0.0231902547226361,-0.587892442352096,-0.000467166801893234,0
0.22,0.000912583997320011,0.000524470841219878,-0.0453736831288214,-0.0262592222519276,0.00094254622369664,0.000468493150056285,-0.0470152887262535,-0.0231922508596696,-0.58789497773407,-0.000431728676401403,0
0.23,0.000912316725352489,0.000524470173954428,-0.0453759414885433,-0.0262592014267961,0.000942398508207763,0.000468268963794805,-0.047016576987021,-0.0231940340167096,-0.587897266215108,-0.000399741590291213,0
0.24,0.000912075472205414,0.000524469571587819,-0.0453779759161462,-0.0262591776204977,0.000942265171802297,0.000468066602663154,-0.0470177334102367,-0.0231956429640376,-0.587899331838769,-0.000370869474087685,0
0.25,0.00091185792719002,0.000524469027814948,-0.0453798193797424,-0.0262591349197061,0.000942144938112747,0.000467884126793126,-0.0470187635401698,-0.0231971129415489,-0.587901196307606,-0.000344808985469042,0
0.26,0.000921087347206769,0.000529716739870444,-0.0458280587260287,-0.0265218786228762,0.000951631146534152,0.000472651971993633,-0.0474860331144197,-0.0234242966028683,-0.587902826615007,-0.000354124780072225,0
0.27,0.000888725491968273,0.000511441296305616,-0.0443049621388987,-0.0256068687558695,0.000918476399185263,0.000455857767050964,-0.045879952145546,-0.0226643197279773,-0.58790456607905,-0.000220211558036412,0
0.28,0.000883982316169988,0.000508529317242096,-0.0438550063449208,-0.0254610702181599,0.000913423307368745,0.00045352471084993,-0.0455091098718923,-0.0223707084562637,-0.587905962227729,-0.000185087015965762,0
0.29,0.000910304287727235,0.000524005495840952,-0.0453439870692027,-0.0262359259840101,0.000940900267996042,0.000466842951763317,-0.0469797126691727,-0.0231798958818293,-0.587907003132944,-0.000260659677837564,0
0.3,0.000906038914332852,0.000521789307233381,-0.0451437250850585,-0.0261249679098869,0.000936690646234986,0.000464522581458027,-0.0467763216248549,-0.0230747827312868,-0.587907305161096,-0.000242021740863543,0
0.31,0.000910858002373841,0.000524389340447133,-0.0453790844681672,-0.0262551420264393,0.000941527401688222,0.000467089533958178,-0.0470151996194954,-0.0231983791402882,-0.587908359924762,-0.00024412204657012,0
0.32,0.000910901313968186,0.000524464402249296,-0.0453875382981661,-0.0262589136035221,0.000941614342076401,0.000467083015974361,-0.0470230494740215,-0.0232032755137816,-0.587909344152235,-0.000230905000573488,0
0.33,0.000910802611529882,0.000524466326057084,-0.0453886390677025,-0.0262589999804596,0.000941561615633396,0.000466998981051671,-0.0470237524981535,-0.0232041017362093,-0.587910233565235,-0.000218490592526586,0
0.34,0.000910709013615309,0.000524466155027359,-0.0453894153673978,-0.02625900328894,0.00094150993659094,0.000466920437065969,-0.0470242044345912,-0.0232047081088408,-0.587911036398136,-0.0002072695954163,0
0.35,0.000910624513700614,0.000524465945370547,-0.0453901120211837,-0.0262589819461203,0.000941463234757977,0.000466849558642768,-0.0470245898718819,-0.0232052655559806,-0.587911761050416,-0.000197140824852907,0
0.36,0.000910548028834353,0.000524465754520911,-0.0453907265829451,-0.0262589822879971,0.000941420960879988,0.000466785405614952,-0.047024946185954,-0.0232057459853622,-0.587912415134534,-0.000187998399400111,0
0.37,0.000910479244987868,0.000524465582203672,-0.0453912903818851,-0.0262589608968342,0.000941382943793909,0.000466727710344938,-0.0470252547840988,-0.0232061992235841,-0.587913005522333,-0.000179746282136781,0
0.38,0.000910416962790839,0.000524465426660167,-0.045391785877107,-0.026258961191549,0.00094134851975154,0.000466675469958204,-0.0470255422103608,-0.023206586302039,-0.587913538417022,-0.000172297773466619,0
0.39,0.00091036073419053,0.000524465286259601,-0.0453922289565164,-0.0262589614653925,0.000941317441524034,0.000466628307253142,-0.0470257993441661,-0.0232069322169907,-0.587914019417073,-0.000165574616303314,0
0.4,0.00091031022754933,0.000524465159527959,-0.0453926376463381,-0.026258940016858,0.000941289526322357,0.000466585942325135,-0.0470260182427042,-0.0232072637667079,-0.587914453576253,-0.000159506174386043,0
0.41,0.00091026435991264,0.000524465045134716,-0.0453929889632362,-0.0262589402560456,0.000941264174543594,0.000466547470485152,-0.0470262223860831,-0.0232075375359325,-0.587914845455973,-0.000154028690162353,0
0.42,0.000910223032473492,0.000524464941879263,-0.04539330617626,-0.0262589404794519,0.000941241332317831,0.000466512806300333,-0.0470264067159456,-0.023207784730593,-0.587915199173501,-0.000149084614922062,0
0.43,0.000910185663155275,0.000524464848676822,-0.0453935856175802,-0.0262589406891151,0.000941220677648142,0.000466481462524056,-0.0470265692858971,-0.0232080021228405,-0.587915518445117,-0.000144622004173103,0
0.44,0.000910152019127348,0.000524464764549288,-0.0453938385700076,-0.0262589408858454,0.000941202082157375,0.000466453242799265,-0.0470267164321739,-0.0232081989429196,-0.587915806625343,-0.000140593971885026,0
0.45,0.000910121885167219,0.000524464688612923,-0.04539407500336,-0.0262589193721088,0.000941185427159292,0.000466427965676549,-0.047026835700071,-0.0232083953783995,-0.587916066742019,-0.000136958197890207,0
0.46,0.000910094411151335,0.000524464620070545,-0.0453942711075989,-0.0262589195480643,0.000941170241766757,0.000466404921637133,-0.0470269500604571,-0.023208547417561,-0.587916301527641,-0.00013367648324715,0
0.47,0.000910069614687847,0.000524464558201992,-0.0453944446639223,-0.0262589197146614,0.000941156536300501,0.000466384123407884,-0.0470270513767728,-0.023208681775002,-0.587916513449452,-0.000130714348908313,0
0.48,0.000910047262946111,0.000524464502357715,-0.0453945992377148,-0.0262589198727058,0.000941144182126538,0.000466365375514095,-0.0470271416787996,-0.0232088013123477,-0.587916704733658,-0.00012804067346919,0
0.49,0.000910027123095484,0.000524464451951104,-0.0453947369398987,-0.0262589200230177,0.000941133050561779,0.000466348482650149,-0.0470272221846287,-0.0232089076911304,-0.58791687739012,-0.000125627366191858,0
0.5,0.000910008845885932,0.000524464406452997,-0.0453948527417659,-0.0262589172564307,0.000941122948309572,0.000466333152790833,-0.0470272877265715,-0.0232089982551798,-0.587917033232913,-0.000123449071875818,0
0.51,4.60025976724948,0.0100110042872269,9.98834981962841,-0.490192995172596,-0.733861912471185,4.5413584795527,-2.09859804558658,9.77769438747435,0.162386473899933,49.9376686731269,4424.14624465636
0.52,4.61163262534421,0.029928393363875,9.42127198899533,-1.4729597232855,-3.07405041062735,3.43777038977159,-7.41701056581196,5.99315697305544,0.736090468750248,106.891303186022,4424.14624465636
0.53,4.58900682364875,-0.00133358108221771,10.5542302889266,0.0990402887327722,-4.52239903807321,-0.779032955893245,-10.4183440038529,-1.69106303486014,1.74109254351842,168.53638650533,4424.14624465636
0.54,4.58680120394972,0.0309592622108301,10.6663744017747,-1.5023023865404,0.233430691883949,-4.58096211210678,2.11451137641654,-10.5620687830768,-3.08393045520302,227.771942888438,4424.14624465636
0.55,4.57122287483115,-0.0126954942335128,11.4473231297333,0.687966419753454,4.26271632940132,1.65090558240279,10.9328326566824,3.46232215892957,-1.20407226424503,286.84101821757,4424.14624465636
0.56,4.51954187166354,0.0367834921107195,14.0333876680761,-1.76059582740236,-4.04054021502239,2.02525221288575,-13.3724904091302,4.60566687545882,1.1143013667193,344.678918680161,4424.14624465636
0.57,4.51794006692806,0.0466980401103286,14.1157161199413,-2.2493987282154,2.94735853320605,-3.42447672382826,11.0078680663528,-9.1181180542389,-2.42059848642789,403.869264231112,4424.14624465636
0.58,4.55223872694198,0.122779760615043,12.4030694453584,-6.04709309886525,-3.03759020789506,3.39278617445708,-12.9142444183192,4.86063346865788,0.757181797701605,462.648715246728,4424.14624465636
0.59,4.48691114407337,0.0988448912495641,15.671880894931,-4.83212368322143,4.18361131765032,-1.62466558717912,16.379985493197,-0.808297790117606,-1.91918510833895,520.885057192681,4424.14624465636
0.6,4.45038973993221,0.0689315212105841,17.5004512795901,-3.31547243847731,-3.84208062775299,-2.24702844702854,-13.2499969729879,-11.9036016690505,2.11548686254965,579.306422535898,4424.14624465636
0.61,4.42018952487472,0.0432990656708516,19.0131360078183,-2.05528791139729,-1.24387487668648,4.24178329668647,-7.49511963778545,17.5939401745549,0.295042028172986,638.235570431023,4424.14624465636
0.62,4.48305780094418,0.0699094991419598,15.8724175863714,-3.33995529776381,4.0265095687532,1.97228681418695,12.6278618581727,10.1796879283266,-1.09972855619501,695.536042468431,4424.14624465636
0.63,4.41858004295054,0.0507445658924031,19.0991398632594,-2.40048006878634,3.8574250843736,-2.15561970796653,17.9252274612985,-7.0161006647349,-2.06890469805222,754.106597445647,4424.14624465636
0.64,4.36739547094083,0.0744403604811601,21.661271691386,-3.59136434635184,2.13367614295164,-3.81144469773104,14.0049736279455,-16.9106269202782,-2.61420780893755,811.997003590188,4424.14624465636
0.65,4.39028423708053,0.0981595900173811,20.5198309399382,-4.74380118632189,1.64366726455254,-4.07217250505286,12.4620494399668,-16.978351959328,-2.73560280807171,869.450263326592,4424.14624465636
0.66,4.38659750843528,0.0831611111122809,20.7072568245409,-3.98791722754715,2.78727465058178,-3.38825227715356,16.4871024261672,-13.1479816930331,-2.43424929626369,927.081985663775,4424.14624465636
0.67,4.33781474455658,0.109925420633016,23.1495987523301,-5.34140288652463,4.27987543365569,-0.715113018049829,23.6689158239975,2.05351671689796,-1.71101850856523,984.773937805163,4424.14624465636
0.68,4.37919080160101,0.0736508631613899,21.084021246683,-3.49246261844515,2.41243285210744,3.65553064007732,8.36882179614443,19.6645892104614,-0.566514797993972,1042.07344272896,4424.14624465636
0.69,4.36691532319227,0.125396157207551,21.7011169009527,-6.03038754563293,-3.60207088544963,2.47199493777191,-21.5060927036016,6.6926844631609,0.998051508901462,1099.01532585706,4424.14624465636
0.7,4.32962518807763,0.107807621979227,23.5690701528109,-5.19525256366613,-0.793366736544397,-4.25768082105011,1.39005432011044,-24.0948016396804,2.98226254592153,1156.60154401965,4424.14624465636
0.71,4.29268761136767,0.154558374563361,25.4194715278457,-7.49275348244882,3.45394516100856,2.55368714698623,15.214161921627,21.6983908280366,-0.898154248441554,1213.4372550557,4424.14624465636
0.72,4.26686301542854,0.14969541064576,26.7142314689706,-7.21900190499447,-4.05644316776269,-1.33183990596156,-22.582402895389,-15.9937247366703,1.92310331866098,1270.30022591143,4424.14624465636
0.73,4.26821215164767,0.146016855512648,26.6504182451412,-7.03307406289433,3.90837323854823,1.72150356426196,20.9543824902842,17.9059425293947,-1.12170255214612,1327.24915481362,4424.14624465636
0.74,4.21045973720726,0.0998964552710022,29.5417645634183,-4.71186567340304,-2.4873202946358,-3.39870390771424,-13.0091589633653,-26.9384356396307,2.53353448383645,1384.02483124488,4424.14624465636
0.75,4.25597974569971,0.131429628518511,27.2695764352338,-6.26403084960277,-1.21987548259933,4.07952707430797,-14.5583743243294,23.8939661520339,0.321432269227799,1440.7125105003,4424.14624465636
0.76,4.17771088802582,0.0954427002374645,31.1869345168176,-4.54770431424976,3.30074457233228,2.56270615583939,21.3203741840276,23.2109487901543,-0.887768947846225,1497.59366213536,4424.14624465636
0.77,4.21083074614114,0.198481686950287,29.5348808240197,-9.63738580418097,3.09425995518646,-2.86287371052788,28.8042163782443,-11.6406833675243,-2.27027100028307,1553.89751493422,4424.14624465636
0.78,4.09483271248143,0.127665067003379,35.3388183572602,-6.1510985730279,-0.525264587746615,-4.06301002034211,2.68539912398017,-35.769494378415,3.04419309361229,1610.45711891701,4424.14624465636
0.79,4.1849262705893,0.202959377331345,30.8382300202416,-9.80997519964227,-2.70392473749129,-3.20056110910225,-10.9454641670162,-30.4537166593421,2.48856842536515,1666.5074667762,4424.14624465636
0.8,4.24848375343212,0.185345212075534,27.6644843117252,-8.94666016304971,-3.16516441855623,-2.84001782640912,-13.5064084022787,-25.7476863499936,2.34570153032641,1722.90128549684,4424.14624465636
0.81,4.15612163550946,0.213660836643808,32.2868183683303,-10.3798704424225,-2.27471652561234,-3.48491932910524,-7.26455600504426,-33.1271275060275,2.61466312678474,1779.11331182115,4424.14624465636
0.82,4.11484196958498,0.243882928001383,34.3550455113746,-11.8778083932562,0.388609920085116,-4.1037038937087,16.9946794556255,-32.1330414762759,-2.9879770178282,1835.1992139808,4424.14624465636
0.83,4.1617411900846,0.229961716467229,32.0144556434956,-11.1315562492805,3.86918157669994,-1.54996969351439,33.8931814768283,0.298603514760547,-1.89661439672528,1891.05133035373,4424.14624465636
0.84,4.05043660035398,0.224808183766183,37.5841568014956,-10.8753758772381,1.76839830432003,3.65093725093344,4.4488161172768,38.8722353114055,-0.395618912978195,1946.96287736118,4424.14624465636
0.85,4.13460777618988,0.193184105658842,33.3801130369186,-9.33810426818213,-4.11716275991268,0.425760930566934,-33.8530935164236,-7.4431308633652,1.51444108352268,2002.84293915315,4424.14624465636
0.86,4.01078587315251,0.218674693028119,39.5757390631838,-10.528960398182,2.38951077758138,-3.22869326283454,33.3497673842973,-23.7674387529864,-2.44999900798775,2058.43418807648,4424.14624465636
0.87,4.09816486445505,0.233409623343198,35.2113589201365,-11.2859532163309,-2.96694931520779,2.83666125392355,-34.1159727836904,14.2587845914854,0.86473708169207,2114.10438945641,4424.14624465636
0.88,4.07583984480286,0.214976286289297,36.3321927880174,-10.4092564216524,2.94235673243618,-2.82864315586764,34.2905157798081,-15.8915505723044,-2.28379751091716,2169.77495277837,4424.14624465636
0.89,4.05156038419838,0.185551828483244,37.5507201261242,-8.94930720675991,-3.79774866404022,1.42361375121202,-38.4822700420607,3.04328340471113,1.25791642551501,2225.36321327655,4424.14624465636
0.9,4.05478242523963,0.212947711672254,37.3941938484366,-10.3042604200152,3.670989404544,1.73506312152162,28.0379024577204,26.8026032718709,-1.07680434618746,2280.73967921667,4424.14624465636
0.91,4.03111540715269,0.22793425660674,38.5820615465434,-11.0050430353011,0.321010699997782,-4.02477298510184,16.1371361184834,-36.7325371201559,-3.0055188544667,2336.03350517665,4424.14624465636
0.92,3.95606840122761,0.287720988164033,42.338898132195,-13.9316673815557,-3.94207570764928,-0.439658591844983,-39.082251737379,-21.4301481612896,1.75446822523087,2391.20712369577,4424.14624465636
0.93,3.94734824672393,0.208921213615303,42.7793290168878,-10.1174875128558,-2.17739479247476,3.2991147558272,-33.5564541754328,28.3971640816475,0.636246224396729,2446.61162347583,4424.14624465636
0.94,3.94400659552446,0.290175992148337,42.9507713008437,-14.0438863815823,0.595577318683572,3.90956235267189,-10.6660713022371,43.9116661379612,-0.0777347282442925,2501.50361905136,4424.14624465636
0.95,3.91406169738071,0.197092070939087,44.4522847755055,-9.47323077900312,-0.580300710663429,3.8758193121627,-18.0711637133662,41.7034862475502,0.198931764483006,2556.5438158319,4424.14624465636
0.96,3.85690018531162,0.232292172822746,47.3146237494742,-11.2809433197081,-0.881447928805095,3.76200588008801,-24.3525031147995,42.10568720233,0.290306020119725,2611.45993018981,4424.14624465636
0.97,3.77350694527077,0.206650687958986,48,-10.0020967238893,-2.51612702608901,2.81978083570783,-40.9561536372403,26.9561758808033,0.783260772835044,2666.05871645915,4424.14624465636
