t,iq,id,vq,vd,ia,ib,va,vb,theta_e,omega,r
0,0,0,0,0,0,0,0,0,0,0,0
0.01,0.00052000085919509,0.000283713785377349,-0.0247452742350227,-0.0141974397605785,-0.000323126663891712,-0.000496471111605689,0.0160708891950966,0.0235716442617112,3.06408309929034,-0.00238964437660717,0
0.02,0.000598683860749698,0.000325479779230082,-0.0287713910993005,-0.0162874652955617,-0.000370869833158844,-0.000571677372879632,0.018466869206734,0.0274235156981087,3.06406562034948,-0.0023713491912451,0
0.03,0.000624875029193148,0.000341745332655764,-0.0301868861597461,-0.0171014238228014,-0.000389124633479374,-0.000596523842038757,0.0193884757627898,0.0287714059507745,3.06404950397968,-0.0021136830191005,0
0.04,0.000605673763893193,0.000334249236496986,-0.0294486272618287,-0.0167263083146983,-0.000380171202500704,-0.000577955982023314,0.0189576656999656,0.0280641755384478,3.06403639822699,-0.00169378172882593,0
0.05,0.000616696869121837,0.00034262975033064,-0.0300974334659791,-0.017145672458344,-0.00038938716725826,-0.000588292281243686,0.0194263589777246,0.0286783221642486,3.06402519873955,-0.00147744300627493,0
0.06,0.0006145395154787,0.000343477785772171,-0.0301101200051175,-0.017188108839719,-0.000390071007972595,-0.000586072021293452,0.0194699214173924,0.028687498535236,3.06401576671866,-0.00123581926325893,0
0.07,0.00062451633512124,0.000351025666790448,-0.0306666514179218,-0.0175658196709594,-0.000398373899537486,-0.000595430858913309,0.0198898485420564,0.0292129330070612,3.06400818087098,-0.00110232537981949,0
0.08,0.000610215812724112,0.000344326378743053,-0.0300790710132368,-0.0172305718660651,-0.000390590229778664,-0.000581690008164403,0.019510257538815,0.0286529749000011,3.06400155971761,-0.000866293045689494,0
0.09,0.000606502794190482,0.000343645786525351,-0.0299693424758574,-0.0171965206694858,-0.000389626931687108,-0.000578038856878652,0.0194679542252278,0.0285461130428596,3.06399627526639,-0.000717911642132233,0
0.1,0.000604441208140495,0.00034357584618584,-0.0299251321219299,-0.0171930158056176,-0.000389399882140371,-0.000575987211637309,0.0194611560737599,0.0285022232339854,3.06399194972753,-0.000601532772875977,0
0.11,0.00060286811386969,0.000343568002808359,-0.0298944424355222,-0.0171926224727154,-0.000389272153299423,-0.000574418075916969,0.0194584859703384,0.02847158723644,3.06398839539753,-0.000506531728036736,0
0.12,0.000601589561271219,0.000343566590044355,-0.0298698981592947,-0.0171925587988226,-0.000389173298128736,-0.000573142343618761,0.0194566027904471,0.0284470649092727,3.06398547308036,-0.000428500759608905,0
0.13,0.000628235424014302,0.00035877520500097,-0.0311471249858213,-0.0179536258490353,-0.000406403675344217,-0.000598527734007899,0.0203144860313764,0.0296613845477674,3.06398262617263,-0.000497359891311441,0
0.14,0.000646172445696976,0.000369883620844809,-0.0321655969883081,-0.018509507069725,-0.000418870859016107,-0.00061554847576319,0.0209477334347459,0.0306336407487795,3.06398017287063,-0.000530598118612318,0
0.15,0.000604128466590012,0.000346234120049909,-0.0300774389220023,-0.0173260491909525,-0.000392033907647046,-0.000575463887039075,0.019605994365704,0.0286434861287181,3.0639780546902,-0.000260462183395528,0
0.16,0.000598553504424468,0.000343835187048151,-0.0298313506413149,-0.0172060038511922,-0.000389210596865979,-0.000570091260061472,0.0194672626560333,0.0284074239292008,3.06397688929484,-0.00020303442665605,0
0.17,0.000597542007694589,0.00034359168342541,-0.0297948098321695,-0.0171938146547207,-0.000388889901985235,-0.0005691013442373,0.0194523020335153,0.028371920994408,3.06397600203185,-0.000176104929230378,0
0.18,0.000597150432925476,0.000343566832691104,-0.0297851886819211,-0.0171925646327745,-0.000388835173792348,-0.000568712594981292,0.0194503302072759,0.0283624117151151,3.06397528121124,-0.000156461670240251,0
0.19,0.000596882561148969,0.000343564186524147,-0.0297797854844092,-0.0171924402264813,-0.000388812101268724,-0.000568445504839954,0.0194498039913977,0.0283570229243969,3.06397468958044,-0.000140617641367527,0
0.2,0.000596669055436295,0.000343563814818508,-0.0297756536161209,-0.0171924277282135,-0.000388795451796379,-0.00056823248167483,0.0194494849348262,0.0283528950061017,3.0639742032334,-0.000127627533273182,0
0.21,0.000596494363594294,0.000343563692151403,-0.0297722936611878,-0.0171924111000223,-0.000388782010961261,-0.000568058169835963,0.0194492191607413,0.0283495386790972,3.06397380334154,-0.000116950842408774,0
0.22,0.000596350765294993,0.000343563609833134,-0.0297695299360909,-0.0171924115313908,-0.000388770980884306,-0.000567914882435522,0.019449014609877,0.0283467768465006,3.06397347452481,-0.000108172303845875,0
0.23,0.000596232720158801,0.000343563544018723,-0.0297672560737524,-0.0171924119001788,-0.000388761915417552,-0.000567797092707901,0.0194488463230592,0.0283445045433464,3.06397320414921,-0.000100954052469515,0
0.24,0.000596135793754386,0.00034356349008636,-0.0297653904198625,-0.0171923980046429,-0.000388754472037548,-0.000567700375890575,0.0194486941048748,0.0283426412603325,3.06397298182781,-9.50187150443447e-05,0
0.25,0.000596055932842272,0.000343563445754472,-0.0297638454147722,-0.0171923968267377,-0.000388748339049508,-0.00056762068780252,0.0194485783090906,0.028341097443071,3.0639727990198,-9.01382706487179e-05,0
0.26,0.000601763992386546,0.000346759839073579,-0.0300309810255272,-0.017352351116938,-0.000392377763598553,-0.000573063678102816,0.0196287672642806,0.0285950241532645,3.06397272697535,-0.000118027567224805,0
0.27,0.000586674158899305,0.000338092424569574,-0.0293315485159089,-0.0169186250832057,-0.000382566560886271,-0.000558691223094825,0.0191421222869439,0.0279313223353081,3.06397234940056,-3.04226787862498e-05,0
0.28,0.000586347371067073,0.000337889734560215,-0.0291719312361138,-0.0169084841725194,-0.000382339190700082,-0.000558381102414155,0.0191196372646016,0.0277729703115628,3.06397226085368,-2.65620672040554e-05,0
0.29,0.000594687791515515,0.000342987877585674,-0.029705484392395,-0.017163600439015,-0.000388068676065447,-0.000566301117962111,0.0194153562106801,0.0282851361359528,3.0639723389646,-7.17932797792427e-05,0
0.3,0.000588405877688874,0.000339844641059449,-0.0294041761198137,-0.0170063143366166,-0.000384447404073395,-0.000560282116845494,0.0192351602880511,0.0279969446421179,3.06397302599363,-5.59467598354222e-05,0
0.31,0.000595164463858686,0.000343186286316321,-0.0297204401192863,-0.017173522959533,-0.000388303106834133,-0.000566761204899157,0.0194263914374028,0.0282992891685726,3.06397294394553,-8.90480958170254e-05,0
0.32,0.000595930551648145,0.000343525183515826,-0.0297581178411447,-0.017190482831191,-0.000388700479797345,-0.000567498644141603,0.0194462264527079,0.028335535184057,3.06397278125235,-8.9052809839947e-05,0
0.33,0.000595970192766571,0.000343559525744498,-0.0297616997795227,-0.0171922041544335,-0.000388737875056622,-0.000567535446375353,0.0194482244673113,0.0283389700328582,3.0639726357422,-8.57038284033651e-05,0
0.34,0.000595929971445512,0.000343562983207499,-0.0297612623314278,-0.0171923789415725,-0.00038873827198406,-0.000567495030984706,0.0194483682391621,0.028338517993442,3.06397251464816,-8.25369728012178e-05,0
0.35,0.000595887945531643,0.000343563312675954,-0.0297604842796931,-0.0171923965861025,-0.00038873539828117,-0.000567453067283963,0.0194483283253907,0.0283377389762044,3.06397241489835,-7.98820696324324e-05,0
0.36,0.000595852322444645,0.000343563328647555,-0.0297597922787343,-0.0171923982090743,-0.000388732698460752,-0.000567417518324459,0.0194482786089844,0.0283370473373659,3.06397233285494,-7.76927538096769e-05,0
0.37,0.000595822869368259,0.000343563315921858,-0.0297592128231735,-0.0171923983617178,-0.000388730440189521,-0.00056738812869103,0.0194482357404918,0.0283364683026165,3.06397226539067,-7.58917741531513e-05,0
0.38,0.000595798654981349,0.000343563302834887,-0.0297587337734131,-0.0171923985014296,-0.000388728580972576,-0.00056736396666289,0.0194482003049932,0.0283359896055475,3.06397220991664,-7.44107887700577e-05,0
0.39,0.000595778747961341,0.000343563291807602,-0.029758337185154,-0.0171923986305057,-0.000388727052217114,-0.000567344102705449,0.0194481709737441,0.0283355933142673,3.063972164302,-7.31930082985866e-05,0
0.4,0.000595762391608644,0.000343563282712871,-0.0297580088656789,-0.0171923987508118,-0.000388725796115214,-0.000567327781726128,0.019448146697738,0.0283352652445676,3.06397212679447,-7.21916634145975e-05,0
0.41,0.000595748887431329,0.000343563275231861,-0.0297577332837706,-0.0171923988640708,-0.000388724759004298,-0.000567314306800701,0.019448126315203,0.0283349898838387,3.06397209595321,-7.13682881268509e-05,0
0.42,0.000595737827975768,0.000343563269080108,-0.0297575060613207,-0.0171923989712879,-0.000388723909678473,-0.000567303271263774,0.0194481095212363,0.028334762844031,3.0639720705933,-7.06912519212229e-05,0
0.43,0.000595728747580677,0.000343563264021547,-0.0297573170288938,-0.017192399073617,-0.000388723212346631,-0.000567294210495839,0.0194480955560263,0.0283345739672978,3.0639720497408,-7.01345458627522e-05,0
0.44,0.000595721180584768,0.000343563259862221,-0.0297571537165133,-0.0171923991722088,-0.000388722631161607,-0.000567286659941218,0.0194480834764753,0.0283344108055349,3.06397203259435,-6.96767835878152e-05,0
0.45,0.000595715068780379,0.000343563256441871,-0.0297570220812043,-0.0171923992672048,-0.00038872216182377,-0.000567280561323944,0.0194480737633102,0.0283342792850129,3.06397201849545,-6.93003797443177e-05,0
0.46,0.000595710004713886,0.000343563253629497,-0.0297569090564587,-0.0171923993596129,-0.000388721772914774,-0.000567275508216862,0.0194480654196699,0.028334166367956,3.06397200690253,-6.89908744379335e-05,0
0.47,0.000595705813762305,0.000343563251316971,-0.0297568119036525,-0.0171923994498639,-0.000388721451039034,-0.00056727132635786,0.0194480582462563,0.0283340693152829,3.06397199736982,-6.8736377740415e-05,0
0.48,0.000595702437717976,0.000343563249415505,-0.0297567326694813,-0.0171923995381033,-0.00038872119180201,-0.000567267957579224,0.0194480524122866,0.028333990160401,3.06397198953149,-6.85271129314349e-05,0
0.49,0.000595699643750256,0.000343563247851948,-0.0297566637538057,-0.017192399624906,-0.000388720977247396,-0.000567265169639905,0.0194480473375362,0.0283339213201504,3.06397198308626,-6.83550409127048e-05,0
0.5,0.000595697315443822,0.000343563246566264,-0.0297566026887477,-0.0171923997105544,-0.000388720798428593,-0.000567262846383548,0.0194480428379337,0.0283338603292483,3.06397197778661,-6.82135513817045e-05,0
0.51,4.7100727681898,-0.0111795133351409,4.49731766273089,0.573514266491738,-0.756009214651161,4.64901715747792,-0.1450246971921,4.53141838838405,0.158832362025858,49.2540966701534,760.469568180573
0.52,4.64712434573378,0.0395449090533142,7.64589838838004,-1.94674579499454,-3.05941426086406,3.49818708261368,-6.53668173351538,4.41829981672677,0.727096521379982,106.200610062501,760.469568180573
0.53,4.63524674240944,0.0137273216794473,8.24108647087305,-0.647662683226242,-4.57792350094385,-0.726854333332207,-8.03181840845336,-1.9557265210863,1.73121727250654,168.240178309381,760.469568180573
0.54,4.64449273234507,0.0600582042987994,7.78027841970314,-2.93873889104889,0.0918386324220014,-4.6439730182576,3.19156553457951,-7.68002786429488,-3.10888901826388,224.905215897399,760.469568180573
0.55,4.59757269447982,0.0254064365193765,10.1279661821067,-1.19854963086753,4.35531601800015,1.47293670990791,9.18583250704494,4.43088042673984,-1.23915260935447,284.590432147365,760.469568180573
0.56,4.19190343416359,0.0230186024502814,9.55587223128284,-1.07828783639036,-3.6316696419584,2.09369526652974,-8.83813766134691,3.79008198299077,1.05331884292632,340.890934109032,760.469568180573
0.57,3.69083821318698,0.0690497198157791,10.3213802248356,-3.38187837666856,2.00376750676132,-3.10031778348211,8.56915308642644,-6.6736501617626,-2.54910934891669,390.382457840491,760.469568180573
0.58,3.21542244839492,0.0549748394419929,12.6615518505657,-2.67241381475384,-1.41933031590998,2.88573477799893,-8.15910809106467,10.0441846866818,0.474196832941517,433.938576051137,760.469568180573
0.59,2.83765021101314,0.0389355998627776,12.7493943563341,-1.85752411598597,1.70406079421875,-2.26935046006697,9.26461073367377,-8.95345968038557,-2.48379402434667,472.370422018293,760.469568180573
0.6,2.52258371728606,-0.0114833071134146,11.6189514357981,0.628253795792563,-2.26336559529802,1.11388359314619,-10.1214543173729,5.74028725768108,1.10890755156083,507.098501639895,760.469568180573
0.61,2.27640661457015,0.0171297583925443,9.08328107139289,-0.781637002694375,2.2227204123875,0.491766684350672,8.67920790730817,2.7907528603631,-1.34553365029469,536.959622401196,760.469568180573
0.62,1.92098512198186,0.000815096649961045,13.8370620258913,-0.00140130423528764,-0.838211163182225,-1.72846363837221,-6.03117995563658,-12.4534796669342,2.69048509286415,563.7849081696,760.469568180573
0.63,1.71919436258977,0.0107798939490148,12.3734207473331,-0.465762017323594,-1.00010329131866,1.39840583135497,-7.63792743185921,9.74579600612321,0.627107568134423,587.086016404622,760.469568180573
0.64,1.55733942678822,0.00317377248854844,10.2145754642181,-0.113854450397368,1.49017206305822,0.452441582463061,9.73463790633421,3.09634293686,-1.27398654667577,607.987584115101,760.469568180573
0.65,1.33552328666477,-0.0276992231969586,12.3466449647535,1.40844099733981,0.173208755822158,-1.32453328500877,-0.0533029027127114,-12.4266047949238,-3.03229824274055,626.392889272763,760.469568180573
0.66,1.16191703747435,0.038453616533936,13.0964930808059,-1.86189894574607,-1.16241614329948,-0.0178491566876992,-12.9909836333594,-2.49382095138269,1.61923324232167,642.494091966115,760.469568180573
0.67,0.994492523797151,0.0544069104402466,14.4034832514756,-2.66847498241967,-0.0446002713307826,0.994980556387561,-4.08534237333822,14.0673759528899,0.0994490149220949,656.761991178529,760.469568180573
0.68,0.918909309619838,0.0498974037382339,11.951198161134,-2.45523168984347,0.90284820676957,0.178183011925366,10.9770284736739,5.32580003620641,-1.32169641992243,669.42528530785,760.469568180573
0.69,0.788156450156932,0.0431868248711424,12.996396743667,-2.13441797441097,0.329723808148217,-0.717173550897316,7.9543942565113,-10.4971272460739,-2.65591651418945,680.615713795324,760.469568180573
0.7,0.693505132438619,0.00396194592233262,12.8920716411544,-0.182706027790075,-0.486470337774328,-0.494278945738061,-8.85961722434653,-9.36728751193805,2.36986906915453,690.453633925358,760.469568180573
0.71,0.607342833116004,-0.0151325905761701,12.9390685266173,0.764510535307952,-0.56736374881004,0.217238782843068,-11.6735261172794,5.63318370766389,1.18021414823295,699.133793694175,760.469568180573
0.72,0.530106739346582,0.00879362788893137,13.0336302248178,-0.438725803154301,-0.0178954947989763,0.529877565346953,-1.09409612621467,12.9950356226614,0.0503469431887796,706.810032746299,760.469568180573
0.73,0.456680261988009,-0.0273170017577681,13.3867553090868,1.36450129123201,0.376588979425975,0.259776482479405,12.1598841768311,5.76231709342615,-1.02668441200547,713.533761126637,760.469568180573
0.74,0.428907941309431,0.00279394159035851,11.8328088813431,-0.14299707875777,0.377854697268436,-0.202967130294744,10.527217635599,-5.40495171483142,-2.05721149889181,719.53027335535,760.469568180573
0.75,0.382284772532784,0.00860364000834375,11.5599908000559,-0.433704272433572,0.0277446145727308,-0.381373709495091,1.52971003840909,-11.4665371360186,-3.04646939260143,724.820341453012,760.469568180573
0.76,0.292370706553943,0.0208037933423488,13.7580695347566,-1.04455671654311,-0.234736139905005,-0.175534533613135,-9.72217715260497,-9.79054888505435,2.28392060777236,729.472971825998,760.469568180573
0.77,0.274070740380139,0.0168861276538316,12.6344010756272,-0.844258444804262,-0.264711904912883,0.0729898584534314,-12.5372863613626,1.77688310100127,1.36328311287065,733.595041203469,760.469568180573
0.78,0.256457706860733,-0.0183496706815142,11.7325392820071,0.924799173710513,-0.132744184320882,0.220195929461399,-4.50073796764105,10.8743316696784,0.471080602032837,737.214385880465,760.469568180573
0.79,0.224012943709085,0.0202824961489213,11.7877500967028,-1.00259852581169,-0.0894739172623612,-0.206367625195836,-2.74261431545847,-11.50801124708,2.82278465892052,740.387086620387,760.469568180573
0.8,0.152713443781974,0.0257713430500329,13.9544012705961,-1.2727923310095,-0.150456761332232,-0.0367194907885237,-12.3136345505637,-6.68728041088854,1.97735151009494,743.213354940388,760.469568180573
0.81,0.121606616421548,0.0271889189441216,14.3023073904384,-1.33845408443576,-0.0999747412439972,0.0743804919588687,-13.6065121081522,4.60546243904322,1.15111422703405,745.650338272614,760.469568180573
0.82,0.114484964721897,0.0337172188141093,13.5701297752201,-1.66134848745151,-0.00660733206574787,0.119163757724005,-6.11379301388574,12.2282474580961,0.341805320561885,747.836674101951,760.469568180573
0.83,0.0454934491579047,0.0401858108561192,16.0470700536113,-1.98834682621426,0.0560275007346637,0.0233553521034025,5.22496254092123,15.3023444887636,-0.452315155771705,749.789435491796,760.469568180573
0.84,0.0779014206936007,-0.0328885960185729,13.5731666441145,1.62017787279405,0.0625946103207598,0.0568524920557269,13.3427993002832,2.97078035552199,-1.23291521959145,751.527110323519,760.469568180573
0.85,0.0438825895551164,-0.0371649298967012,14.5366551817002,1.82832161159837,0.0553954010750468,0.0154357772730832,12.4438229229265,-7.73358745020304,-2.00174419814579,752.986646586462,760.469568180573
0.86,0.0765984647141448,-0.0402733071155979,12.2851806178135,1.98984948163354,0.0658654308327657,-0.0561338497148157,2.72040412040652,-12.1443223439405,-2.76064729095075,754.231068779054,760.469568180573
0.87,0.0171443334391914,-0.0295562764211369,14.6469190662329,1.46032353696295,0.0213881647933182,-0.0266467268483522,-6.64243927535702,-13.1355541732574,2.77278156078738,755.474733750017,760.469568180573
0.88,0.0498431004308288,0.0197489782576362,12.4966747318978,-0.993304398028875,-0.0534281875926145,-0.00444809772224792,-10.7547160572597,-6.44124332017638,2.03110456710236,756.493370810941,760.469568180573
0.89,0.0256507927299956,-0.0167296734145912,13.2720624027366,0.844152368949899,-0.0292237769774791,-0.00915510783151343,-12.5470754853846,4.40807559011847,1.29646156459897,757.337100438574,760.469568180573
0.9,0.0351256870791576,0.0167952271941646,12.4187069008707,-0.822606119615826,-0.0047165259171375,0.0386477416230169,-7.36854081428849,10.0302327084633,0.567450877118695,758.116158229621,760.469568180573
0.91,0.0271655049692394,0.0166623105592042,12.453207674352,-0.811042489147016,0.0206828763857353,0.0242449144732979,1.13479042978984,12.4278888786551,-0.156092836358303,758.837750729778,760.469568180573
0.92,-0.0369107178552784,0.00235700841811294,15.3174838295396,-0.117068861072828,-0.0268055859439494,-0.0254836642474462,11.676285162326,9.91480614003548,-0.874444159224247,759.487243948074,760.469568180573
0.93,0.0221721767095254,-0.00789430272149989,12.0758088988445,0.361831340749633,0.022309222595984,0.00749826797733571,12.0674520159439,-0.576787936292099,-1.5886026137493,760.041939316025,760.469568180573
0.94,-0.000607387314668247,0.0144713135335695,12.9986502369867,-0.754418737722302,-0.010082886498639,-0.0103982322820976,10.2051054301607,-8.08640085419004,-2.29885160837623,760.46657074661,760.469568180573
0.95,0.00155368813700959,0.0176855018510803,12.6671021111357,-0.904447405624947,-0.0173131803112697,-0.00392997583467288,2.60835717147084,-12.4285950078646,-3.00600776247487,760.912771995186,760.469568180573
0.96,0.0106164353281013,0.0311918676065632,11.9755600440734,-1.56574815273777,-0.0320032838958377,0.00783780095074762,-5.12494121914033,-10.936205152948,2.57335357898124,761.387480308965,760.469568180573
0.97,0.0125161147181681,0.0209018406609542,11.7216222193016,-1.03662956678772,-0.0181591465063127,0.0162414737267446,-10.8848495761997,-4.47113833539823,1.87234221201768,761.695345734679,760.469568180573
