t,iq,id,vq,vd,ia,ib,va,vb,theta_e,omega,r
0,0,0,0,0,0,0,0,0,0,0,0
0.01,0.000416082516593389,0.000214638488725372,-0.0197483260143038,-0.0107344800780866,0.000297791232241397,-0.000361268215398407,-0.013918234777625,0.0176495944312887,-1.97596135370748,-0.00417918847107993,0
0.02,0.000592769008753661,0.000292455872965509,-0.0283934988571928,-0.0146262732427855,0.000429482196916161,-0.000502444601824802,-0.0203285979782181,0.024634665627242,-1.97599560845547,-0.00491810438543701,0
0.03,0.000669114933869334,0.000328746759457266,-0.0322838367833279,-0.016441248356964,0.000485320509479864,-0.000565909206197268,-0.0231874866030593,0.0278370477964326,-1.97603002653751,-0.00446205853441345,0
0.04,0.000666503248588304,0.000332912922086648,-0.032429466013403,-0.0166496120176062,0.0004812620714215,-0.000568721735721539,-0.0232383955805183,0.0280865949715273,-1.97605786359694,-0.00333089199280288,0
0.05,0.000666307262918443,0.000342685616417973,-0.0326205240113253,-0.0171383702104134,0.000477216947158673,-0.000577635512812525,-0.0232206840215606,0.0286115737737979,-1.97607870674825,-0.00250476607732142,0
0.06,0.000654482410686714,0.000346052467601375,-0.0322135851271183,-0.0173067420708804,0.000465013875193591,-0.000576074328631933,-0.0227798953249055,0.0286062013702698,-1.9760937426396,-0.00177042389526101,0
0.07,0.000645560296946797,0.000350281185153751,-0.0318920597393405,-0.0175182339195356,0.000455141561316259,-0.000576447018232683,-0.0224007464695487,0.0286740048072158,-1.97610358530911,-0.00127572320415541,0
0.08,0.000631394430032941,0.000348668879551598,-0.031299385837753,-0.0174375983368831,0.00044275510674486,-0.000569382849492094,-0.0218876845779515,0.0283663648251781,-1.97611064892385,-0.000828748999307447,0
0.09,0.000621218990747707,0.000348112884879198,-0.0308669945831681,-0.0174097979620791,0.000433620855489187,-0.000564861548319004,-0.0215011648164996,0.0281704158863773,-1.97611502918846,-0.000535099160953903,0
0.1,0.000614300693261273,0.000347921066553918,-0.0305698106569117,-0.0174001964464812,0.000427337250193155,-0.000561958436977904,-0.0212317714821022,0.0280444654024169,-1.97611767490368,-0.000348584288678084,0
0.11,0.000609784174499747,0.000347854840286791,-0.030374172861311,-0.0173968824536385,0.000423211919867035,-0.000560117309377013,-0.0210532482574794,0.0279643100026348,-1.97611923375509,-0.000233474583215968,0
0.12,0.000606930368238596,0.000347831948678659,-0.0302496951415697,-0.0173957456100329,0.000420597868524903,-0.000558971349358927,-0.0209392795905185,0.0279142005387397,-1.97612012988975,-0.000164253502018481,0
0.13,0.000624860264956647,0.000358259359259664,-0.0310961758424302,-0.01791723361122,0.000432962662321106,-0.000575624402066709,-0.0215115112902866,0.0287272395873715,-1.97612122497781,-0.000333346136370262,0
0.14,0.000635246192282642,0.000364287007315913,-0.0316729146980984,-0.0182186988884716,0.000440129465901115,-0.000585259602018095,-0.0219226070060234,0.0292317262015309,-1.97612257620733,-0.000402960148286936,0
0.15,0.00061618633661484,0.000353494735631729,-0.0307167832274725,-0.0176789529633189,0.000426868836878027,-0.00056782666866973,-0.021256743409063,0.0283587201644227,-1.9761238344325,-0.00012747053424992,0
0.16,0.000607139816203747,0.000349775340807033,-0.0302943891913526,-0.0174929384961238,0.000420021989893647,-0.00056084139777871,-0.0209419253895727,0.0280212182940692,-1.97612377573666,-2.26366825265893e-05,0
0.17,0.000603215452981897,0.000348493555417206,-0.03010657140776,-0.0174288296487745,0.000416921317793025,-0.000558115808460223,-0.0207946192185329,0.0278882332967289,-1.97612327441261,4.03248179513663e-06,0
0.18,0.000601781078802989,0.000348051860790987,-0.0300342798845572,-0.0174067358368722,0.000415777647133516,-0.000557144068217077,-0.0207369128550917,0.0278394120972211,-1.97612271343229,-1.1496503158225e-06,0
0.19,0.000601469436410617,0.000347899681654912,-0.0300151367043451,-0.0173991359544958,0.000415551529072579,-0.000556881134639283,-0.0207223308434697,0.0278248695910212,-1.97612223571239,-1.63410529429502e-05,0
0.2,0.000601602263823337,0.000347847267888544,-0.0300178426783224,-0.0173965110494256,0.000415694462550373,-0.000556885194110819,-0.020725862645671,0.0278235169118873,-1.97612187506108,-3.21681916925616e-05,0
0.21,0.000601863498955195,0.000347829226517552,-0.0300275640785683,-0.0173956070109662,0.000415941786150748,-0.000556971518776422,-0.020735159895977,0.0278265141881043,-1.97612162145763,-4.52856016780101e-05,0
0.22,0.00060212060190024,0.000347823023373205,-0.0300378976040244,-0.0173952951339,0.000416180597725627,-0.000557067127820269,-0.0207447838436591,0.027830298750556,-1.97612145164328,-5.50426607384621e-05,0
0.23,0.000602328752395513,0.00034782089473159,-0.0300465277749359,-0.0173951885155274,0.000416372783059358,-0.000557147203440549,-0.0207527598387899,0.0278336015257501,-1.97612134210478,-6.18371216371665e-05,0
0.24,0.000602481489263361,0.000347820166753862,-0.0300529681751683,-0.0173951518635645,0.000416513469543806,-0.000557206732725174,-0.0207586947606454,0.0278361059835693,-1.97612127359168,-6.63541508352693e-05,0
0.25,0.000602586903324839,0.000347819919227617,-0.0300574595895866,-0.0173951386014545,0.000416610463204295,-0.000557248054477382,-0.0207628286456746,0.0278378639729021,-1.97612123188349,-6.92511043374576e-05,0
0.26,0.000605175529437811,0.000349376130472188,-0.030175966977786,-0.0174729663570195,0.000418375829358293,-0.000559698818457583,-0.0208410513675184,0.0279561104993958,-1.97612100619635,-0.000108833021125888,0
0.27,0.00060089968290936,0.000346303224325191,-0.0299809051214773,-0.0173192876550944,0.000415657885194277,-0.0005551890439971,-0.0207223801599386,0.0277379768059949,-1.97612145683391,-4.03759377060559e-05,0
0.28,0.000599995410310802,0.000345950727146223,-0.0298610440502402,-0.0173016591618037,0.000414965868628602,-0.000554508544461073,-0.0206191816898431,0.0276745136897263,-1.97612147337222,-2.9011031418297e-05,0
0.29,0.000601386805664658,0.000347175639500507,-0.0300015847548562,-0.0173629182134315,0.000415761644882411,-0.000556182766125308,-0.0207241856626331,0.0277862222209109,-1.97612124997149,-5.43216410784289e-05,0
0.3,0.000590295576576111,0.000342152636385961,-0.0294716001667301,-0.0171117115196332,0.000407550478959078,-0.000547192746124629,-0.0203362351517301,0.0273463604044906,-1.97611991332502,2.42205579166323e-05,0
0.31,0.000598022176273191,0.000345866834304969,-0.0298291362483459,-0.0172974633998241,0.000413186617434709,-0.000553652607290463,-0.0205915646406169,0.0276580381632887,-1.97611963174319,-7.84280931904834e-05,0
0.32,0.000601560854225873,0.000347146860470538,-0.0299959222678337,-0.0173614818320265,0.000415933734236319,-0.000556224354730844,-0.0207195880879327,0.0277826397876103,-1.97611982047064,-0.000112883057928162,0
0.33,0.000603002503912446,0.000347587971626084,-0.0300661512227031,-0.017383545302151,0.000417084460938707,-0.000557198322132509,-0.0207754179653142,0.0278306145276184,-1.97612013622944,-0.000117479614358593,0
0.34,0.000603455366596105,0.000347739965525912,-0.0300901357457989,-0.0173911491860131,0.000417440528781025,-0.000557516697533464,-0.0207944524169084,0.0278470660553621,-1.9761204373043,-0.000110943716597107,0
0.35,0.000603483832582498,0.000347792325985041,-0.0300937481537506,-0.0173937695076064,0.000417445907711117,-0.000557576140395002,-0.0207967321990519,0.027850903494609,-1.97612067761193,-0.00010178369638067,0
0.36,0.000603361122971454,0.000347810355716751,-0.0300896843580255,-0.0173946589927339,0.000417325933751341,-0.000557544395789034,-0.0207926420638087,0.0278501221226306,-1.97612085252776,-9.34150117680144e-05,0
0.37,0.000603208852022229,0.00034781655901611,-0.0300837144327998,-0.0173949693282215,0.000417183487652202,-0.000557490103512275,-0.0207870301416762,0.027848055765045,-1.97612097255923,-8.6867366299181e-05,0
0.38,0.000603074625257603,0.000347818690218874,-0.0300781909217202,-0.0173950773879073,0.000417059252323925,-0.00055743916703635,-0.0207819093687977,0.0278459786942714,-1.97612105148036,-8.21583797021519e-05,0
0.39,0.000602971481316799,0.000347819420551246,-0.030073840526885,-0.0173951140833387,0.000416964149740398,-0.000557399187679034,-0.0207778956009727,0.0278442980231852,-1.97612110164134,-7.89538946631064e-05,0
0.4,0.000602898081467419,0.000347819669731971,-0.0300706925770835,-0.0173951259752725,0.000416896581637992,-0.000557370486757336,-0.0207749971640966,0.0278430683042089,-1.97612113261711,-7.68604498376778e-05,0
0.41,0.000602848546752143,0.000347819754121483,-0.0300685389588695,-0.0173951305366785,0.000416851016840432,-0.000557351039684504,-0.0207730157266081,0.0278422236743266,-1.97612115125455,-7.55369681484749e-05,0
0.42,0.000602816357917062,0.000347819782348213,-0.0300671200772421,-0.0173951321474409,0.000416821418898701,-0.000557338377570057,-0.0207717108710314,0.0278416658922648,-1.97612116219453,-7.47235241127521e-05,0
0.43,0.000602796159860116,0.00034781979159535,-0.0300662155613522,-0.0173951337301897,0.000416802850264321,-0.000557330424235994,-0.0207708788455919,0.0278413108106393,-1.97612116845952,-7.42362337644208e-05,0
0.44,0.000602783761628355,0.000347819794519736,-0.0300656479223196,-0.0173951338394648,0.000416791453505711,-0.000557325539543252,-0.0207703570594552,0.0278410871537825,-1.97612117195557,-7.39514242800581e-05,0
0.45,0.000602776369255428,0.000347819795388799,-0.0300652983618448,-0.0173951339369909,0.000416784658705501,-0.00055732262619133,-0.0207700357311157,0.0278409494450311,-1.97612117385105,-7.37890412463269e-05,0
0.46,0.000602772061888525,0.000347819795617788,-0.0300650839741703,-0.017395134027268,0.000416780699701654,-0.000557320928346625,-0.0207698386510765,0.027840865011863,-1.9761211748448,-7.36988637410509e-05,0
0.47,0.000602769617166769,0.000347819795662899,-0.0300649516951465,-0.0173951341131664,0.000416778452769009,-0.000557319964600072,-0.0207697170422743,0.027840812941263,-1.97612117534409,-7.36502370218459e-05,0
0.48,0.000602768278390569,0.000347819795663447,-0.03006486851142,-0.017395134196465,0.000416777222335879,-0.000557319436796602,-0.020769640559127,0.0278407802219454,-1.9761211755808,-7.36249164163073e-05,0
0.49,0.000602767579898639,0.000347819795657595,-0.0300648139438255,-0.0173951342782583,0.000416776580384762,-0.000557319161406583,-0.0207695903777944,0.0278407587822981,-1.97612117568353,-7.36123067175823e-05,0
0.5,0.000602767172445013,0.0003478197956545,-0.0300647721198355,-0.0173951343593675,0.000416776205925725,-0.000557319000753295,-0.0207695519095972,0.0278407423656883,-1.9761211757209,-7.36064073846325e-05,0
0.51,4.76064172622654,0.0200641558703196,1.96842013824985,-0.993725169675978,-0.788108039569812,4.69499711755028,-1.31335295274808,1.77123447770842,0.170525305332741,52.836898761007,5027.51485346531
0.52,4.7392530513871,-0.0143259679006109,3.03845622921349,0.739239711149921,-3.33886765537222,3.36343388493775,-1.60788974852985,2.68204812856889,0.778710014237939,113.310058563156,5027.51485346531
0.53,4.70550416305552,-0.00551072947310649,4.72661805985195,0.311627036472322,-4.53311059442145,-1.26202540997245,-4.63815660590752,-0.962046252867062,1.84115113043277,177.766080298223,5027.51485346531
0.54,4.68269993883548,0.00877032243361375,5.86772338879549,-0.39889130447962,1.1386496934953,-4.54216165621926,1.82419267512018,-5.59120855667582,-2.89409690600722,242.93149650538,5027.51485346531
0.55,4.72456512703147,0.032919763812657,3.77544518463456,-1.58427430965016,3.70193462083009,2.93569061951544,1.94874486595011,3.60087557100087,-0.893361237205984,303.592019913998,5027.51485346531
0.56,4.62880102957231,0.0216739506273509,8.56484987656349,-1.02086497263832,-4.62883496484075,0.0124739638125409,-8.56280394588203,-1.03788596908171,1.5727838717344,367.610785847811,5027.51485346531
0.57,4.65377777297562,0.0529529428947801,7.31727646908307,-2.58349730602197,4.53117934570331,-1.06248073463704,7.70372587169074,0.932523967017671,-1.78973950021044,430.825344250632,5027.51485346531
0.58,4.62489800334584,0.00374652320370616,8.76267238935921,-0.113589322258894,-4.62407069438097,-0.0875545039134066,-8.75872240692889,-0.286551453898361,1.59053864934557,492.635866806276,5027.51485346531
0.59,4.62474756014903,0.0317132637896451,8.77168555755766,-1.49224580708902,3.5099873816542,3.01152524592321,5.63842305114719,6.88312796377726,-0.854826166014105,554.67869731345,5027.51485346531
0.6,4.64023913340965,0.0604463854651414,7.9987568640139,-2.93195763830193,1.30103305488734,-4.45452421374412,5.14575331095851,-6.7895294259003,-2.84440100785487,617.08062548097,5027.51485346531
0.61,4.60554034559777,0.0806605155492539,9.73545044851968,-3.93153755234337,-4.37850917690096,-1.43044237265666,-7.91358985685767,-6.90007815452169,1.90407363830049,679.154041009975,5027.51485346531
0.62,4.58435994226716,0.0396982849419185,10.796358923999,-1.85309804989013,-3.33188058596639,3.14904807758652,-9.17150111429091,5.98990030875973,0.822260821315487,740.210196063337,5027.51485346531
0.63,4.52586451970927,0.100102455782922,13.7231141981909,-4.86775181592015,-0.76397028024015,4.46204208444147,-7.39303828018887,12.5443954029536,0.191685430590147,801.969988624026,5027.51485346531
0.64,4.54633093157507,0.112298183043532,12.7018775941658,-5.46927188763286,0.0507393811027647,4.54743458848134,-5.64072947073247,12.6266702038199,0.0135384756822829,863.452877909274,5027.51485346531
0.65,4.54389918955328,0.087726391103006,12.8256926409212,-4.25585139212803,-1.19062224430923,4.3860157815351,-7.6832696001935,11.1165656136237,0.284374956636851,925.148647224171,5027.51485346531
0.66,4.48545928201175,0.114421214368831,15.7499834143943,-5.53422091238418,-3.72414861279498,2.50262947611113,-16.2609106633071,3.77787811618016,1.00461403427066,985.748958321747,5027.51485346531
0.67,4.4869682186203,0.101259920154586,15.6769791020845,-4.86655967798791,-3.75566122852425,-2.45726394652632,-10.1658712299218,-12.8882170606822,2.17274003108159,1046.63946334734,5027.51485346531
0.68,4.46960863610131,0.126954547696301,16.5475162054199,-6.14263526829136,2.5883871229505,-3.64606238548331,14.8640091826499,-9.51911191372342,-2.4958482826766,1107.50770293805,5027.51485346531
0.69,4.43978836011181,0.149731117551692,18.0412212890852,-7.26858131254832,2.010554207837,3.96128916736667,1.02970116522726,19.4231216700405,-0.435957674774682,1168.2113760638,5027.51485346531
0.7,4.4148757057032,0.0944833473520819,19.2896055402381,-4.55782454993414,-3.92473690632167,-2.02397994453793,-14.7758262767946,-13.2112680831157,2.06832138658085,1229.19631992475,5027.51485346531
0.71,4.45397038420162,0.0729254914000212,17.3377422406425,-3.45466218782644,4.27141456332862,1.2641945810773,15.5075851751093,8.48803857623698,-1.26667263040868,1289.68629666949,5027.51485346531
0.72,4.41861621961302,0.101745491983254,19.108409037093,-4.8390635696354,-3.81385200601395,-2.23361910754488,-13.7210633235198,-14.1520406101661,2.12362717381515,1349.54823888102,5027.51485346531
0.73,4.39510223256964,0.140043642538582,20.2871693293895,-6.803396561588,1.54674069230883,4.11632470625315,0.0858758851616424,21.3973846417243,-0.327581995316417,1410.18877258149,5027.51485346531
0.74,4.32309450176376,0.124625830284721,23.8907201182399,-5.97352930103385,3.02448170017501,-3.09147021885391,21.3401979332532,-12.2900574550309,-2.33832719353761,1469.94263837932,5027.51485346531
0.75,4.36362181718536,0.173533027865914,21.8676092524827,-8.40714192984729,-3.15507705461198,-3.01940355941986,-9.13593346574838,-21.5732957509344,2.37397193468055,1529.71031709585,5027.51485346531
0.76,4.35054971870145,0.125930201189063,22.5245357754693,-6.03509226050311,-4.07645505984639,1.52500997226823,-23.2663008684165,1.56725696473264,1.24175091399689,1589.6497806214,5027.51485346531
0.77,4.33753082819603,0.121257030494142,23.1789178851299,-5.7970823623662,-2.15451103189699,3.76655799987593,-17.0161495127209,16.7725684974717,0.54753278405074,1649.34626592921,5027.51485346531
0.78,4.30090750817651,0.154156237683108,25.0136009831907,-7.42236875479635,-3.40112212602912,-2.63703201029886,-14.450989067494,-21.7241963499142,2.26614726154451,1708.82665164574,5027.51485346531
0.79,4.28362005505766,0.208995480621318,25.8815958621175,-10.1366964537107,-2.909807986157,-3.1505709594785,-8.83983373918412,-26.3527410116715,2.44465178471165,1768.19003772238,5027.51485346531
0.8,4.22107805970273,0.154449280776884,29.0124730704381,-7.49716136916117,-0.506119789204927,-4.19347079701426,5.05019998322881,-29.5368668343061,3.05805496707852,1827.74480479419,5027.51485346531
0.81,4.26658864102847,0.106733220913571,26.7408185628175,-5.04194552291457,3.44309055579867,-2.52196313152467,24.8379073640946,-11.116247111243,-2.17797316469849,1886.61660597739,5027.51485346531
0.82,4.14902115358477,0.0993045146652918,32.6231525789221,-4.72928215287558,2.74414688816223,3.11350217210722,17.357140948489,28.0243795999738,-0.69849644894779,1945.70726948783,5027.51485346531
0.83,4.23120332336191,0.146073693320397,28.5181819133073,-6.96861977880205,-3.91136959696116,1.620372476771,-29.1510985608867,3.47301223082601,1.21255628537104,2004.19914670508,5027.51485346531
0.84,4.2444612430578,0.238249814052047,27.859493016999,-11.6222800478662,1.48161907474707,-3.98459773817399,21.8072886247076,-20.8727311944064,-2.72952520878275,2063.04316343516,5027.51485346531
0.85,4.21623790674092,0.239618800184718,29.2749835459084,-11.7139144290296,0.0676190003569644,4.22250008009849,-12.8970656538859,28.7733583438429,0.0407586982571141,2121.60141464454,5027.51485346531
0.86,4.14791286511717,0.213037882786851,32.6956537148707,-10.3894801405981,0.192445287624274,-4.148919267397,13.5281604603992,-31.5267496579066,-3.04392626798121,2179.94815768842,5027.51485346531
0.87,4.19813948528465,0.238871121774041,30.1888632970507,-11.6640438052486,-2.10696272236923,3.63897549280977,-26.3322598024279,18.8156710950265,0.581672345001408,2238.1166063266,5027.51485346531
0.88,4.13361941327963,0.258305420191072,33.4194898645443,-12.6029416631134,4.10035083721331,-0.583655853826939,34.3097096581366,9.92674491183231,-1.64978161817142,2296.09800997503,5027.51485346531
0.89,4.13796803958429,0.25247910285981,33.2067845023814,-12.2432422990147,4.14384281617472,0.122849130396274,31.9632168034332,15.1967197301491,-1.48021913343416,2353.85510019611,5027.51485346531
0.9,4.01480122436665,0.156786629018782,39.3699659077125,-7.56762177230722,0.954527260200609,-3.90283084795497,18.1135705341619,-35.7653698060999,-2.86269587211417,2411.84438921471,5027.51485346531
0.91,4.10856023997597,0.130571954778527,34.6869741110606,-6.16249055791338,-2.68583579413338,-3.11184870580785,-17.0277907126281,-30.8418029029545,2.46131227972368,2469.33996115763,5027.51485346531
0.92,4.10282162729406,0.30592031847151,34.978934789483,-15.0080767777286,-3.95549208912721,-1.13173092186157,-27.6310792877139,-26.1780768004292,1.92389333035624,2526.98630431174,5027.51485346531
0.93,4.02081558602789,0.221830436294482,39.0844054131612,-10.6702821673097,-3.96090859404537,-0.726202333326549,-35.4974985972986,-19.5287803348068,1.80723946903205,2584.04619455982,5027.51485346531
0.94,4.07779832390566,0.206864804448783,36.2404926666134,-9.93946499869947,-3.60577420785619,-1.91562641966709,-25.9998041565842,-27.1325718832273,2.10982909392731,2641.19423668003,5027.51485346531
0.95,4.04153053325278,0.275632269437911,38.0591346094515,-13.4008213744538,-1.49839769772466,-3.76360818080515,1.11963889004478,-40.3339329781546,2.83079566164436,2698.26976845436,5027.51485346531
0.96,4.07951733784602,0.0990807227668045,36.1651302079903,-4.55627597978382,2.93637971986688,-2.83371714187651,29.7089881468812,-21.1199506877578,-2.31412160119672,2755.12461229299,5027.51485346531
0.97,3.99855528809215,0.24377020753283,40.2185644324244,-11.7656695676397,2.9302210393358,2.73160629788484,19.1633842796354,37.2656491736153,-0.759574192468769,2811.76866178784,5027.51485346531
0.98,4.00610475638998,0.387060060264787,39.8464672426831,-18.8938423293155,-0.209807587160121,-4.0192874475201,20.6346943567624,-38.973421949968,-3.09742692184727,2868.28054739787,5027.51485346531
