t,iq,id,vq,vd,ia,ib,va,vb,theta_e,omega,r
0,0,0,0,0,0,0,0,0,0,0,0
0.01,0.000671329474796473,0.00038297986825182,-0.0328114204384278,-0.0191740687529367,0.00073055990315079,-0.000252267855909148,-0.0357905928276429,0.0127776245357068,-1.38485414233808,-0.00150904305981375,0
0.02,0.000743144628677878,0.000423988584610195,-0.0364295739291877,-0.0212271957430299,0.000808715386909805,-0.000279302133876312,-0.0397257862803737,0.0141269104966773,-1.38486539536666,-0.00161272440355768,0
0.03,0.000770550091834922,0.000439661834994424,-0.0377806807027628,-0.022011893269701,0.000838542551311649,-0.000289648688616436,-0.0411984978744969,0.0146487901400047,-1.38487690863636,-0.0016119102855725,0
0.04,0.0007543284074518,0.000430664376267,-0.0370178696212114,-0.0215614333036366,0.000820934184766467,-0.000283813698675786,-0.0403654105799725,0.0143475331019107,-1.38488766663263,-0.00151409687658201,0
0.05,0.000770330225135255,0.000439876883481364,-0.0378150447880251,-0.0220226455216598,0.000838360015019446,-0.000289918632714085,-0.0412339434068914,0.0146538881942746,-1.38489833038403,-0.00149157521583393,0
0.06,0.000770586484766707,0.000440176865661252,-0.0378490967724039,-0.0220376817814578,0.000838664314079317,-0.00029017472642934,-0.0412700367075104,0.0146627969688029,-1.38490863755562,-0.00143451602644899,0
0.07,0.000791461934331993,0.00045227757997324,-0.0388803680845363,-0.0226435037809038,0.000861413655800011,-0.000298217230294043,-0.0423953617720552,0.0150679987417505,-1.38491842779685,-0.00142818855658523,0
0.08,0.000770763275436641,0.000440579741711394,-0.0378983165004558,-0.0220578375309903,0.000838906886640603,-0.000290554248145279,-0.0413218492498457,0.0146743096834336,-1.38492802040172,-0.00132650587739506,0
0.09,0.00076980141244023,0.000440195119493454,-0.0378708632360916,-0.022038588260639,0.000837887868326424,-0.000290361633023769,-0.0412911780655466,0.0146608413376605,-1.38493712684069,-0.00127333641213615,0
0.1,0.000769523263589186,0.0004401810623497,-0.037875728362882,-0.0220378866379414,0.000837609376078732,-0.000290406532228976,-0.0412957017300398,0.0146596134024459,-1.38494585983509,-0.00122384240419058,0
0.11,0.000769278584392658,0.000440179200250409,-0.0378814673179805,-0.0220377947169626,0.000837366132918133,-0.000290456929991339,-0.0413012020632221,0.0146588086242746,-1.38495423773616,-0.00117641190554127,0
0.12,0.00076904455720312,0.000440177794326384,-0.0378870054461315,-0.0220377202897429,0.000837133540796141,-0.000290505518804546,-0.0413065132676328,0.0146580441708647,-1.38496227508621,-0.00113091113718531,0
0.13,0.000805749362164655,0.00046123988754711,-0.0396810215341904,-0.0230922020814696,0.000877095500414505,-0.000304430208169045,-0.0432643501751136,0.0153632441526346,-1.38497030566599,-0.00117115407907303,0
0.14,0.000846343295706511,0.000484865106193347,-0.0417882554472507,-0.0242750026212819,0.000921353066341516,-0.000320155700455778,-0.0455537142894665,0.0161367022660015,-1.38497798583488,-0.00122238061477159,0
0.15,0.000771023531494931,0.000441637364899186,-0.0380314045416323,-0.0221107963106144,0.000839341371556724,-0.000291593741680595,-0.0414615877761951,0.01470414172863,-1.38498542435063,-0.00100601478750843,0
0.16,0.000768263502321288,0.000440220538417094,-0.037911997167256,-0.0220398661411729,0.00083636513020471,-0.000290716873299204,-0.04133103249478,0.0146567725521782,-1.3849922065212,-0.000961674399383852,0
0.17,0.000767987004641824,0.000440173050487657,-0.037912232904914,-0.0220374908563332,0.000836082730746112,-0.000290726711917662,-0.0413307301997199,0.0146546630202599,-1.38499870093077,-0.000924705668803395,0
0.18,0.000767802651173691,0.000440170452005995,-0.0379163737629438,-0.0220373592190049,0.000835899258683639,-0.000290763421531412,-0.0413346841789767,0.0146540262215872,-1.38500493094145,-0.000889429673202413,0
0.19,0.000767628542304651,0.000440169365942751,-0.0379204779375642,-0.0220373032545723,0.000835726207518541,-0.000290799511247671,-0.0413386198048301,0.0146534601503871,-1.38501090769891,-0.000855594069160452,0
0.2,0.000767461651185056,0.000440168370003669,-0.0379244204809838,-0.0220372487559888,0.000835560336806429,-0.000290834151274066,-0.0413424004196044,0.0146529153787528,-1.38501664151086,-0.000823134045139112,0
0.21,0.000767301570360231,0.000440167415966516,-0.0379282024518725,-0.0220371942677227,0.000835401234370458,-0.000290867377971872,-0.0413460266492588,0.0146523906835149,-1.38502214225357,-0.000791993472541517,0
0.22,0.000767147798615751,0.000440166500675675,-0.0379318192218717,-0.0220371566237504,0.000835248404324634,-0.000290899288949311,-0.0413494969146881,0.0146519038504443,-1.38502741940002,-0.000762118710668344,0
0.23,0.000767000523473691,0.000440165622515157,-0.0379352996000963,-0.0220371021496162,0.000835102028061154,-0.000290929855774925,-0.0413528331755304,0.0146514168345057,-1.38503248203982,-0.00073345830626251,0
0.24,0.00076685903354511,0.000440164779980042,-0.0379386268602987,-0.0220370659665643,0.000834961403652131,-0.000290959215829095,-0.0413560253517371,0.0146509675982907,-1.38503733889184,-0.000705962897790125,0
0.25,0.00076672336438193,0.000440163971628153,-0.0379418206693651,-0.0220370297840582,0.000834826563370529,-0.000290987368281799,-0.0413590892703193,0.0146505348755425,-1.38504199832142,-0.000679585130184906,0
0.26,0.000774393952581955,0.000444599381484876,-0.0383225063782878,-0.0222590934338109,0.000843183059362708,-0.000293933550681072,-0.0417741729787535,0.014798655599419,-1.38504643277918,-0.00067257819186659,0
0.27,0.000747959945408221,0.000429516903854508,-0.0370518727293501,-0.0215039834074144,0.000814417028448881,-0.00028399604645897,-0.0403858771656496,0.0142913785444012,-1.3850508507419,-0.000586533126609508,0
0.28,0.000744355164396334,0.000427420334407756,-0.0367686701690176,-0.0213990170266122,0.00081048589391721,-0.000282604615655782,-0.040088102095155,0.0142406848891363,-1.38505498039491,-0.000555069660308175,0
0.29,0.000765483281485179,0.000439743776392074,-0.0379170062591989,-0.0220159930009879,0.000833525316709009,-0.000290817450497777,-0.0413305703287308,0.0146351381196597,-1.38505881908166,-0.000582619293806619,0
0.3,0.000761747193585149,0.000437724745197016,-0.0377430556448133,-0.0219149028561598,0.000829479672841963,-0.000289525839666572,-0.0411408949387444,0.0145680465485797,-1.38506212846618,-0.000555439187433257,0
0.31,0.000765881603007131,0.000440080078827895,-0.0379508354468826,-0.0220328370229125,0.000833976872459781,-0.000291080198241209,-0.0413668266272313,0.0146457322516552,-1.38506575955006,-0.000544721518577843,0
0.32,0.000765924402378927,0.000440156627848629,-0.037960238706347,-0.0220366623274415,0.000834032051611738,-0.000291150449223263,-0.0413767232457218,0.0146479002803635,-1.38506926302241,-0.000525223485349082,0
0.33,0.000765831457762296,0.000440158571194308,-0.0379627711032008,-0.0220367527217612,0.000833940085451642,-0.000291172325901771,-0.0413791795419109,0.0146476605911105,-1.38507262476666,-0.000506203570397539,0
0.34,0.000765737720773317,0.000440158094106253,-0.0379649776748603,-0.022036739154276,0.00083384693324788,-0.000291191855544534,-0.0413812984222334,0.0146473732558538,-1.38507584988497,-0.000487946053625788,0
0.35,0.000765647686410037,0.000440157559701733,-0.0379670878233894,-0.0220367029621851,0.000833757447475057,-0.000291210535261868,-0.0413833202822858,0.014647076078395,-1.38507894390835,-0.000470430307361949,0
0.36,0.000765561167165968,0.000440157044482545,-0.0379691033421265,-0.0220366850210576,0.000833671456439301,-0.000291228479374018,-0.0413852543540692,0.0146468091191011,-1.38508191216533,-0.000453626533476804,0
0.37,0.0007654782567967,0.000440156550099637,-0.0379710399067193,-0.0220366670742706,0.000833589051112547,-0.000291245676516258,-0.0413871125973943,0.0146465517508565,-1.38508475976759,-0.00043750580358543,0
0.38,0.000765398816226321,0.000440156075787716,-0.0379729010973568,-0.0220366308739321,0.0008335100932522,-0.000291262155763847,-0.0413888950894933,0.0146462855801221,-1.38508749161948,-0.00042204035354211,0
0.39,0.000765322425112935,0.000440155620735112,-0.0379746760448706,-0.0220366114635185,0.000833434168234001,-0.000291277997908449,-0.0413905975495544,0.0146460472482429,-1.38509011242655,-0.00040720354736673,0
0.4,0.000765249177214669,0.00044015518416079,-0.0379763791310486,-0.0220365935031651,0.000833361366754708,-0.000291293188681218,-0.041392231213333,0.0146458192092783,-1.3850926267021,-0.000392969831770566,0
0.41,0.000765178897906935,0.000440154765315052,-0.0379780109099046,-0.0220365755379245,0.000833291515801164,-0.00029130776324262,-0.041393796293073,0.0146456001092158,-1.38509503877683,-0.000379314692163686,0
0.42,0.000765111739151246,0.000440154363478818,-0.037979587901443,-0.0220365393260291,0.00083322476338771,-0.000291321696332392,-0.0413953055957183,0.0146453691407269,-1.38509735280458,-0.000366214610431075,0
0.43,0.000765047047778438,0.000440153977961955,-0.0379810860743104,-0.0220365213529297,0.00083316046629393,-0.000291335111229521,-0.0413967421810384,0.0146451667630977,-1.38509957277115,-0.000353647024428807,0
0.44,0.000764985092165517,0.000440153608102109,-0.0379825270656059,-0.0220365033748577,0.000833098887053424,-0.000291347960952425,-0.041398123889551,0.0146449712087456,-1.38510170249999,-0.000341590289124716,0
0.45,0.00076492558127418,0.000440153253263954,-0.0379839041328308,-0.0220364853926174,0.000833039738451933,-0.000291360301699493,-0.0413994440409862,0.0146447838744167,-1.38510374565878,-0.000330023639319135,0
0.46,0.000764868363143602,0.000440152912837779,-0.0379852172833502,-0.0220364856415657,0.000832982870008895,-0.000291372163888897,-0.0414007059576319,0.0146446228255957,-1.38510570576677,-0.00031892715388226,0
0.47,0.000764813625280282,0.000440152586239185,-0.0379864831572644,-0.0220364676492767,0.000832928464921292,-0.000291383515167333,-0.0414019192102177,0.0146444492837852,-1.38510758619967,-0.000308281721443683,0
0.48,0.00076476109930616,0.000440152272906359,-0.0379876953052292,-0.0220364481977665,0.000832876258382386,-0.000291394407255112,-0.0414030805111748,0.0146442810667152,-1.38510939019599,-0.000298069007477001,0
0.49,0.000764710727017045,0.000440151972300914,-0.0379888574915336,-0.0220364301975001,0.000832826192188265,-0.000291404852980381,-0.0414041940518255,0.0146441204679598,-1.38511112086306,-0.000288271422723548,0
0.5,0.000764662450203549,0.000440151683906478,-0.0379899731850317,-0.0220364121932332,0.000832778208170501,-0.000291414865086415,-0.041405262928991,0.0146439655397924,-1.38511278118156,-0.000278872092896511,0
0.51,4.61845655234323,-0.0571929632572628,9.07844547925851,2.86869419467725,-0.546004922455982,4.58642459717612,1.89107614900704,9.33120622969512,0.106107454477906,32.7689228075917,5255.74474580222
0.52,4.61103534073231,-0.0105273692853084,9.45096166132454,0.53840042064407,-2.14774812213126,4.08031074096913,-3.90599219938121,8.62286357744045,0.482236334075536,69.879835441982,5255.74474580222
0.53,4.64122623825069,0.0477428295919125,7.94289670213597,-2.37211983223648,-4.18201621885791,2.01345492068074,-8.19867763563269,1.22402840909371,1.13238035550745,107.720907059031,5255.74474580222
0.54,4.6531073645456,0.00951817790702592,7.35038223470064,-0.451183975412623,-4.09585072608996,-2.20805470296539,-6.24802438934342,-3.89793242707486,2.06727458291837,147.960013815332,5255.74474580222
0.55,4.64412422519399,0.0294358860800683,7.80112017153566,-1.44801241438049,0.73179931660527,-4.5861995214599,2.70648996730592,-7.45849367766796,-2.97702283160962,189.400789702259,5255.74474580222
0.56,4.64065485760947,-0.0098019383122947,7.97623300253438,0.526255052885582,4.60553460065354,0.569933880052874,7.98143066508108,0.44045638820398,-1.44978469528154,226.917659076201,5255.74474580222
0.57,4.60615064072946,0.00131636886446135,9.70311145135475,-0.0209266204808099,-1.58944024609925,4.32322855768688,-3.37048550589819,9.09893604853813,0.352598173865079,265.685210498433,5255.74474580222
0.58,4.61662086536432,-0.00330726877877496,9.18134559561955,0.209618367565446,-2.93930265499316,-3.56001391217705,-6.01218043722113,-6.94224266332709,2.45069340209658,305.682013591841,5255.74474580222
0.59,4.57116494100941,-0.00215971213544108,11.4559103819141,0.16587520004386,4.54035487954282,0.529840683679328,11.3984699769402,1.15770438594258,-1.45509834852987,343.659353870116,5255.74474580222
0.6,4.55273153460869,0.057201257145778,12.3793958584539,-2.80725905576291,-4.24459806264242,1.64742942084073,-12.5787794409328,1.70424558172642,1.2131333142555,383.169146146237,5255.74474580222
0.61,4.56234355110309,0.0101840472472947,11.9006958385437,-0.455106320635935,3.8835357214214,-2.39441698405985,10.3819269368128,-5.83517577141378,-2.12106825357867,422.515741474013,5255.74474580222
0.62,4.55204949991722,0.0778927280182373,12.4173449244147,-3.8234869316027,-4.0531208032787,2.07350757915282,-12.8327524465697,2.03223323786522,1.11503524137208,460.274090156888,5255.74474580222
0.63,4.54781361066904,0.0438624402357881,12.6311012047156,-2.11892283981874,4.53130995363245,-0.389567266542657,12.7556582161263,1.1522738902897,-1.64691334308685,499.378577007702,5255.74474580222
0.64,4.53854252584781,0.00856702012745897,13.0966613567764,-0.352788228186254,-3.78380254153606,-2.50624818791518,-10.709683641525,-7.54650081338885,2.15770068000289,538.612709782461,5255.74474580222
0.65,4.58187795902648,-0.020749357413401,10.9319893569371,1.11699724045006,0.149385638661929,4.57948906519137,1.52212122049007,10.8829785043201,-0.0371375671359125,577.504985852972,5255.74474580222
0.66,4.53712804533027,0.0331604245101209,13.1715518887855,-1.57964437390482,4.2058859511883,-1.70210278158314,12.827266737133,-3.38323566448151,-1.94803536306406,616.259222491797,5255.74474580222
0.67,4.56888478244989,0.0648630011559848,11.5858703014886,-3.16109770407281,-1.97798332067061,-4.11904082856313,-1.99783070350951,-11.8420269302905,2.70810194116248,654.881278371966,5255.74474580222
0.68,4.50957608257746,0.0165759861164871,14.5535302211927,-0.737185725097368,-4.41040530484714,0.940678614005105,-14.3955693509118,2.26191683214629,1.36433453042462,693.375962010071,5255.74474580222
0.69,4.52958963180358,0.0395862861116694,13.5550811118727,-1.87701533141366,-1.3153621269505,4.33457861637955,-5.84066292611029,12.3753814925994,0.303365417120795,731.726707884609,5255.74474580222
0.7,4.5611154931779,0.0476872948127368,11.9810594006554,-2.2660607214299,2.12906470162023,4.03399703972484,3.46618783097291,11.6904387204098,-0.47516936795823,769.967138943321,5255.74474580222
0.71,4.51052986443013,0.0978471846062608,14.5126547079605,-4.76821644517415,3.77971143335112,2.46337881984202,9.29414145024576,12.1231996371973,-0.971511138619692,808.588988232931,5255.74474580222
0.72,4.52208275768323,0.0409921229344676,13.9374339638094,-1.94395591335974,4.20527757957417,1.66329591480574,12.1821368485741,7.04461296958513,-1.18508830298284,847.484330776308,5255.74474580222
0.73,4.48299781408711,0.0856999230800755,15.8940681538589,-4.15672909582034,4.06688992102517,1.88812612083771,12.4634726701688,10.7033475256812,-1.11702650522439,885.449903753192,5255.74474580222
0.74,4.52035374669953,0.0813233305730126,14.0286753370648,-3.95646757152532,3.19794009214506,3.1958395839665,6.89643773722619,12.8412037556401,-0.767738148314998,924.242540767763,5255.74474580222
0.75,4.46247935021431,0.0346567328726251,16.9249216143426,-1.59444067163527,0.639922098426067,4.41649439580404,0.717125542659535,16.9847267762267,-0.136126188980835,962.324123172306,5255.74474580222
0.76,4.48339696640225,0.0692598188325464,15.8815833793229,-3.34510692109781,-3.09014786631033,3.24909701997144,-13.5094019634614,8.99502582195219,0.775776424022383,1000.9734529154,5255.74474580222
0.77,4.45172806106401,0.115129343270673,17.4676363166059,-5.60219428306593,-4.14843190416123,-1.61915108371143,-13.9313419831288,-11.9340106344656,1.9687725132948,1038.77291612222,5255.74474580222
0.78,4.50146507876117,0.0520763638358733,14.983433829889,-2.45958997936499,1.28291800550723,-4.3150922578923,6.78518186082646,-13.5835996450413,-2.84103777127802,1077.3272142272,5255.74474580222
0.79,4.44207863074046,0.0552503044351637,17.9554042266057,-2.63108029457487,3.95932323343314,2.0146649078737,14.6780193262315,10.6712170400608,-1.08766387840041,1115.72159320258,5255.74474580222
0.8,4.46340343656498,0.114394520341574,16.8918550869291,-5.56479984644097,-3.55330009410947,2.70353745767021,-16.9557652555756,5.36691626603002,0.946009514420405,1153.68340399645,5255.74474580222
0.81,4.46506331265156,0.106368912244408,16.8116099969855,-5.13752703159881,0.420129373542603,-4.44652628924711,7.08134323393463,-16.0897169861486,-3.02356949184502,1191.65255531735,5255.74474580222
0.82,4.494623245185,0.114461663935992,15.3363878482046,-5.53751152259567,1.97925824149877,4.03698853133466,1.36607896653483,16.2481584910607,-0.430381266050669,1229.761593094,5255.74474580222
0.83,4.45606664866651,0.102649080098721,17.2670820848224,-4.94253953458374,-2.94777513500634,-3.34330503610446,-7.33657181895486,-16.3937651172705,2.44201511746909,1267.82240576735,5255.74474580222
0.84,4.42745590117833,0.136860379854258,18.7004877218711,-6.64945913327929,2.92360821199454,3.32770364413822,6.77414910445314,18.6556814861221,-0.689944370391478,1305.88375768432,5255.74474580222
0.85,4.44023378286538,0.127528040272168,18.0645039271214,-6.17624125436423,-1.85279390279585,-4.03721366802863,-1.37530258153903,-19.04155458397,2.7400514614205,1343.9928239247,5255.74474580222
0.86,4.41481250428393,0.04957632775072,19.3384824279828,-2.31991264603272,-0.678686334024001,4.36261528446688,-5.47527595625982,18.6917160931099,0.165560668839608,1382.23874997668,5255.74474580222
0.87,4.46303760299317,0.137873430299762,16.9302158139787,-6.72375404292325,3.70914333382841,-2.4859544359521,17.9171653380932,-3.28880862700356,-2.13037473914466,1420.18573344206,5255.74474580222
0.88,4.40889915992763,0.142743985110359,19.6401706039469,-6.93604201028715,1.49465031307348,-4.15027566425715,13.6954366600983,-15.6933105114837,-2.76355450485923,1457.84482006101,5255.74474580222
0.89,4.31448112038176,0.147484468693385,24.3641128884272,-7.17417344122926,-4.2515592687068,-0.748827611209488,-22.3512982026717,-12.0622647152229,1.77930860150571,1495.82815369613,5255.74474580222
0.9,4.34020732634304,0.0654807125979286,23.0809301165365,-3.08699649673109,-1.29004767944987,4.14457046557422,-10.1246134080745,20.9702428634556,0.316842555255294,1533.78027306556,5255.74474580222
0.91,4.35308816007119,0.167846162063967,22.4400331984187,-8.16564510043575,3.43170851274952,2.68345403295716,11.8574370892743,20.7276152879753,-0.868614588115632,1571.36292485495,5255.74474580222
0.92,4.34759763206657,0.151778384015601,22.7177636086276,-7.39835377751453,4.22456334460614,-1.03812638711067,23.75091239841,2.59356554530654,-1.77686091095827,1609.35812970109,5255.74474580222
0.93,4.33609593760328,0.133298355823837,23.2960226721435,-6.44785950944997,2.8027578059133,-3.31119995064585,20.3813580387611,-12.9953764505094,-2.40843257971429,1647.04460402033,5255.74474580222
0.94,4.41067911018475,0.11589843395479,19.5701137176218,-5.5603845453815,1.52283424960303,-4.14107455961002,12.4010935153822,-16.1282394214593,-2.76293228355033,1684.69103994645,5255.74474580222
0.95,4.32874277278956,0.107010381921849,23.6702074633879,-5.14997115360626,1.17916885476074,-4.16641644903377,11.9259564593637,-21.0848876395432,-2.84107214419863,1722.60662669336,5255.74474580222
0.96,4.326958067163,0.0770847346620451,23.7627177934234,-3.66223712659985,2.00165670088584,-3.83691003583661,14.5807168500737,-19.1175687219715,-2.64293516289477,1760.32431533742,5255.74474580222
0.97,4.31752170226763,0.162027496388073,24.2378844116007,-7.84665194811503,3.47769021882013,-2.56377013420871,24.4510911659786,-7.15465780718946,-2.16854783742801,1797.7980586896,5255.74474580222
0.98,4.31498903288241,0.193696899959389,24.3678941313515,-9.42567517380216,4.29432646555165,0.464121805361512,22.6529893220846,13.0184366055339,-1.41827711127237,1835.34284219012,5255.74474580222
