t,iq,id,vq,vd,ia,ib,va,vb,theta_e,omega,r
0,0,0,0,0,0,0,0,0,0,0,0
0.01,0.00126866688978609,0.0007217547901643,-0.0623334260867475,-0.0361431276131278,0.000589499589748646,-0.00133526622366133,-0.0285583183345477,0.0661528845574665,-2.20859863133947,-0.00249622210921346,0
0.02,0.00140285556078778,0.000798803117229518,-0.0691215823293297,-0.0400014579362451,0.000651403513201551,-0.00147707941814835,-0.031713249708345,0.0732951538211883,-2.20861698917129,-0.00263026344407626,0
0.03,0.00144862636994233,0.000825072784496955,-0.0714055460908136,-0.0413169631191643,0.000672505203718371,-0.00152545082201347,-0.0327634638031138,0.0757126072298382,-2.20863547324259,-0.00258124486939448,0
0.04,0.00142106294932012,0.00081014454954764,-0.0701134438772518,-0.0405694186077132,0.000659225070676434,-0.00149705591187631,-0.0321692866169038,0.0743431889083048,-2.20865236775853,-0.00239352849458499,0
0.05,0.00144719627523453,0.00082527776105582,-0.0714353912209024,-0.0413272124043122,0.000671183198653229,-0.0015247863967755,-0.0327788028933902,0.0757397100923339,-2.20866894300623,-0.00231886520019053,0
0.06,0.00144687738555786,0.000825560809937605,-0.0714666514274179,-0.041341414839705,0.000670734453895472,-0.00152483445399857,-0.0327942658774007,0.0757702512385896,-2.20868468772549,-0.00219616690136435,0
0.07,0.00148699929761639,0.000848840197097116,-0.0734642861589463,-0.0425071455348474,0.000689080636504386,-0.00156743882423341,-0.0337037360410478,0.0778968352325024,-2.20869940827253,-0.00216468727049127,0
0.08,0.00144612777818173,0.000826000063416504,-0.0715160154759536,-0.0413633890252698,0.000669826598503958,-0.0015247603036312,-0.0328186452868438,0.0758182494044077,-2.20871359666554,-0.00197054036883003,0
0.09,0.00144459193480696,0.000825560640122061,-0.0714805873874223,-0.0413414017099838,0.000668834300594545,-0.00152350152838002,-0.0328022745742714,0.0757799224818241,-2.20872684499478,-0.00186468613081675,0
0.1,0.00144388940541932,0.000825548137522761,-0.071483526275467,-0.0413407831743539,0.00066825834001129,-0.00152308145988808,-0.0328040563159184,0.0757815859656314,-2.20873934825349,-0.00176632295611436,0
0.11,0.0014432414750797,0.00082554399736771,-0.0714870416257164,-0.0413405721662536,0.000667722336579291,-0.00152270014389346,-0.0328061114809265,0.0757838972139277,-2.20875115104872,-0.00167350134990722,0
0.12,0.00144263021555901,0.000825540234352886,-0.0714903768622239,-0.041340367086803,0.000667216582129375,-0.00152234051706931,-0.0328080684854154,0.0757860843231178,-2.20876229267725,-0.00158588003204835,0
0.13,0.00151152353352863,0.000865004240413322,-0.074878383597813,-0.0433166125662996,0.000699038217325386,-0.0015950803425102,-0.0343518258626824,0.0793917710744639,-2.20877337908127,-0.00164182041509245,0
0.14,0.00160340693408151,0.000918520912743271,-0.0795988624741655,-0.0459965582854968,0.000740957793803687,-0.00169280123204379,-0.0365468227539645,0.0843563395832377,-2.20878374710117,-0.00175067353551875,0
0.15,0.00144417557707632,0.000827300834955793,-0.0716587959243863,-0.0414285486828934,0.000667361627201621,-0.0015246961098793,-0.0328884615341377,0.0759582568074153,-2.20879364955171,-0.00134600557369001,0
0.16,0.00144049396529528,0.000825560422298672,-0.0715055622415155,-0.0413413729992092,0.000665427449131718,-0.00152111116781783,-0.0328166262586131,0.0757972532083947,-2.20880242234155,-0.00127042280006333,0
0.17,0.00143997562981207,0.000825524535007418,-0.0715048834088316,-0.0413395782652372,0.00066501987588767,-0.00152077912170908,-0.0328165230858926,0.0757956786038053,-2.20881069210436,-0.00120525383135249,0
0.18,0.00143954600448188,0.000825521267617906,-0.0715071465803287,-0.0413394102059553,0.000664664842897233,-0.00152052580015126,-0.0328178494502355,0.0757971477411817,-2.20881849837972,-0.00114386011438804,0
0.19,0.00143914136345892,0.000825518765978894,-0.0715093258468636,-0.0413393084804405,0.000664330091785698,-0.00152028767874693,-0.0328191020322315,0.0757986058612684,-2.20882586736057,-0.00108590804668762,0
0.2,0.00143875981767852,0.000825516415293288,-0.0715114029951911,-0.0413391695334764,0.000664014433417382,-0.00152006315562821,-0.0328203260259512,0.0757999597335539,-2.20883282354778,-0.00103120237202094,0
0.21,0.00143839941447097,0.000825514196242283,-0.0715133507643356,-0.0413390677981687,0.000663716275079532,-0.00151985106834272,-0.0328214534502281,0.0758012536662752,-2.20883939006518,-0.000979561185235271,0
0.22,0.0014380592675265,0.00082551210127234,-0.0715151913924349,-0.0413389660516689,0.000663434875665164,-0.00151965089807399,-0.032822522686877,0.0758024717181905,-2.20884558874115,-0.000930812819754612,0
0.23,0.00143773821269189,0.000825510123454125,-0.0715169293153663,-0.0413388642936321,0.000663169272432348,-0.00151946196012314,-0.0328235357397975,0.0758036172047526,-2.20885144018134,-0.000884795226346717,0
0.24,0.00143743520222548,0.000825508256246261,-0.0715185714261611,-0.0413387596128902,0.000662918597725718,-0.00151928363859982,-0.0328244984075802,0.0758046925293019,-2.20885696383735,-0.000841355433417821,0
0.25,0.00143714879414058,0.000825506493473334,-0.0715201015185551,-0.0413386920940766,0.000662681668701122,-0.00151911508228766,-0.0328253724065851,0.0758057208371657,-2.20886217807039,-0.000800349038492291,0
0.26,0.00145093385095944,0.000833436646503491,-0.0722059053889495,-0.0417357903780844,0.000669023487319171,-0.00153369920682325,-0.0331393418875008,0.0765333456134296,-2.20886705462098,-0.000790936806735058,0
0.27,0.00139812533316108,0.0008034410105052,-0.0696485150640754,-0.0402337185243889,0.000644464883668798,-0.0014781532120542,-0.0319794742920255,0.0738036650914856,-2.20887189690861,-0.000644652461983022,0
0.28,0.00138593564034651,0.000796266886190899,-0.068869418559151,-0.0398744689936134,0.00063894037656683,-0.00146513267263394,-0.0315673338397863,0.0730511705891538,-2.20887632503024,-0.000585226065764352,0
0.29,0.00143513866761234,0.000824943523537339,-0.0714759068898292,-0.0413104993750043,0.000661374908054432,-0.00151747752645577,-0.0328052951563756,0.075757344423091,-2.20888027195264,-0.00065595808953512,0
0.3,0.0014301774159936,0.000822325964601549,-0.0712435520626836,-0.0411794065004347,0.000658944297349396,-0.00151242184798644,-0.0326965100521103,0.0755137435216173,-2.20888338666438,-0.000621597696169191,0
0.31,0.00143566438105484,0.000825437621370024,-0.071521780838103,-0.0413352229345871,0.000661492502453303,-0.0015181920665715,-0.032826898530919,0.0758047526356125,-2.20888709970768,-0.00060411605298917,0
0.32,0.00143558538432155,0.000825495722213566,-0.0715283909295605,-0.0413381575138706,0.000661389088393022,-0.00151819401158916,-0.0328301926794962,0.0758111629263182,-2.20889062537273,-0.000576625439758523,0
0.33,0.00143540514707955,0.000825495725684619,-0.071529485110567,-0.0413381450979623,0.000661239260858795,-0.00151808885421274,-0.0328308266109099,0.0758119140001582,-2.20889395395392,-0.000550453176375436,0
0.34,0.00143523294241348,0.000825494684284604,-0.0715304161987641,-0.0413380773750835,0.000661096791455686,-0.0015179875180969,-0.0328313766170301,0.0758125173837905,-2.20889709608366,-0.000525742554008482,0
0.35,0.00143507000596778,0.000825493681271524,-0.0715312747917115,-0.0413380438471728,0.000660962011482699,-0.00151789161642863,-0.0328318613647491,0.0758130992755475,-2.2089000621987,-0.000502416074200961,0
0.36,0.00143491626633216,0.000825492734019125,-0.0715320872996715,-0.0413380102923462,0.000660834838167491,-0.00151780112727826,-0.0328323217055622,0.0758136482422553,-2.20890286215847,-0.000480396288769556,0
0.37,0.00143477141926409,0.000825491839780758,-0.0715328668773824,-0.0413379425052047,0.000660715014553071,-0.00151771587348418,-0.0328327878758881,0.0758141449503842,-2.20890550527095,-0.00045961000145911,0
0.38,0.00143463444342935,0.000825490995598332,-0.0715335892114931,-0.0413379059939284,0.00066060170862699,-0.00151763525019909,-0.032833200659312,0.0758146278227814,-2.20890800032212,-0.000439988114556019,0
0.39,0.00143450515100995,0.000825490198672625,-0.0715342701643177,-0.0413378723699284,0.00066049475853938,-0.00151755914887053,-0.0328335890787951,0.075815083777695,-2.2089103556061,-0.000421465401007472,0
0.4,0.00143438307634016,0.000825489446358881,-0.0715349102620426,-0.0413378387240653,0.0006603937798881,-0.00151748729524371,-0.0328339546966486,0.0758155110485562,-2.20891257895252,-0.000403980287631713,0
0.41,0.00143426787017402,0.000825488736161784,-0.0715355145566266,-0.0413378050572386,0.000660298482367117,-0.00151741948423209,-0.0328343010101774,0.0758159128877616,-2.20891467775185,-0.000387474650433876,0
0.42,0.00143415918326557,0.000825488065725336,-0.0715360868495463,-0.0413377713704153,0.000660208576221495,-0.00151735551057869,-0.032834630543519,0.0758162917893586,-2.20891665898123,-0.000371893621392828,0
0.43,0.00143405654995351,0.000825487432823973,-0.0715366238945351,-0.0413377376648221,0.000660123678711858,-0.00151729509951716,-0.0328349401894143,0.0758166460365493,-2.20891852922659,-0.000357185406070879,0
0.44,0.00143395973740258,0.000825486835357994,-0.0715371329608556,-0.0413377010304979,0.000660043594599246,-0.0015172381148223,-0.0328352370489654,0.0758169778261057,-2.20892029470483,-0.000343301111433527,0
0.45,0.00143386839637604,0.000825486271343774,-0.0715376144867317,-0.0413376672893608,0.000659968035612902,-0.00151718435078678,-0.0328355175613357,0.0758172922878241,-2.20892196128485,-0.000330194583323181,0
0.46,0.00143378217762333,0.000825485738910099,-0.0715380678638628,-0.0413376335320777,0.000659896713907042,-0.00151713360156215,-0.0328357825510999,0.0758175869042525,-2.20892353450708,-0.000317822253034064,0
0.47,0.00143370033765235,0.00082548523628864,-0.071538471851629,-0.0413376339415791,0.000659829025391423,-0.00151708542632443,-0.0328359941986849,0.0758178766501558,-2.20892501960075,-0.000306142992477188,0
0.48,0.00143362354854035,0.000825484761811526,-0.0715388750894497,-0.0413376001521678,0.000659765503365566,-0.00151704022737739,-0.0328362319226643,0.0758181357494722,-2.20892642150274,-0.000295117977467789,0
0.49,0.00143355106679493,0.000825484313902879,-0.0715392545637721,-0.0413375663488598,0.000659705544494387,-0.00151699756366711,-0.0328364565213276,0.0758183781039237,-2.20892774487294,-0.000284710558662762,0
0.5,0.00143348226533996,0.000825483891076005,-0.0715395923315621,-0.0413375667092257,0.00065964863929511,-0.00151695706338257,-0.0328366328897099,0.0758186206210071,-2.20892899411132,-0.000274886139729283,0
0.51,4.64970105471998,-0.0464897296721979,7.5163341749602,2.33372144084245,-0.558366463684084,4.61628726201717,1.49160475771628,7.72765491205971,0.110372895644812,33.8930290660295,3121.64648842918
0.52,4.66181017943285,-0.034955132090329,6.91233982273806,1.76302022275184,-2.26039848632815,4.07729011640435,-1.75782136094741,6.91366373161433,0.498707407656527,72.0779918398296,3121.64648842918
0.53,4.62919301179912,-0.0734701205624999,8.54474861600228,3.69974600311489,-4.28962642890348,1.74181827397639,-6.41881050975907,6.7453481035484,1.16921253255761,111.070636524131,3121.64648842918
0.54,4.53700564140332,-0.0232153016934731,13.1558611615284,1.1881891343241,-3.8241955266244,-2.44141100892583,-11.7591091278628,-6.01762651211842,2.13386506950183,152.73933946816,3121.64648842918
0.55,4.61186522971062,-0.0771059441933359,9.41466285033193,3.88747231159135,1.29714401186308,-4.42636008884631,-1.25211798536112,-10.1084379658553,-2.87324178711448,194.592473157713,3121.64648842918
0.56,4.61776110611924,-0.0229750841134588,9.12168402472881,1.19047676870454,4.45104445267036,1.22981655869078,9.11556402576341,1.23646547708619,-1.30619871641805,232.755831403757,3121.64648842918
0.57,4.5763279963555,-0.0662776539800078,11.1952182784393,3.3547126552308,-2.43281354072618,3.87667240474399,-2.94585031124767,11.3096850196983,0.545950658061317,273.628520049755,3121.64648842918
0.58,4.53555088026679,-0.0455747964858726,13.2360605872649,2.33163565098715,-1.89581376518801,-4.120581150431,-7.76110088290829,-10.9724718165061,2.70033651328576,313.196382816374,3121.64648842918
0.59,4.50715715586527,-0.0673142663524389,14.6578753447879,3.41504229440258,4.07418957978978,1.92872395797181,14.7554719557129,2.96510891200817,-1.14358759433389,353.459835744667,3121.64648842918
0.6,4.60535405621907,0.0583203200440273,9.7501093572586,-2.85127294009492,-4.60553661039207,-0.0414701483209835,-9.68604685903888,-3.06184357894427,1.59246340937275,392.320260236974,3121.64648842918
0.61,4.52202029265661,0.0290667680413059,13.9190938318632,-1.39538626833833,4.49908009038033,-0.455840700843938,13.9886608979597,0.0751147120951901,-1.66534265839361,432.895408621243,3121.64648842918
0.62,4.43763828172705,0.0385291153185275,18.1405052564001,-1.87261044420113,-4.4270379973961,-0.308954012415693,-17.9382615554058,-3.28684852146569,1.64915346194201,472.576340086702,3121.64648842918
0.63,4.52907143540348,-0.0230758342055273,13.571208410028,1.2482132381324,3.86640889565642,2.35879265996419,12.2659109146394,5.93996325160292,-1.02809792932086,511.448257653995,3121.64648842918
0.64,4.44577656203178,0.0389977043025878,17.7384196562248,-1.85518536596636,-1.23774585514407,-4.27017976887691,-3.00241719033934,-17.5806352461335,2.86823783120142,550.74599771446,3121.64648842918
0.65,4.3920855977672,-0.0115422662800306,20.4254074931054,0.679910648442182,-3.06779784724613,3.14311397987043,-13.7404817910174,15.1280768738128,0.77064437329066,590.289350409482,3121.64648842918
0.66,4.5232911428735,0.0624636242000496,13.867687691948,-3.01643222890664,3.92814131751854,2.24360652903975,10.4137188924202,9.64189214535427,-1.03804245258394,629.722106912928,3121.64648842918
0.67,4.38583249697302,0.0268683628839912,20.7432859633994,-1.22821181520419,2.3926178903419,-3.67581667541304,12.4474654775982,-16.6389008052326,-2.55845340271325,669.076622151807,3121.64648842918
0.68,4.44012536005689,0.0169423976478358,18.0313367991486,-0.733330005887964,-2.69681986548111,-3.5273450172906,-10.3126940478766,-14.8092950925004,2.49266222680395,708.662361306042,3121.64648842918
0.69,4.42884597573347,0.0501260558129168,18.5980681173843,-2.42117578236174,-4.42668480601619,0.14714253779017,-18.6466481482995,-2.01314249408224,1.54888626781185,748.297362817821,3121.64648842918
0.7,4.41017243355584,0.0850293457056377,19.5345721197503,-4.14737578836424,-3.38119072482582,2.83273722143068,-17.8146924014783,9.02424337395366,0.89270989212084,787.224245299764,3121.64648842918
0.71,4.35437476667589,0.0118293180399904,22.3273008745547,-0.451097884834078,-2.1639073148174,3.77865381773837,-11.5389530282099,19.1197389275419,0.522795241418248,825.983835301701,3121.64648842918
0.72,4.40838450142613,-0.0315703118433772,19.6297980297069,1.68274385947135,-1.90482538613722,3.97573777371335,-6.83193386901933,18.4793202578726,0.439637056584894,865.614101193398,3121.64648842918
0.73,4.45521045586503,0.129952924989627,17.2913513293798,-6.36048515700761,-2.5690101014032,3.64224862792901,-15.4627758391936,10.0174430657433,0.643458872682767,904.28187416327,3121.64648842918
0.74,4.33983576711625,-0.0313014287985802,23.0630192135343,1.67545546648283,-3.9447328739589,1.80948523566629,-20.1833709005856,11.2845711196047,1.13351102275679,943.811141222899,3121.64648842918
0.75,4.38462569560207,0.0436661947788535,20.8265672148106,-2.01995982735292,-4.14945899023709,-1.41733528688204,-18.9686280816855,-8.83273957251295,1.90990106644595,982.279833960492,3121.64648842918
0.76,4.37811833201222,-0.00812524839407258,21.155044676793,0.544290958414063,-0.731021413008565,-4.31666466643934,-4.10746985740604,-20.7595967999145,2.9719797266621,1021.5682699734,3121.64648842918
0.77,4.29511038244794,0.0668543708888294,25.3086332850465,-3.22995614195225,3.94108903185681,-1.70887680869541,24.6123150809665,-6.72260974556234,-1.96436907271608,1060.52944235221,3121.64648842918
0.78,4.34983598551796,0.0806904063682338,22.5756366959486,-3.85287917436772,1.49772158461373,4.08465593380508,3.73602850130361,22.595268115187,-0.332899812712603,1098.95908933399,3121.64648842918
0.79,4.31059194193701,0.137372727086035,24.5410656628524,-6.68969619327454,-4.31196182766134,0.0840199549561804,-24.4564036277528,-6.99287212976081,1.58317133602758,1137.70324153616,3121.64648842918
0.8,4.35766434481065,0.0750548814194576,22.1906928162802,-3.56824747918739,2.54957969364902,-3.53475814773677,16.1470138667746,-15.6343589867134,-2.4994997140038,1176.5504319009,3121.64648842918
0.81,4.3010289483942,0.134844933525432,25.0258329738929,-6.56147557661718,0.199348012749748,4.29852225082471,-6.18533341774574,25.1214435948862,-0.0150012176441347,1215.27270520407,3121.64648842918
0.82,4.33782175346804,0.117108763272523,23.1895560797432,-5.66134004194885,-1.7517846985024,-3.97009601866109,-3.54615925071361,-23.6057416069631,2.75303384200886,1253.95370846417,3121.64648842918
0.83,4.25890420104604,0.0636474444884088,27.1388934147756,-2.97309813608875,2.01786212761165,3.75107296980852,9.85930760700173,25.4588472208755,-0.478595576529308,1292.55827272859,3121.64648842918
0.84,4.29231988171105,0.0404346832358071,25.4715920670832,-1.81853667671684,-1.24808954105369,-4.10705702761147,-5.43134303523612,-24.9521460181294,2.85599174086305,1331.31505631067,3121.64648842918
0.85,4.26535238374056,0.1506312373111,26.8234397416307,-7.39223150197078,-0.660187827178251,4.21664235618588,-12.34018091945,24.9371598428302,0.190606757864479,1370.1509893744,3121.64648842918
0.86,4.25136142378145,0.0662248086953806,27.5265158449956,-3.12302994429558,-0.00531084575529958,4.25187387816491,-3.5857029287709,27.470076903867,0.0168251175815265,1408.52841615897,3121.64648842918
0.87,4.1723300514405,0.0823124543451612,31.4816815429576,-3.8859634715607,3.59561502448668,-2.11817515658631,29.3407780892793,-12.0546972583376,-2.08343661072732,1446.88153903736,3121.64648842918
0.88,4.31349075453923,0.178716493327947,24.4273454007354,-8.77698874947605,-3.1012708496279,-3.00337496688827,-10.4672330931913,-23.7522160273112,2.38156787662681,1485.60351640281,3121.64648842918
0.89,4.18395920705788,0.0245334918314398,30.9075668366957,-0.984504747774582,-3.11330571248622,2.79525384878485,-23.7721830795568,19.7770131464596,0.845038899769348,1523.74691422521,3121.64648842918
0.9,4.18523451364852,0.109507438765949,30.8475495490079,-5.30471102746822,1.76752408898308,3.79526526190784,7.42159768697418,30.4077483552489,-0.40968880543835,1562.41423538533,3121.64648842918
0.91,4.21419869409699,0.203607157925978,29.4030451233153,-9.93575437881811,4.17820012524728,0.58614863428237,27.0332902565649,15.2466224293853,-1.38314154806906,1600.61089836726,3121.64648842918
0.92,4.18250357242576,0.098380561517057,30.9916307966618,-4.68730262307113,3.61380969823336,-2.10793603631446,29.3959285095471,-10.8780224479654,-2.07532848307342,1638.90112732164,3121.64648842918
0.93,4.16557529620617,0.0717189764998009,31.8418692661541,-3.39627029998457,2.47974957144616,-3.34783560272393,22.084130582535,-23.1890160793198,-2.48685330633805,1677.39737736654,3121.64648842918
0.94,4.23266151429472,0.166878218271199,28.4914530410337,-8.17601987994755,1.97231416613807,-3.74876628564333,21.3291358763451,-20.5834438380738,-2.61785938907486,1715.67756954505,3121.64648842918
0.95,4.09959512945878,0.13485224295702,35.1487231634497,-6.55564268103586,2.45005679918309,-3.28969406384384,27.036244068252,-23.3976643634393,-2.468566664277,1753.76458882359,3121.64648842918
0.96,4.16763786782867,0.202941322908308,31.7505838802208,-9.87740394950868,3.62654129845085,-2.06363484864297,32.7884548611606,-5.529910789004,-2.03948129483868,1791.83709199313,3121.64648842918
0.97,4.10395485831013,0.126077028757226,34.938856505504,-6.02585373852618,4.01660998085595,0.851578039827185,32.510289626063,14.1462247833055,-1.33116466246874,1829.87869223687,3121.64648842918
0.98,4.13791200877176,0.166414332441377,33.2450693298102,-8.0956555716901,1.55108339543422,3.83981117019935,3.58084569671949,34.028691099947,-0.343709719777034,1868.03102544893,3121.64648842918
