t,iq,id,vq,vd,ia,ib,va,vb,theta_e,omega,r
0,0,0,0,0,0,0,0,0,0,0,0
0.01,0.000582278738053199,0.000330195936529972,-0.0288208583815591,-0.0165289764827713,5.23953812279559e-05,-0.000667332457861678,-0.00243979516683996,0.0331345188732499,-2.54738041110792,-0.00132421414941728,0
0.02,0.000647690382106586,0.000367189514995245,-0.0321007109003481,-0.0183807989451684,5.83566766142104e-05,-0.000742243537722197,-0.00274127606625388,0.0368889524885028,-2.5473902701724,-0.00139830108633434,0
0.03,0.000673304274790269,0.000381868264941849,-0.0333770006882214,-0.0191155862293245,6.05261530070896e-05,-0.000771685559682641,-0.00284658196155734,0.0383578777172097,-2.54740020646407,-0.00137703170726138,0
0.04,0.000657899798880337,0.000373583276789021,-0.0326296321638449,-0.0187008591045597,5.87601830890917e-05,-0.000754283667426616,-0.0027714764875063,0.0375064520379576,-2.54740932719973,-0.00126488987961315,0
0.05,0.0006726071600556,0.000382162917827629,-0.0333666803688466,-0.0191303395630412,5.98778677661494e-05,-0.000771273964601662,-0.00282789016310092,0.0383576366302653,-2.54741818067513,-0.00122662469098359,0
0.06,0.000672773862569453,0.00038256150338888,-0.0333861387506074,-0.0191502872361086,5.96344355753547e-05,-0.000771635735386452,-0.00282193204103232,0.0383849509763406,-2.54742658367958,-0.00115748113568063,0
0.07,0.000689911486473064,0.000392656547121597,-0.0342415976973496,-0.019655630974187,6.08572942123632e-05,-0.000791488100293414,-0.00288179014735025,0.0393767206278937,-2.54743439127927,-0.00113365517749071,0
0.08,0.000672605209660723,0.000383047976320045,-0.0333983066362139,-0.0191746455605523,5.91250864936437e-05,-0.000771769229998674,-0.00280797115562641,0.0384087127684403,-2.54744191868744,-0.00103017279821213,0
0.09,0.00067127938577274,0.000382598248679163,-0.0333422732072656,-0.0191521295053562,5.87501555648205e-05,-0.000770419270836925,-0.00279499274452678,0.038349697036299,-2.54744890578321,-0.000969194696445167,0
0.1,0.000670774233079023,0.000382575927571675,-0.0333261386448888,-0.019151020024179,5.848081356847e-05,-0.000769988575606449,-0.00278662836240393,0.0383357246874857,-2.54745546912417,-0.000913676682049243,0
0.11,0.000670336318744455,0.000382573627785865,-0.0333127916826387,-0.0191508913031806,5.82328294618191e-05,-0.000769624777718321,-0.00277902704339273,0.0383246100578885,-2.54746163831686,-0.000861580140135385,0
0.12,0.000669926394290988,0.000382572337309764,-0.0333003287788582,-0.0191508266333048,5.79999666289064e-05,-0.0007692847138176,-0.00277188185516641,0.0383142627294321,-2.54746743722478,-0.000812614851769296,0
0.13,0.000701479979501405,0.000400692111834632,-0.0348638395320268,-0.0200578816470266,6.06438105059532e-05,-0.000805574737920143,-0.00289526009882184,0.0401176194712649,-2.54747315761247,-0.000840371649121982,0
0.14,0.00073178862772279,0.000418502969066139,-0.0364093853692561,-0.0209494534861525,6.28466257770113e-05,-0.000840660236010971,-0.00302140581193441,0.0418974229667539,-2.54747853546966,-0.000867999821058686,0
0.15,0.0006718879084438,0.00038424537174289,-0.0334187139240483,-0.0192345761573895,5.76991358879225e-05,-0.000771847573641715,-0.00276813033312794,0.0384592877566735,-2.54748365080116,-0.000683105233084169,0
0.16,0.000668617070028847,0.000382646107558936,-0.0332634341668591,-0.0191545200114426,5.71899903566548e-05,-0.000768242237166749,-0.00274737555266915,0.0382858148276136,-2.54748814491947,-0.000638129042882172,0
0.17,0.000668173199682526,0.000382570631349583,-0.0332471674338908,-0.0191507408110387,5.70008381328962e-05,-0.000767832414786814,-0.00274124053663384,0.0382702314640122,-2.54749235371729,-0.000602242001646071,0
0.18,0.000667886251824125,0.000382566301665555,-0.0332382988354108,-0.0191505349917301,5.68407668700669e-05,-0.000767592435975865,-0.00273629542700331,0.0382627780914783,-2.54749630913088,-0.00056882583047242,0
0.19,0.000667623235464776,0.000382565339818127,-0.0332302924024816,-0.0191504791151083,5.66914847535663e-05,-0.000767374158620846,-0.00273171781203947,0.0382561224026692,-2.54750002710284,-0.000537431012241265,0
0.2,0.000667376159987145,0.000382564580583068,-0.0332227729520362,-0.0191504464285547,5.65511305336326e-05,-0.000767169190512272,-0.00272740215595824,0.0382498825947893,-2.54750352192083,-0.000507921285050081,0
0.21,0.000667143927463649,0.000382563873566094,-0.0332157044179561,-0.0191504151886876,5.64192037185368e-05,-0.000766976538598987,-0.00272334576773598,0.0382440166524059,-2.54750680698036,-0.000480182765016977,0
0.22,0.000666925664778171,0.000382563209196389,-0.0332090606265606,-0.019150383940106,5.62952136170567e-05,-0.000766795474878572,-0.00271953471392936,0.0382385021109847,-2.54750989487106,-0.000454109107863685,0
0.23,0.000666720557023458,0.000382562584625455,-0.0332028172634354,-0.0191503526827275,5.61786971611645e-05,-0.000766625323282666,-0.00271595492571359,0.0382333188586006,-2.54751279742717,-0.00042960038700882,0
0.24,0.000666527731083255,0.000382561997460939,-0.0331969461208993,-0.0191503199613822,5.60691588958906e-05,-0.000766465359703231,-0.00271259138883857,0.038228442740117,-2.54751552577236,-0.00040656267517717,0
0.25,0.000666346604883607,0.000382561445466734,-0.0331914326064585,-0.0191502886861144,5.59662666830584e-05,-0.000766315101241694,-0.0027094331190692,0.0382238633238961,-2.54751809036287,-0.000384907682674526,0
0.26,0.000673032655705882,0.000386441222940103,-0.0335242800388326,-0.0193444963364607,5.64918491137837e-05,-0.000774027419034791,-0.00273471668285134,0.0386083956581719,-2.54752046597188,-0.000381160450733385,0
0.27,0.000651383766132037,0.000374132610413324,-0.0324599733253985,-0.018728362022956,5.45720635831325e-05,-0.000749198178609187,-0.00264946315189702,0.0373815697550975,-2.54752285326423,-0.000309880674289585,0
0.28,0.000649503904098294,0.000373048533303668,-0.032328872346907,-0.0186740867800698,5.44165780274008e-05,-0.000747033711203672,-0.00262097756892117,0.0372425560464826,-2.54752499063481,-0.000287718342838472,0
0.29,0.000664912685106124,0.000382115774945523,-0.0331324581072632,-0.0191279793961729,5.55262148482175e-05,-0.000764877888124557,-0.00269457334740806,0.0381625294036625,-2.54752690083913,-0.00030858269512638,0
0.3,0.000660748580086436,0.00037990684785544,-0.0329290854272043,-0.0190174056922417,5.50247829294974e-05,-0.000760190878922695,-0.00267231235390235,0.0379321121613153,-2.54752836486094,-0.000286556580280121,0
0.31,0.000665253755698721,0.00038243510040197,-0.033153582311192,-0.0191439675974512,5.5450034126413e-05,-0.00076533944051388,-0.00269302489000246,0.0381889922933176,-2.54753013314223,-0.000282645239852186,0
0.32,0.000665364247861911,0.000382552715336681,-0.0331612720412569,-0.0191498577704951,5.54131246755009e-05,-0.000765496928771116,-0.00269238362291731,0.0381986660297383,-2.54753181972523,-0.00026895059157657,0
0.33,0.000665263440494397,0.000382557878083382,-0.0331584087308328,-0.0191501172619463,5.5351207072442e-05,-0.000765416369839139,-0.00269050530489947,0.0381964427913329,-2.5475334062919,-0.000255580985359023,0
0.34,0.000665158616529521,0.000382557813629835,-0.0331552199620847,-0.0191501148516055,5.5291446012608e-05,-0.000765329551180758,-0.00268866549230999,0.0381938029977949,-2.54753489769324,-0.000242989173272861,0
0.35,0.000665059613317015,0.000382557523596919,-0.0331521983134808,-0.0191500993349342,5.52351986742393e-05,-0.000765247424663031,-0.00268693350870017,0.0381912941110148,-2.54753629958375,-0.000231151896976618,0
0.36,0.000664966489078106,0.000382557240248561,-0.0331493538144907,-0.0191500838073006,5.51823010227067e-05,-0.000765170168862651,-0.00268530390969215,0.0381889317873323,-2.54753761733319,-0.000220025031263352,0
0.37,0.00066487895277449,0.000382556973390722,-0.033146678906119,-0.0191500682691198,5.5132578128233e-05,-0.000765097548395828,-0.00268377226997034,0.0381867097773589,-2.54753885599142,-0.000209565995046788,0
0.38,0.000664796713367862,0.000382556722511814,-0.0331441656292386,-0.0191500527207996,5.50858638473002e-05,-0.000765029322083728,-0.00268233395195669,0.0381846214992107,-2.54754002030581,-0.00019973470817922,0
0.39,0.000664719421610668,0.000382556486676257,-0.0331418027089465,-0.0191500357076616,5.50419600297187e-05,-0.000764965200254619,-0.00268098367899969,0.0381826568079853,-2.547541114738,-0.000190493493398172,0
0.4,0.000664646603826974,0.000382556264984009,-0.0331395722829849,-0.0191500359869545,5.50005990590871e-05,-0.000764904790127757,-0.00267969574846711,0.0381808114122327,-2.54754214348249,-0.000181806934689793,0
0.41,0.000664578334258639,0.000382556056587669,-0.0331374835594076,-0.0191500204094988,5.49618201533479e-05,-0.000764848152984189,-0.00267850263312816,0.0381790743991857,-2.5475431104821,-0.00017364174169522,0
0.42,0.000664514139226414,0.000382555860690239,-0.0331355179619976,-0.0191500048239967,5.49253559894891e-05,-0.000764794896066716,-0.00267738065986218,0.0381774392563351,-2.54754401944238,-0.000165966622137366,0
0.43,0.000664453661466818,0.000382555676542621,-0.0331336624778026,-0.0191500050724288,5.48910045381821e-05,-0.000764744723102051,-0.00267630928354418,0.0381759040768625,-2.54754487384697,-0.000158752161895729,0
0.44,0.000664396975222693,0.00038255550344056,-0.0331319253893011,-0.0191499894703979,5.48588054179292e-05,-0.000764697695410312,-0.00267531927081975,0.0381744579990043,-2.54754567697053,-0.00015197071228051,0
0.45,0.000664343540590058,0.000382555340721768,-0.0331302839463859,-0.0191499897005167,5.48284546152768e-05,-0.000764653365390477,-0.00267437151528499,0.0381730999120622,-2.54754643189047,-0.00014559628407008,0
0.46,0.00066429349001912,0.000382555187764031,-0.0331287488105918,-0.0191499740836521,5.48000245555971e-05,-0.000764611842620595,-0.00267349812550569,0.0381718209276523,-2.54754714150039,-0.000139604447912515,0
0.47,0.000664246283604549,0.000382555043981865,-0.0331272967459323,-0.0191499728422261,5.47732114390174e-05,-0.00076457267951914,-0.00267266094693826,0.038170618714055,-2.54754780851943,-0.000133972240700156,0
0.48,0.000664202053799532,0.000382554908825244,-0.0331259379341585,-0.019149957212279,5.47480878932408e-05,-0.000764535985686639,-0.00267188941681628,0.0381694856160539,-2.54754843550424,-0.000128678077567935,0
0.49,0.000664160377114385,0.000382554781776824,-0.0331246545202894,-0.0191499574113745,5.47244154669364e-05,-0.000764501410031949,-0.00267114840862394,0.0381684237574083,-2.54754902485749,-0.000123701669169783,0
0.5,0.000664121145150993,0.000382554662350661,-0.0331234442323639,-0.0191499576034867,5.47021321563895e-05,-0.000764468862583977,-0.00267044968732792,0.0381674223978684,-2.54754957883773,-0.000119023943922546,0
0.51,3.51142691842045,-0.0158250735470314,6.05847397712784,0.796137589956383,-0.279081147090042,3.5003547176964,0.339608007932436,6.10111534021649,0.0750543856834467,23.0802584719743,863.192283716934
0.52,3.49494768022294,0.0356724079569047,3.99938517221662,-1.77723463611978,-1.12677046055306,3.30852234954068,-3.00431785928089,3.18240772183199,0.338452329938701,48.7311445466196,863.192283716934
0.53,3.43166306227841,0.000981246706953098,4.19968579126611,-0.0354012583295866,-2.43633772459003,2.41672729690187,-3.00737122397634,2.93160916829867,0.789724914007981,74.465210886842,863.192283716934
0.54,3.33354288968034,0.0185717992566365,5.85340467355106,-0.911250110180473,-3.29930847579985,0.476882260711467,-5.92310825175647,-0.0975278095096017,1.43282153061798,101.308502751476,863.192283716934
0.55,3.26203485901071,0.0360594835581143,5.93693339692592,-1.78879007434009,-2.50561264800609,-2.08903732994588,-3.35705239339404,-5.21317056287239,2.27683024211464,128.474476355766,863.192283716934
0.56,3.23991056274344,-0.0260860090143762,4.11582151977198,1.32947769092057,0.563333285509104,-3.19066710013444,-0.62809545894554,-4.27936838887769,-2.97488834236589,152.60988692746,863.192283716934
0.57,3.14070280961707,0.0504456089460837,6.16536541391645,-2.49469960158909,3.06922350262066,-0.668151172085673,6.5359918190857,1.23128702183152,-1.76908540899092,176.734377116635,863.192283716934
0.58,3.07339543402543,0.02730018616442,6.26207547853243,-1.34125438120353,1.16422036338916,2.84448514489406,1.07467578383685,6.31328952081001,-0.379607056820836,201.747515231863,863.192283716934
0.59,2.9889771718932,0.0554470457478167,7.70068956532839,-2.73877798327552,-2.74485166322637,1.18441895284744,-8.16414927088621,0.384956238967953,1.18197666079376,224.380774208875,863.192283716934
0.6,2.92354587395281,0.0782295387683659,7.81530001050845,-3.88641057141832,-0.729811483656598,-2.83206912630419,2.04093560043502,-8.48632330628302,2.91613643947832,248.286485771683,863.192283716934
0.61,2.85892113880697,0.045889576840205,8.25755764792703,-2.25448096146179,2.84831566346484,0.250267481788478,7.97985793201576,3.09706475542198,-1.46710633665791,270.427293758029,863.192283716934
0.62,2.84778645264158,0.0512831299067853,5.83470507771386,-2.52650689871835,-1.56439546207584,2.38016480049144,-5.37794340282247,3.39186456233288,0.599470561870003,292.653958208516,863.192283716934
0.63,2.76914408082084,0.0456718415240411,6.83447903152893,-2.25323423109244,-0.906087753466772,-2.61710715112523,0.0119122978314326,-7.19632032567587,2.82478332608318,314.728528232766,863.192283716934
0.64,2.69941883197932,-0.0132518419770959,7.5828700089928,0.704511338126899,2.36940716371242,1.29342465351046,7.0080405022038,2.98054057484594,-1.07602675251284,335.616959440363,863.192283716934
0.65,2.61079315560908,0.0230992255517104,9.22266265593222,-1.10514792305571,-2.5925071552197,0.309323658537435,-9.28823489703326,-0.0868958830710169,1.46089059669582,356.075478834975,863.192283716934
0.66,2.60082781595539,0.033401638521808,6.90647124280006,-1.62294466957213,2.17951985858559,-1.41954717559307,6.70334460673294,-2.32345981490992,-2.13525124074603,376.490247239776,863.192283716934
0.67,2.50894225947496,0.0473058923495042,8.7275159788546,-2.32324564247807,-1.57740001411845,1.95162452953671,-7.39209873551464,5.18882277215733,0.698603746801664,396.469506267245,863.192283716934
0.68,2.41630685246723,0.0414723958182145,10.643978817427,-2.03435905070706,1.19502681178409,-2.1005165279074,7.17208297039052,-8.12367698021423,-2.60717745678146,415.909395681504,863.192283716934
0.69,2.40022174232208,-0.0137256815117857,8.77713244928751,0.728901698224541,-1.18492713684646,2.08739083235829,-3.65331388283716,8.01390350525134,0.510581722012843,434.881406210806,863.192283716934
0.7,2.34362388420966,0.0459523148741403,8.97116805436691,-2.25787122703019,1.33224142616659,-1.92868279099646,7.07467725145963,-5.96060236261603,-2.51749556409518,453.369246748565,863.192283716934
0.71,2.30190610134871,0.0399752013995916,8.45979556553786,-1.95562271340268,-1.73636938694442,1.51175099412424,-7.73424370283047,3.94640032853964,0.871805974881812,471.424469801909,863.192283716934
0.72,2.2222328162446,0.00953905591892301,9.892942389649,-0.427597367836731,2.10618802518638,-0.708788886583107,9.52434707081636,-2.7092363330885,-1.89112578669705,488.970446979348,863.192283716934
0.73,2.22288088950545,0.0143080319105191,7.34609014234761,-0.658154202537468,-2.18714509881822,-0.39724109231185,-7.09746378197452,-2.00604466485033,1.75689982016303,506.147603373492,863.192283716934
0.74,2.13621723623363,0.00746465256082485,9.19460140455268,-0.310509771420616,1.46673643163129,1.55311430408229,6.0631240476039,6.91922236166154,-0.753308284029945,522.975314568743,863.192283716934
0.75,2.06641868736223,0.0342359319404269,10.2066122991443,-1.67532925330499,-0.0337617733098594,-2.06642648869459,1.67767120510956,-10.2062276115894,-3.1413631948957,539.606153471364,863.192283716934
0.76,2.05355716283382,-0.00952503545649147,8.36552272635475,0.515169229991117,-1.57992549031312,1.31187773530363,-6.08023801881741,5.76871523436673,0.873188032960023,555.739355964048,863.192283716934
0.77,1.95971725232291,0.0318863947384781,10.6673549983692,-1.54419133685377,1.88620248948673,0.532680598365988,9.77350806480889,4.54483549242019,-1.27928565907056,571.265993949919,863.192283716934
0.78,1.903211237723,0.0472585630939684,11.1558220852864,-2.30157642744925,-0.381552655211668,-1.86517129467557,0.301817851231766,-11.3867697980872,2.96463540633446,586.478281110469,863.192283716934
0.79,1.88434606868952,0.0354926091887057,9.73143218951707,-1.7427156773116,-1.60327008679671,0.990729458871367,-9.26127783668032,3.45927206546847,1.03612111920408,601.573373229754,863.192283716934
0.8,1.81972942534363,0.0648221366165761,10.6713837293387,-3.19074485464129,1.33162002973501,1.24193606408121,5.28203557684206,9.80608910785484,-0.784625533625476,615.919942333525,863.192283716934
0.81,1.76151692344905,0.0383964636366074,11.3401807511723,-1.87870660235674,1.02259307789278,-1.43482387667023,8.28709625592798,-7.96575631136065,-2.50060274733353,630.120079901273,863.192283716934
0.82,1.70969850829828,-0.00451523615333249,11.6656844406589,0.269694164350743,-1.40995077951919,-0.96702025623464,-9.78974481113431,-6.34994684577634,2.16932409653878,643.918419963797,863.192283716934
0.83,1.68702608731375,0.0356132173752358,10.6289501732297,-1.7187202421014,-1.00025058012573,1.35897906440353,-7.84223552910419,7.37752824201065,0.655607698036647,657.309181316209,863.192283716934
0.84,1.63744587354291,-0.00370298384141288,10.903990450962,0.227036489572082,1.12600012966696,1.18885087747035,7.68054717605315,7.74323888296685,-0.760515168748288,670.470179003101,863.192283716934
0.85,1.6008370714509,0.0454309412677614,10.6310594464548,-2.21810096034889,1.37381995184437,-0.823020072458934,10.3565685561095,-3.2681622614187,-2.08216292930069,683.203411473095,863.192283716934
0.86,1.54615354550719,0.00389191857163729,11.237674316465,-0.147414454826232,-0.264914519950027,-1.52329453174173,-1.75225966751196,-11.101199985679,2.97192298958723,695.586923993299,863.192283716934
0.87,1.48451600053956,0.0445343589914281,12.267172852158,-2.20547970663815,-1.44560516830432,-0.340582974267054,-11.2806375963409,-5.30046091780093,1.83216600985767,707.734979937263,863.192283716934
0.88,1.48199861320501,0.0238572495482003,10.3689695102782,-1.13426970732834,-1.02499401165673,1.07064295354027,-8.09677928956155,6.57603692281063,0.779715393328646,719.30485305411,863.192283716934
0.89,1.44943455238421,-0.0128967575687323,9.9708508632897,0.68075555479171,0.258250983377135,1.4263005565398,2.53245543671976,9.66788314598254,-0.188020429978938,730.837880920578,863.192283716934
0.9,1.36825757066978,0.000565536399718902,12.0813297513189,-0.00714317397423248,1.20263770461051,0.652527126620604,10.6131604411162,5.77229633994679,-1.0732543950444,741.954890068882,863.192283716934
0.91,1.33429835238332,0.00704847076574877,11.8355967724239,-0.295104979075423,1.2696972920806,-0.410207947992443,11.3707131718395,-3.29777498805522,-1.87800401783849,752.657752429235,863.192283716934
0.92,1.34255803561438,0.014261351478263,9.49897698575891,-0.674617042538942,0.674354177662205,-1.16099608449308,5.43767507948035,-7.81775937593757,-2.60475763241605,763.220875699507,863.192283716934
0.93,1.25691931056877,0.000846528557606141,11.912798958304,-0.023024281925681,0.818373997995544,0.953997310948024,7.73278643155035,9.06197126140653,-0.708352676511559,773.445661030706,863.192283716934
0.94,1.19837677915938,0.0514961156851084,13.019033566475,-2.53775181656941,1.16453832238818,0.287418250026645,11.7808591047833,6.09481566913622,-1.285878302951,783.270197026706,863.192283716934
0.95,1.16443634176968,-0.00384747272979402,12.8955637672265,0.247413502298016,1.13694714073215,-0.251551180202665,12.5275462939071,-3.06877209478631,-1.79184411270498,792.828916692793,863.192283716934
0.96,1.18260556653025,0.0317515756139946,10.2044858541789,-1.54550515435454,0.916337861220163,-0.748257317128782,9.01947912437897,-5.01688290227763,-2.22871936547527,802.144639042652,863.192283716934
0.97,1.10109806469973,0.0483334282059083,12.5288944182818,-2.3927958872826,0.527749068354645,-0.967591850533287,8.52420579162793,-9.48876088457424,-2.59840097609631,811.209316280441,863.192283716934
