t,iq,id,vq,vd,ia,ib,va,vb,theta_e,omega,r
0,0,0,0,0,0,0,0,0,0,0,0
0.01,0.000534214409039279,0.000298274942542656,-0.0262465216835774,-0.0149211600178993,-1.12852869943189e-05,0.000611739829070714,0.000324124877781939,-0.0301896647849866,0.52767186874712,-0.00185958673377194,0
0.02,0.000668664082424382,0.000369314249344377,-0.0329027866266501,-0.0184748891368257,-1.75957195497679e-05,0.000763672089673812,0.000604786763088398,-0.0377299500316136,0.527656883668805,-0.0021736770122538,0
0.03,0.00072066972170708,0.00039732890752403,-0.0354875571268492,-0.0198763282498858,-1.95637110667013e-05,0.000822710380236507,0.000694773390666151,-0.040668813917598,0.527641057168933,-0.00217407196510743,0
0.04,0.000710511811169127,0.000392316562174633,-0.035028274998426,-0.019625580371162,-1.87679414107917e-05,0.000811410551535138,0.000679580692542415,-0.0401457547488227,0.527626331814642,-0.00195889128421842,0
0.05,0.000725838197710757,0.000402144658099044,-0.035813198427347,-0.0201172260775895,-1.79816234759187e-05,0.00082960115508042,0.000649429121986185,-0.0410714768235681,0.527612606343349,-0.00184960844389608,0
0.06,0.000727370132373316,0.000404202138777891,-0.0359207173085716,-0.0202201494786854,-1.69646275403571e-05,0.000831960864388352,0.000614109971298314,-0.0412162012544321,0.527599871121162,-0.00170149385872113,0
0.07,0.000736091868921152,0.000410571676128135,-0.0363767358460376,-0.0205387832356868,-1.58426186423833e-05,0.000842703596862534,0.000567912993203884,-0.041770635648109,0.527588397371282,-0.00159507985274392,0
0.08,0.000726256750018379,0.000405963821119085,-0.035923097807368,-0.0203082795475192,-1.48634579083382e-05,0.000831886151239383,0.000538244882519748,-0.0412626400840319,0.527577632657555,-0.0014289054845846,0
0.09,0.00072248849415184,0.000404995734531414,-0.03576353674175,-0.0202598567141433,-1.37947852816185e-05,0.000828143026940073,0.000499355379974892,-0.0411004014403827,0.527567936232485,-0.00129796506957254,0
0.1,0.000720251945385991,0.000404790852206461,-0.0356766231779031,-0.0202496006488891,-1.28385856544641e-05,0.000826107541171687,0.000464100711261246,-0.0410201460059248,0.527559134145208,-0.00118346094745616,0
0.11,0.000718490825337574,0.000404746134615425,-0.0356109316958361,-0.0202473609084469,-1.19840285451289e-05,0.000824563449735814,0.000432637198105004,-0.0409622619621674,0.527551128107963,-0.00108031845331028,0
0.12,0.000716951052140139,0.000404735149627404,-0.0355542254344879,-0.0202468158437832,-1.12123713466643e-05,0.000823227571961456,0.000404263075255974,-0.0409129938946595,0.527543842480455,-0.000986688773779058,0
0.13,0.000742665819880948,0.000419967572004527,-0.0368299531876525,-0.0210088158582673,-1.09900911915916e-05,0.000853114587526446,0.000387783981964578,-0.0423988846451719,0.527536922810287,-0.000997821322615685,0
0.14,0.000757085731538561,0.000428943749624635,-0.0375934787645519,-0.0214578397947822,-1.04876639290921e-05,0.000870092842256865,0.000383888108947135,-0.0432846527559037,0.527530436356449,-0.000972599196499864,0
0.15,0.000722782877675127,0.000409803453016188,-0.0358891366059227,-0.0205003528179605,-9.75281547502249e-06,0.000830818175628482,0.000352991911338623,-0.0413300131706968,0.527524436869912,-0.000773871559345704,0
0.16,0.000714128904749031,0.000405789912905577,-0.0354785805422856,-0.0202995815111648,-8.86024175109074e-06,0.00082132030422368,0.000319592153965167,-0.0408742039393918,0.527519417384576,-0.000681408796951273,0
0.17,0.000711446830877949,0.000404947552420207,-0.0353587757586045,-0.0202574394950508,-8.23430053179658e-06,0.000818578835343393,0.000295514575084865,-0.0407494729926515,0.527514950317632,-0.000617602213741135,0
0.18,0.000710201172246474,0.00040477006762397,-0.035308158214071,-0.0202485684097593,-7.75730464392543e-06,0.000817413198406559,0.00027753495166425,-0.0407012718900181,0.52751090789074,-0.000564211403265108,0
0.19,0.000709342720354734,0.000404732043682424,-0.0352755411229636,-0.0202466699706688,-7.35502830409167e-06,0.000816652328510886,0.000262606968525047,-0.0406721339985888,0.527507233969786,-0.000516694785449612,0
0.2,0.00070862472555397,0.000404723328505407,-0.0352489478603741,-0.0202462319718005,-6.99840614004984e-06,0.000816027570989139,0.000249463009298369,-0.040648936056511,0.527503891311472,-0.000473694698690616,0
0.21,0.000707985835391209,0.000404720823940991,-0.0352254554913919,-0.0202460993349579,-6.67648616911289e-06,0.000815474287135098,0.000237628475652087,-0.040628571049996,0.527500849205772,-0.000434614386930972,0
0.22,0.000707407579220228,0.000404719681907821,-0.0352042298660555,-0.0202460489022391,-6.38413650948569e-06,0.000814974077417693,0.000226875153261169,-0.0406102059127846,0.527498080435219,-0.000399057768408993,0
0.23,0.000706882117416076,0.000404718880689222,-0.0351849506363824,-0.0202460114199085,-6.11827286527931e-06,0.000814519654180375,0.00021710059792069,-0.0405935290043883,0.527495560395503,-0.000366698192058123,0
0.24,0.000706404036651438,0.000404718201182272,-0.0351674100778539,-0.020245976716269,-5.8763407721376e-06,0.00081410623015967,0.000208208104320928,-0.0405783557351076,0.527493266732249,-0.000337246141130215,0
0.25,0.000705968913141998,0.000404717592975186,-0.0351514437795584,-0.0202459433467467,-5.65613988901133e-06,0.000813729957951702,0.00020011531596029,-0.0405645433309368,0.5274911791071,-0.000310439899280693,0
0.26,0.000710456632407759,0.000407528912683533,-0.0353756333863564,-0.0203865722397985,-5.48443548817378e-06,0.000819022809311543,0.000191377121908386,-0.0408290477475489,0.527489359522815,-0.000304993797132242,0
0.27,0.000699178117640514,0.000401085012808573,-0.0348287592609891,-0.0200642275104334,-5.37367065718222e-06,0.000806033716013576,0.000194551664466736,-0.0401942514160946,0.527487433373091,-0.000240214910978471,0
0.28,0.000698308915370414,0.000400824934398465,-0.0347500566350693,-0.020051207440292,-5.15960306876151e-06,0.000805151754526754,0.00016612264893302,-0.0401196929103359,0.527485856421691,-0.000217975309664603,0
0.29,0.000703073767543593,0.000403899948156586,-0.0350267559569656,-0.0202050370618106,-4.89992550306513e-06,0.000810816798949614,0.000172428373964081,-0.0404362142638726,0.527484521876292,-0.000219406141598032,0
0.3,0.000693071136544743,0.000398720121616424,-0.0345392307486029,-0.019945909854604,-4.34017438216293e-06,0.000799566444130549,0.000150903841800231,-0.0398845209155601,0.527483800429749,-0.000173868645777526,0
0.31,0.000701590229153207,0.000403458306060244,-0.0349587700023175,-0.0201829358495477,-4.5333193887691e-06,0.000809312611657307,0.000157231050526858,-0.0403663446199757,0.527482714750161,-0.000192126135764257,0
0.32,0.000703372745026388,0.000404451340257833,-0.0350487826140122,-0.020232628746621,-4.57161189364619e-06,0.000811352701016646,0.000159556584253116,-0.0404691360226445,0.527481609893107,-0.000185350325139886,0
0.33,0.00070362086148572,0.000404659282374204,-0.035063542214347,-0.0202430288800555,-4.5159873868303e-06,0.000811671767026201,0.000157957637095942,-0.0404871246230322,0.527480577422275,-0.000173798699678716,0
0.34,0.000703530428831222,0.000404702662456179,-0.0350615174544481,-0.0202451965205624,-4.43221590285133e-06,0.000811615466063057,0.000155027151173083,-0.0404864663183533,0.527479631514414,-0.000162045387108001,0
0.35,0.000703375324646929,0.000404711563542518,-0.0350561149421479,-0.0202456373418565,-4.34575207248572e-06,0.000811485928051822,0.000151891943698634,-0.0404820201453991,0.527478769153382,-0.000151062597062793,0
0.36,0.00070321730948471,0.000404713253918078,-0.0350503724981326,-0.0202457158862167,-4.26411642007516e-06,0.000811350244695242,0.000148901795657227,-0.0404770978734705,0.52747798392996,-0.000141000719924572,0
0.37,0.000703069578475753,0.000404713448428074,-0.0350449527941646,-0.0202457369515507,-4.18900726736052e-06,0.000811222694292221,0.000146126626342516,-0.0404724255273351,0.527477269167029,-0.000131827578140573,0
0.38,0.000702934380564833,0.000404713343694609,-0.0350399821599475,-0.0202457237459862,-4.12051752246459e-06,0.000811105822491667,0.000143609715386982,-0.0404681239498185,0.527476618593072,-0.000123474972042212,0
0.39,0.000702810922116469,0.000404713189286643,-0.0350354360660581,-0.0202457243429331,-4.05802734966418e-06,0.000810999069199711,0.000141296942205816,-0.0404641961452715,0.527476026455757,-0.000115871871667493,0
0.4,0.000702698774434198,0.00040471303635211,-0.0350313074867606,-0.0202457081397809,-4.00127247599967e-06,0.000810902089776097,0.000139210999858766,-0.0404606206404533,0.52747548750853,-0.000108951566042571,0
0.41,0.000702596445366675,0.000404712894547332,-0.0350275351025134,-0.0202457086507433,-3.94948957388517e-06,0.00081081359977918,0.000137291869561691,-0.0404573613211631,0.527474996974224,-0.000102652862262648,0
0.42,0.000702503448002164,0.000404712764926783,-0.0350241066437701,-0.0202456909190897,-3.90242909269005e-06,0.000810733179040297,0.000135563403982485,-0.0404543899910627,0.527474550503976,-9.69199551001662e-05,0
0.43,0.000702418697648178,0.000404712646826785,-0.035020978888685,-0.0202456913580313,-3.8595423933905e-06,0.000810659889990752,0.000133972222448327,-0.0404516876326563,0.527474144139922,-9.17020271168959e-05,0
0.44,0.000702341630705405,0.000404712539304888,-0.0350181336975666,-0.0202456917644076,-3.82054366333785e-06,0.000810593245184448,0.000132524776926921,-0.0404492294100092,0.527473774279024,-8.69528199674271e-05,0
0.45,0.000702271567159037,0.000404712441431035,-0.0350155461841114,-0.0202456739433068,-3.78508874718957e-06,0.000810532656585936,0.000131224129579714,-0.0404469846616302,0.527473437642399,-8.26302293178427e-05,0
0.46,0.000702207655147586,0.000404712352342863,-0.0350131820746157,-0.0202456742954791,-3.7527471733219e-06,0.000810477387701482,0.000130021454316721,-0.040444942095276,0.527473131245588,-7.8695932718051e-05,0
0.47,0.000702149505694544,0.000404712271253401,-0.0350110294735661,-0.0202456746231092,-3.7233216185164e-06,0.000810427102043302,0.00012892637768493,-0.0404430822729037,0.527472852372131,-7.51150501156901e-05,0
0.48,0.000702096536723305,0.000404712197444763,-0.0350090661557071,-0.0202456749286536,-3.69651770212301e-06,0.000810381296302121,0.000127927610153282,-0.0404413859918024,0.527472598549415,-7.1855834682826e-05,0
0.49,0.000702048340780243,0.000404712130263596,-0.0350072780207567,-0.0202456752138595,-3.67212906648962e-06,0.00081033961808794,0.000127017961583799,-0.0404398410694834,0.527472367527506,-6.88893913755846e-05,0
0.5,0.000702004761721814,0.00040471206911488,-0.0350056629623414,-0.020245658743109,-3.65007596542e-06,0.000810301932191202,0.000126210749644712,-0.0404384372623639,0.527472157258192,-6.6189420760912e-05,0
0.51,4.74019995457855,0.0311688997388495,2.99059411337519,-1.55245071417735,-0.337798446496607,4.7282511903707,-1.78046505603033,2.86071679044938,0.0778967436644795,24.1093697904042,2947.47627786418
0.52,4.73889493256162,0.0183353094852151,3.056550589541,-0.902039304087948,-1.62904657418177,4.45013130419528,-1.90767335676589,2.55283347996466,0.354785254594675,51.4867989555311,2947.47627786418
0.53,4.71385497165721,0.0199656495952674,4.30926801915446,-0.974452118789823,-3.48105484565901,3.17853495851392,-3.84853805318688,2.1698162700777,0.835028659549103,79.8217878334219,2947.47627786418
0.54,4.67846145980789,0.038926199581045,6.07976859144654,-1.91952265894133,-4.67334678101631,0.222141271010413,-6.15028670786046,-1.67991868102121,1.53161852687047,110.508741418511,2947.47627786418
0.55,4.73628859429247,-0.00891246355315678,3.18930226865215,0.48449587288123,-3.02173619094115,-3.64713853216299,-2.41187717987341,-2.14224967752934,2.44781856901735,138.914669365978,2947.47627786418
0.56,4.66343099011609,-0.018145532143897,6.83310274072144,0.958223957254043,1.941177526386,-4.24025325552211,1.9472871355742,-6.6194832901925,-2.71616424657419,166.931682853576,2947.47627786418
0.57,4.71920854900299,-0.00274063464007401,4.0452245185258,0.190283429552526,4.63450572991752,0.890108689668166,4.00884205379665,0.573789662294508,-1.38162650034003,196.396733427837,2947.47627786418
0.58,4.68234213554837,0.0521283201699256,5.88958420891038,-2.54870116473864,-0.692442560142695,4.63115196651961,-3.45203901074983,5.40985271973719,0.15955143742071,224.88941324669,2947.47627786418
0.59,4.63559087710778,0.0972992614666482,8.22827241311021,-4.79422574793248,-4.39849696248553,-1.46676323829458,-6.13763485958528,-7.28138075895588,1.91365568311921,253.073849421893,2947.47627786418
0.6,4.67976927556269,0.0478645156171758,6.02057648757692,-2.31792233230558,3.10251725050641,-3.50384334619371,5.75668725076379,-2.91215677432699,-2.4066407581785,282.081071896627,2947.47627786418
0.61,4.64566794678664,0.0828106463509219,7.72691316215967,-4.06359130509597,1.16222944040889,4.49870103505408,-2.15277393847272,8.46070479807921,-0.234996377794603,310.843245266946,2947.47627786418
0.62,4.63822304969749,0.0268508973035104,8.10048950764511,-1.25859263733235,-3.90680116430181,-2.50014773404315,-6.11304725614547,-5.46192630253723,2.14586127346448,339.369862730376,2947.47627786418
0.63,4.62872306226233,0.0575518595609457,8.57688930679963,-2.78767065706346,4.62880449426097,0.0505802092478692,8.50943568649181,2.98724658687665,-1.54743649319746,367.800331679359,2947.47627786418
0.64,4.67872227481051,0.0216377899479452,6.07837550119842,-0.979921366055811,-4.43472864767668,1.49133904268535,-6.07827440593302,0.98054824634049,1.25101503772874,396.134785653018,2947.47627786418
0.65,4.65570494222436,0.0751423506851907,7.23073653452907,-3.64300641824,4.14950298280355,-2.11254819533739,8.0960308191019,0.096600058300087,-2.02556589624579,424.30428604766,2947.47627786418
0.66,4.61146161038059,0.0504433347141254,9.44437477855451,-2.3920842121393,-4.2605437425842,1.76518829917876,-9.65555052991105,1.29947135408871,1.18895269885764,452.534570350927,2947.47627786418
0.67,4.58663751932568,0.0537250266056493,10.6871871479739,-2.57275888023225,4.55801590527285,-0.514413374096696,10.8916418803203,1.48566299761567,-1.67146699994964,481.294912379029,2947.47627786418
0.68,4.62644815675088,0.0846058537290983,8.69826310315626,-4.09405719168429,-4.31375738736896,-1.67412003766414,-6.49935458807532,-7.0837472596766,1.95927765836838,509.371115203153,2947.47627786418
0.69,4.56399765267798,0.0604302276161315,11.822446728612,-2.89557373165756,2.18574384425341,4.00702511014945,2.96336396306661,11.8056371242188,-0.486124898257661,537.826211982789,2947.47627786418
0.7,4.6258210479803,0.0630131529174762,8.73298136468652,-2.99447077910431,1.82001756115388,-4.25320198232692,6.28139349919605,-6.76579001086563,-2.72363264727966,565.876900475181,2947.47627786418
0.71,4.59102119909362,0.0900961912977145,10.474748973213,-4.36186841641169,-4.58318860356859,0.282798865507575,-10.6486698322713,-3.91817469457306,1.5287928528082,594.392225118816,2947.47627786418
0.72,4.55709585933607,0.0526477995256718,12.1727870832711,-2.48721928322752,1.37589607714055,4.34474446278283,1.16102637841837,12.3699241261265,-0.295136525820451,622.54069621065,2947.47627786418
0.73,4.55588994616265,0.0893793831171485,12.2349302736097,-4.2860979762906,4.26319306700213,-1.60913229696544,12.9638337657658,-0.0562917049324687,-1.91209526405768,650.520677948471,2947.47627786418
0.74,4.60762624658124,0.105216841219065,9.65003059202114,-5.07023511381695,-0.932882078255128,-4.51342677352041,3.25038998269445,-10.4050631663977,2.96060375180366,678.643481740883,2947.47627786418
0.75,4.5748572429272,0.0960201907755338,11.2904272537937,-4.60419618802747,-4.51412463595152,-0.74914447291267,-10.2479224492701,-6.60700049831998,1.75623871483598,706.774050147931,2947.47627786418
0.76,4.59386369307775,0.104644703232777,10.3420633864502,-5.02554546467927,-3.08213937224331,3.40807145385191,-10.759462011195,4.05565771935497,0.757996584694978,734.904799177541,2947.47627786418
0.77,4.53902647646365,0.115420823776303,13.0859416386906,-5.57351827905198,0.27051431013278,4.53242819343149,-5.12293437311244,13.2688175052235,-0.0341904100764041,763.107493494905,2947.47627786418
0.78,4.54452807188749,0.068564803837497,12.8129495462338,-3.24586133731949,2.69843276044652,3.65730736551465,4.81010176626188,12.3113854985393,-0.620573728618817,791.293587684138,2947.47627786418
0.79,4.51962947168647,0.153310659829395,14.0599911786898,-7.45964458292929,3.88931907348238,2.30732569534525,7.82070934246911,13.8624007527224,-1.00144922100889,819.167171527463,2947.47627786418
0.8,4.49143462473399,0.0930303155194325,15.4719529933856,-4.41934405179477,4.18387228276492,1.63610890510884,12.5952133056475,10.0136173814914,-1.17731815944178,847.061456447014,2947.47627786418
0.81,4.5502296747573,0.0904478143803731,12.5343944034673,-4.31164927687592,4.18679304202632,1.78424631803126,9.66217519072199,9.07434477702128,-1.14806801500825,875.184854893856,2947.47627786418
0.82,4.46707348910705,0.111885064549292,16.6944877695603,-5.34981257064498,3.60624563864274,2.63860876571773,9.95594427870062,14.4293308905312,-0.9140837392455,902.970902272607,2947.47627786418
0.83,4.54312118979983,0.144204425812611,12.8944446812145,-6.9722580933961,3.90838344110165,2.32062145533359,7.12485826768532,12.8107564656902,-1.00325092060148,930.877406946652,2947.47627786418
0.84,4.45842200898118,0.0943280390610166,17.1318292500259,-4.50058537184107,1.66129605426159,4.13841998946648,1.83335206043549,17.617992574745,-0.360586518934451,958.848901714911,2947.47627786418
0.85,4.42345765537265,0.12052901074281,18.8824383544782,-5.81249389614099,-1.96030239300068,3.9672054899263,-13.9618078843814,13.9785365508329,0.486178938583038,986.651525105662,2947.47627786418
0.86,4.48489036052407,0.142492012414581,15.8132429186166,-6.85150253927223,-4.47753268635095,0.293677650124333,-16.0353338988949,-6.31425414437724,1.53706185587645,1014.36530209888,2947.47627786418
0.87,4.46274148391646,0.143365112854897,16.9231565778602,-6.88864430018061,-1.66433742260174,-4.14325910987717,0.670735994872344,-18.2591555686008,2.79173750089709,1042.14381354171,2947.47627786418
0.88,4.43114380799475,0.190377564400667,18.5055457585258,-9.23602890073891,3.88140731814223,-2.1461491781396,20.6823402920435,0.015928599743031,-2.03294967244339,1069.94309689625,2947.47627786418
0.89,4.44406027126988,0.158049341133098,17.8623088000005,-7.65284784880676,1.75881479644653,4.08426514818917,-0.654658542045066,19.4216265553864,-0.371082023373555,1097.75522380318,2947.47627786418
0.9,4.46406197239831,0.167728529053397,16.8648736121319,-8.14182555595687,-4.43804499408421,0.509645742997194,-17.439698658238,-6.82423593134544,1.49401692396177,1125.52602034039,2947.47627786418
0.91,4.51644702704451,0.191302363944206,14.2482821595379,-9.28732096047343,1.66912685505683,-4.20106009053405,14.2948073765696,-9.215549749604,-2.72107511316508,1153.1316577006,2947.47627786418
0.92,4.42703524726853,0.17748709052653,18.7215093120513,-8.56441018785204,2.08557822362437,3.90902880790169,0.432217183533374,20.5829351913974,-0.450039072315126,1180.7356071293,2947.47627786418
0.93,4.45609927898459,0.151627453972409,17.2710584797384,-7.31772476363175,-4.07279444778678,-1.81443022876116,-12.3246692844724,-14.1400524664937,2.02391563980168,1208.53966315425,2947.47627786418
0.94,4.45896696325555,0.191120847104727,17.1304294393889,-9.23400841443746,4.45634180930223,-0.244808570657505,17.2403968580375,9.02702832349358,-1.58284012156569,1236.0010485447,2947.47627786418
0.95,4.44020617763427,0.113078667813105,18.0713080454342,-5.37105222496788,-4.24284222803507,1.31396632872321,-18.8507385130661,-0.264639355185714,1.2959348730961,1263.72246297286,2947.47627786418
0.96,4.35966583623134,0.192541664583641,22.1011544126585,-9.3325172337539,2.68725272791542,-3.43837625522782,21.4571907731931,-10.730604289288,-2.43406960438061,1291.24622249527,2947.47627786418
0.97,4.40638462161605,0.155461922406955,19.7681582869041,-7.43471200600189,-3.20444425470566,3.02851958247207,-19.7498606351674,7.48318311681264,0.848881987147373,1318.6819582253,2947.47627786418
