t,iq,id,vq,vd,ia,ib,va,vb,theta_e,omega,r
0,0,0,0,0,0,0,0,0,0,0,0
0.01,0.000847361794670611,0.00043855946822115,-0.0413504082810273,-0.0219431353124577,-0.000562443140320009,-0.000770723122879276,0.0279822190486329,0.037528027785414,2.98876697534537,-0.00351406278637688,0
0.02,0.00100053300601143,0.000515884852224059,-0.0491542814893828,-0.0258120786899843,-0.000662207209085541,-0.000910321420767217,0.0329951653325614,0.0446511574285859,2.98874232269894,-0.00314570404329925,0
0.03,0.00103489867244394,0.000545531542331909,-0.051057639298582,-0.0272954187991248,-0.000696759229405271,-0.000939758746776977,0.0347519253967291,0.0463057890482809,2.98872252630662,-0.00239056642310495,0
0.04,0.000986341440041079,0.000534654657119865,-0.048877647042305,-0.0267512074457605,-0.00067862679015191,-0.000893415199339246,0.033882679320484,0.0442336469473579,2.98870946036215,-0.00152296722415222,0
0.05,0.000992317115659137,0.000548113845255509,-0.0492782612025406,-0.0274246259343628,-0.000692847142111958,-0.000897265224478326,0.0346096551762372,0.044526721228578,2.98870040545287,-0.00112707030077435,0
0.06,0.000982326765787864,0.000549969472390047,-0.0488738205060723,-0.0275174779383621,-0.000693165156753344,-0.000887104481336524,0.0346401041544465,0.0441126411260663,2.98869416386256,-0.000781056240020404,0
0.07,0.000991356162467249,0.000560694664305983,-0.0493563089291417,-0.0280541203986488,-0.00070514382481382,-0.000894392382441804,0.0352441393897417,0.0445076346386461,2.98869037315676,-0.00064915098984408,0
0.08,0.000969921765534767,0.000551703555693216,-0.0483597726586043,-0.0276042434768482,-0.000692995635390093,-0.000874575379228628,0.0346478627627902,0.0435911398737388,2.98868736082384,-0.000396059377572735,0
0.09,0.000962469022465944,0.000550461391579587,-0.0480217287654531,-0.02754209363085,-0.000690634335591725,-0.000867397588956796,0.0345350253447493,0.0432664463485364,2.98868563127031,-0.000275901260877848,0
0.1,0.000959045675450914,0.000550289417423525,-0.0478697958146563,-0.0275334927741957,-0.000689943871672941,-0.00086403964288126,0.0345034295626792,0.0431175593476348,2.98868456635025,-0.000207957773022005,0
0.11,0.000957143361097582,0.00055026537606684,-0.0477863656934101,-0.0275322851889399,-0.000689630943946277,-0.000862162721847172,0.0344895575416789,0.0430352633835168,2.98868389339822,-0.000166374837053704,0
0.12,0.000955987386527013,0.000550261866957229,-0.0477359094664932,-0.0275320998994338,-0.00068945177462069,-0.000861020473565167,0.0344817076907696,0.0429854092942473,2.98868346427712,-0.000140153693017482,0
0.13,0.000999258586632083,0.000573370571475456,-0.0498344363733904,-0.0286883337626225,-0.000718882485540353,-0.000900266353461776,0.0359441269839882,0.0448833073434663,2.98868254796849,-0.000321210411329828,0
0.14,0.00102380359022551,0.000588537431435725,-0.0511429214559275,-0.0294472011012677,-0.000737611740081838,-0.000922214194454329,0.0368934811790263,0.0460609065720433,2.98868169027023,-0.000407981784745251,0
0.15,0.000965051968701472,0.000555545011745403,-0.048203910942474,-0.0277964620195546,-0.000696056098657926,-0.000869172865367353,0.0348143762946324,0.0434075976549065,2.98868098001902,-7.00194917228213e-05,0
0.16,0.000953828217328634,0.000550989895151459,-0.0476576924444083,-0.0275685360039289,-0.000689844237278325,-0.00085877416182907,0.0345058950755687,0.0429024828134641,2.98868136742546,-3.0115098452773e-05,0
0.17,0.000952321969275826,0.00055036116044839,-0.0475796827234206,-0.0275370905797171,-0.000688993044725751,-0.00085738155124485,0.0344629160319829,0.0428301877678514,2.98868179689264,-4.25550625435639e-05,0
0.18,0.000952580289834153,0.000550274491389997,-0.0475882199896745,-0.0275327451476826,-0.000688946463775012,-0.000857650275174528,0.0344599082046807,0.0428392981230771,2.9886821110345,-5.87026976524139e-05,0
0.19,0.000953009046768264,0.000550262618406677,-0.0476062755134415,-0.0275321445059554,-0.000688999855700107,-0.000858075982231853,0.0344620557200027,0.0428572416857401,2.98868232067931,-7.08073075847495e-05,0
0.2,0.000953340364679098,0.000550261039621101,-0.0476205436732522,-0.0275320621427285,-0.000689048643233334,-0.000858403768578442,0.0344641417393536,0.0428713606004863,2.98868245679162,-7.89406534171586e-05,0
0.21,0.000953564813409075,0.000550260860536619,-0.0476302592272815,-0.0275320528417354,-0.000689082577945435,-0.00085862568607191,0.0344656086158184,0.0428809672288228,2.9886825443786,-8.42326544964442e-05,0
0.22,0.00095371114746499,0.000550260860754026,-0.0476365963575101,-0.0275320495870606,-0.000689104818762839,-0.000858770351394705,0.0344665682286032,0.0428872328500657,2.98868260057357,-8.76404327379702e-05,0
0.23,0.000953805502083172,0.000550260876767646,-0.0476406767719466,-0.0275320493929155,-0.000689119175266407,-0.000858863627466769,0.0344671879996561,0.042891266925324,2.98868263659185,-8.98273486478069e-05,0
0.24,0.000953865775457709,0.00055026088921847,-0.0476432733405073,-0.0275320720383308,-0.000689128348278472,-0.000858923211580653,0.0344676048868352,0.0428938305434143,2.98868265967035,-9.12291756682278e-05,0
0.25,0.000953904658175135,0.000550260897497761,-0.0476449416590294,-0.0275320720064301,-0.000689134266174669,-0.000858961649543891,0.0344678583306918,0.0428954799105328,2.98868267445605,-9.21274099121059e-05,0
0.26,0.000962608951904309,0.000554939736641,-0.0480631724932445,-0.0277661724407043,-0.000695084193530943,-0.000866851815186963,0.0347629244434395,0.0432731783702332,2.98868280363884,-0.00014332732338199,0
0.27,0.000942515301844252,0.000543077829463624,-0.0470989122274496,-0.0271726573631672,-0.000680300474385536,-0.000848799085541624,0.0340294805526968,0.0424105564040218,2.98868240119511,-2.02189770388809e-05,0
0.28,0.000941843106273143,0.000542845290833303,-0.0469563173099928,-0.027161019035955,-0.00067996821785196,-0.000848170188892162,0.0339962563917181,0.0422713998081067,2.98868245501905,-1.92726799220096e-05,0
0.29,0.000951535489222973,0.000549237035179467,-0.0475300840819809,-0.0274808441129736,-0.0006877614573615,-0.000856776100175255,0.0343997319860615,0.0427897665954006,2.9886827134358,-8.16865917632289e-05,0
0.3,0.000938660752904588,0.000543342082077604,-0.0468951854193784,-0.0271858845985512,-0.000679973328172626,-0.00084495023532376,0.0340114623655383,0.0422072406665159,2.98868383280307,-6.77317854511227e-05,0
0.31,0.000952654855389355,0.000549306071066326,-0.0475718655504066,-0.0274842947604305,-0.00068799934011994,-0.000857872566994518,0.0344094641873716,0.0428305688120317,2.9886836968102,-0.000133845701705274,0
0.32,0.00095495628839599,0.000550129387451252,-0.0476865729245492,-0.0275254752795594,-0.000689163847887835,-0.000860021538363411,0.0344676486008427,0.0429376551127656,2.98868339716045,-0.000131645835549217,0
0.33,0.000954996458227778,0.00055024295653848,-0.0476914371645222,-0.0275311644681369,-0.000689282414730799,-0.000860043777485011,0.0344740225082578,0.0429415878594319,2.98868315946007,-0.00012064872299957,0
0.34,0.000954713628104546,0.000550258564836084,-0.0476797831809252,-0.0275319481754265,-0.000689254901219943,-0.000859761758284409,0.0344730289625895,0.0429299448946638,2.98868299733924,-0.000111540374994576,0
0.35,0.000954465954631654,0.000550260672799875,-0.0476691280000293,-0.0275320566411088,-0.000689219351421977,-0.000859516580530332,0.0344715177728856,0.0429193938634509,2.9886828913611,-0.000105261262622924,0
0.36,0.000954293077895768,0.000550260933516726,-0.047661613810112,-0.027532071768744,-0.000689193336184158,-0.000859345634092492,0.0344703911362941,0.0429119626884442,2.98868282301193,-0.000101143101418569,0
0.37,0.000954179223714558,0.000550260950046367,-0.0476566428822408,-0.0275320750863558,-0.000689176048568339,-0.000859233075593682,0.0344696391530209,0.0429070477430771,2.98868277912698,-9.84843033197693e-05,0
0.38,0.000954105649231285,0.000550260939848178,-0.047653419434137,-0.0275320753779183,-0.000689164856186931,-0.000859160341737501,0.0344691496697816,0.042903860891805,2.9886827509916,-9.67765598409828e-05,0
0.39,0.00095405832640304,0.000550260930442757,-0.0476513367156122,-0.0275320755939861,-0.000689157654416822,-0.000859113560077713,0.0344688334281142,0.0429018018199998,2.98868273296248,-9.56815674835066e-05,0
0.4,0.000954028000211755,0.000550260924020269,-0.0476499934845935,-0.0275320757611581,-0.000689153038866645,-0.000859083580749015,0.0344686294949978,0.0429004738381352,2.9886827214114,-9.49798721488494e-05,0
0.41,0.000954008617060703,0.00055026091985074,-0.0476491266585976,-0.0275320758968414,-0.000689150088763184,-0.000859064419295056,0.0344684979161779,0.0428996168504912,2.98868271401117,-9.4530297451491e-05,0
0.42,0.000953996102413627,0.000550260917171625,-0.0476485579458674,-0.0275320760127709,-0.000689148184022624,-0.000859052047809252,0.0344684116107959,0.0428990545924083,2.98868270927018,-9.42422746671573e-05,0
0.43,0.000953988186171756,0.000550260915454624,-0.0476481901076508,-0.0275320761154805,-0.000689146979174344,-0.000859044222102165,0.0344683558154134,0.0428986909257789,2.98868270623285,-9.40577551419571e-05,0
0.44,0.000953983063897604,0.000550260914354245,-0.0476479433448495,-0.0275320762101553,-0.000689146199560363,-0.000859039158421162,0.0344683184068384,0.042898446960707,2.988682704287,-9.39395450321819e-05,0
0.45,0.000953979746060937,0.00055026091364933,-0.0476477748855488,-0.0275320762996397,-0.000689145694578999,-0.000859035878545194,0.0344682928899152,0.0428982804103864,2.98868270304043,-9.3863815401252e-05,0
0.46,0.000953977708792809,0.000550260913197682,-0.0476476628298648,-0.0275320763854425,-0.00068914538451269,-0.000859033864566224,0.0344682759412431,0.0428981696215659,2.98868270224174,-9.38153003285872e-05,0
0.47,0.000953976311808949,0.000550260912908254,-0.047647577883515,-0.0275320764694048,-0.00068914517188485,-0.000859032483573835,0.0344682631075889,0.0428980856359443,2.98868270173014,-9.37842198684022e-05,0
0.48,0.000953975438694037,0.000550260912722742,-0.0476475159988075,-0.0275320765518609,-0.000689145038994855,-0.000859031620448703,0.0344682537771928,0.042898024449445,2.98868270140226,-9.37643086343239e-05,0
0.49,0.000953974914825089,0.000550260912603952,-0.0476474695734702,-0.027532076633313,-0.000689144959264957,-0.000859031102565542,0.0344682467954429,0.0428979785461487,2.98868270119216,-9.37515528012621e-05,0
0.5,0.000953974565579125,0.000550260912527988,-0.0476474305890481,-0.0275320767142631,-0.000689144906110193,-0.000859030757313373,0.0344682409433195,0.0428979399996258,2.98868270105755,-9.37433809682434e-05,0
0.51,4.68613821820811,0.00539237680341237,5.69395146072559,-0.252327608706033,-0.648529731156872,4.64104833692603,-1.04435143096647,5.60304225826048,0.139989447700285,42.9961271862089,954.851217691264
0.52,4.68780627457349,0.0394966953752882,5.61175015010243,-1.93436462768604,-2.74889112532667,3.7974577335339,-4.88605514374068,3.37045566538751,0.634996714414944,92.6105314561034,954.851217691264
0.53,4.46624884743541,0.0618506968078445,8.41413216287331,-3.04941552724299,-4.45379680387117,0.338966525988424,-8.58719374783264,-2.52124148967801,1.50868302825071,144.66682341334,954.851217691264
0.54,4.26740558153063,0.0183641842776494,9.64626719742676,-0.842359017720188,-1.69311903130115,-3.91719741478379,-3.01438609897079,-9.20182134173543,2.73791984848684,191.326359089133,954.851217691264
0.55,3.9914919798815,0.0995262137679773,14.693824916457,-4.88762477306231,3.63405738199888,-1.65394698736833,15.4345460391188,-1.25385611776968,-1.97297382928215,236.400073472419,954.851217691264
0.56,3.87478103270198,0.0775359305228691,12.0970881484862,-3.77270911079928,0.372485810171181,3.85761509136541,-2.84020776242569,12.3493358353075,-0.0762524183316745,279.881265791295,954.851217691264
0.57,3.65529388433788,0.0578381202287232,14.9595904701863,-2.80376542897636,-3.12724260078019,-1.89337591219891,-11.1828323414511,-10.3244713394637,2.13103226684506,321.722910553813,954.851217691264
0.58,3.47010034062597,0.0372183671032502,16.2796596144798,-1.77610860493029,3.45704400152221,-0.303031932973457,16.3678954773027,0.523332192709674,-1.64750418809691,361.473017598379,954.851217691264
0.59,3.29635665972307,0.0596737656964519,17.6575207926507,-2.85284411638699,-2.96927989137288,1.43279625666098,-17.2322675762084,4.79329889296026,1.13931501434066,398.635391977443,954.851217691264
0.6,3.16297122877849,0.072863717830322,17.0452898952555,-3.53854641603463,2.7147959107866,-1.62467820759464,16.5705970843998,-5.33652795534794,-2.08704526831289,434.821813564166,954.851217691264
0.61,3.00327935512228,0.0893687874568673,18.1622135169399,-4.38772893600304,-2.79681647814623,1.09794865665246,-18.577258735613,2.00090552521652,1.22645902863711,469.243428444172,954.851217691264
0.62,2.79508893273651,0.0807640815118209,21.9772453599982,-3.96561279224714,2.79351496648974,0.123770395355174,21.6285666721598,5.56151976887018,-1.49763199714656,501.905160299271,954.851217691264
0.63,2.72415252900478,0.0448874324966413,19.1324655917778,-2.16758693608507,-2.06931491696632,-1.77227471270679,-12.8874482095782,-14.3060599534424,2.29550191049555,533.097430332306,954.851217691264
0.64,2.54000608391202,0.058316713643816,22.1746042500204,-2.82886194640572,-0.0147130770069943,2.54063284847797,-3.46504304310797,22.0841348090944,0.0287462905922214,562.754264961231,954.851217691264
0.65,2.48820872413494,0.0201898431145505,18.8758493699565,-0.876863424960366,2.22645068027881,-1.11108399903529,17.3425606141967,-7.50347721034948,-2.02556019117043,590.931683530701,954.851217691264
0.66,2.25198107907389,0.0845244358122076,25.0663504826572,-4.1100901219501,-1.57412130190689,-1.61267023524313,-13.7769703524015,-21.3403340001747,2.40580613018703,617.919826610757,954.851217691264
0.67,2.19101097975273,0.0837736778915919,22.6197886843328,-4.08903867442746,-1.42733747079415,1.6644082693172,-18.3702420538508,13.8169925920138,0.747085849280466,643.5876841562,954.851217691264
0.68,2.01702981829606,0.0826805557168443,26.1368608472538,-4.07866525461872,1.40459347390902,1.44995259758423,14.3581633023515,22.2174290094725,-0.728541059826159,667.996310114716,954.851217691264
0.69,1.92738023366655,0.102500204203683,25.5672258970644,-4.99047467208008,1.68274541839961,-0.945340527982081,25.1339081105152,-6.84649842009559,-2.0295111511525,691.106867228139,954.851217691264
0.7,1.83253888513517,0.0422230101920149,25.4735126412162,-2.01970325100808,-0.0845921994045824,-1.83107228364203,1.43004610355552,-25.5134085462143,3.11846394341513,713.250252743391,954.851217691264
0.71,1.74433825482691,0.0166409386587567,25.2656815084579,-0.771778422098029,-1.4773778433821,-0.927549231025331,-20.8522267587899,-14.2875800337095,2.14097124019698,734.278822870896,954.851217691264
0.72,1.61017239177245,-0.00933101379832274,27.5414721520685,0.510474932217685,-1.55946791392963,0.401001277390353,-26.5035554341913,7.50698490116606,1.31331424125368,754.186669285127,954.851217691264
0.73,1.52849938786895,0.0255624292030537,27.3585745637389,-1.23996853814363,-0.877032163280666,1.25210958029789,-17.0718634518356,21.4144951473792,0.627745945679446,773.107306811212,954.851217691264
0.74,1.4028658623015,0.037255955791121,29.5138643696823,-1.8224334258626,0.284212848115189,-1.37427933507679,8.5166597554448,-28.3170612923321,-2.91110818016589,791.085218351525,954.851217691264
0.75,1.37611676796183,0.0721905067018737,26.9048401085014,-3.5433495469581,-0.332557342864673,-1.33727874507538,-1.63756486077257,-27.087711763874,2.95026624697799,808.077611694499,954.851217691264
0.76,1.24617615318562,0.098594750151439,29.6165068276923,-4.82646855070425,-0.67513420665686,-1.052078767264,-9.72447123157939,-28.3877955222287,2.65001746439335,824.198983845366,954.851217691264
0.77,1.11296257957345,0.0555369897700245,32.6640762540078,-2.65469050950125,-0.740041205514255,-0.833132087309397,-18.3780962480947,-27.1336477003119,2.46515830587112,839.500019611106,954.851217691264
0.78,1.13814609885113,0.035122183979712,27.9203534850684,-1.7411210342497,-0.80313821345476,-0.80720450954281,-17.8013444371914,-21.579846556812,2.38956892438849,854.082695154585,954.851217691264
0.79,1.03622766154439,0.0418828108629074,29.6546327769945,-2.00361308857947,-0.717795321388551,-0.748526427715308,-18.1429005487334,-23.5424482632095,2.41754593138557,867.763143795513,954.851217691264
0.8,0.935418891000259,0.0022476755870981,31.5123969804249,-0.117913094907682,-0.528739474035504,-0.771652850887209,-17.6521833331955,-26.1045109228481,2.54326904539194,880.767162496828,954.851217691264
0.81,0.970745698260093,0.0627166474138602,26.6710527864518,-3.06819282642535,-0.418596203848341,-0.878098973167073,-7.05189569969306,-25.9042396336676,2.76126922835626,893.002171303554,954.851217691264
0.82,0.718107883418715,0.0294097648209917,36.3688806728963,-1.49457144695607,-0.0831000642003017,-0.71388951934094,-1.23297455047938,-36.3786888021998,3.0666411737238,904.564773521484,954.851217691264
0.83,0.774982026793762,0.0242479925768834,30.7015604042587,-1.1315165838326,0.215251734425056,-0.74488374785894,10.5181156107954,-28.8658168953137,-2.82900401831415,915.444277560461,954.851217691264
0.84,0.673925899841054,0.0629867948356655,33.0719397625942,-3.16741863996627,0.428010056067178,-0.524357556163365,25.4629782885776,-21.3406297277491,-2.36382598189121,925.733695064995,954.851217691264
0.85,0.618726850025908,0.07885205304351,33.2601328174115,-3.84634077035655,0.578807921587911,-0.232426227261988,33.1544041310619,-4.670787842301,-1.82588786260258,935.335269615525,954.851217691264
0.86,0.679224458199328,0.0325506926688668,27.7622332976431,-1.56101153537925,-0.610377782838643,-0.299740511820434,-23.5509188391402,-14.7828473752042,2.07516416211385,944.430474135187,954.851217691264
0.87,0.545472502348145,0.000183707381921167,32.0877233156855,-0.0214554219754819,-0.210062407626424,-0.503402492513237,-12.3272599047423,-29.6253457559579,2.74661140472094,953.009521077989,954.851217691264
0.88,0.479976971236932,-0.0284819587995298,33.0954981114186,1.380274748798,0.18569554838565,-0.443515815055776,9.64833334364448,-31.6879601318072,-2.80434967565591,961.050222752498,954.851217691264
0.89,0.458016123680176,0.0947319728864984,32.0189415923559,-4.64963411003445,0.372855047830823,-0.282368605806413,30.9096645338143,-9.56160846609792,-2.01500722399663,968.589990810615,954.851217691264
0.9,0.451890289406483,0.102925068242266,30.2557871509196,-5.07816179611364,0.456410917554676,0.0805448798462643,25.9125656933746,16.423742647028,-1.17217512522688,975.631104559349,954.851217691264
0.91,0.360367350860648,0.00401473460771143,32.8600011720687,-0.17316201918212,0.103230152465546,0.345288692664894,8.89467624882624,31.6337540696929,-0.279369213104,982.212492220796,954.851217691264
0.92,0.386414993498894,0.0803786336111773,29.6785236223307,-4.02809954976873,-0.173389343937012,0.354560865509778,-21.3768128850638,20.9778983995313,0.659916220562968,988.349364794374,954.851217691264
0.93,0.281138328775552,-0.0379616062761006,33.1426535025439,1.85885158402857,-0.277692993104285,-0.0580210740899843,-33.1906328604456,-0.522207549005549,1.64255629543793,994.058490786297,954.851217691264
0.94,0.288256228110578,-0.0194613553981703,31.0554082775138,0.918291063049675,-0.114726506665499,-0.265156983816762,-15.0402442885009,-27.1858914421022,2.6658283549159,999.432954250264,954.851217691264
0.95,0.188991600783705,0.00495631590145503,34.3633428551152,-0.318618708446453,0.100304522580564,-0.160254151222324,19.2544842580387,-28.4641122471176,-2.55612086131697,1004.42977026087,954.851217691264
0.96,0.15280725452896,-0.0113939156025206,34.6077256550364,0.494782376954015,0.150603422180683,0.0282575224834494,34.4493978761395,3.3434219874624,-1.45975030539479,1009.02040461624,954.851217691264
0.97,0.0610918631489023,0.0325943775075763,37.6995976570185,-1.71371964837574,-0.0429119692155116,-0.0543430960302924,-4.99922300872047,-37.4059389381337,2.96330615104781,1013.25732743067,954.851217691264
