t,iq,id,vq,vd,ia,ib,va,vb,theta_e,omega,r
0,0,0,0,0,0,0,0,0,0,0,0
0.01,0.000507256188185986,0.000288326723294167,-0.0249663381452947,-0.0144311020774444,-0.000172456663027219,-0.000557404556131401,0.00872254135834537,0.0274862150869626,-2.92478028951066,-0.00143353336386026,0
0.02,0.000569553417207643,0.000323389753878087,-0.0280824504435487,-0.0161860489725331,-0.000193304344472477,-0.000625783875131262,0.00976640554136413,0.0309067877181894,-2.92479112323101,-0.00154352041203887,0
0.03,0.000594105165379154,0.00033738385709024,-0.0293001114544095,-0.0168864722994874,-0.000201696832832655,-0.000652768873477095,0.0101888622074536,0.0322464969396631,-2.92480220965525,-0.00154126611984894,0
0.04,0.000580332662427321,0.000329838260074491,-0.0286403660839423,-0.0165088016347309,-0.000197296872789624,-0.000637693673229071,0.00996226683940188,0.0315208556396821,-2.92481256173906,-0.00143167850769495,0
0.05,0.000594039770804502,0.000337796339123443,-0.0293257130785865,-0.0169071229592173,-0.000202127093862747,-0.000652789593934574,0.0102041836251772,0.0322757322282444,-2.92482268770103,-0.00140408715217818,0
0.06,0.000594589586573779,0.000338307614294102,-0.0293663177042532,-0.0169327038715854,-0.000202514512060419,-0.000653434534407445,0.0102207473956925,0.0323207889536036,-2.92483242182085,-0.00134058085891787,0
0.07,0.000608910739910912,0.000346728970897807,-0.0300803433271441,-0.0173542032111998,-0.000207664926476684,-0.000669229816094696,0.0104791233228656,0.0331086604706179,-2.92484157824641,-0.00132127359120839,0
0.08,0.000594894067963752,0.000338880471150246,-0.029406624579917,-0.0169613755557819,-0.000203020303332164,-0.000653851422159798,0.010240664743981,0.0323661337748246,-2.92485050459823,-0.00122050799346471,0
0.09,0.000593619839351083,0.000338373647916822,-0.0293560350285536,-0.0169360178714621,-0.000202804836755123,-0.00065249631222289,0.0102270507976943,0.0323111888658021,-2.92485889828856,-0.00116062668845108,0
0.1,0.000593224135576457,0.00033833984919611,-0.0293478738764995,-0.0169343179887598,-0.000202862123885293,-0.000652100979356134,0.0102274033847723,0.0323027715037039,-2.92486687651755,-0.00110609707907353,0
0.11,0.000592902776778813,0.000338336579347551,-0.0293428047245301,-0.016934157163484,-0.000202932979843442,-0.000651784894983375,0.0102285814708751,0.0322977087272945,-2.92487446569757,-0.00105438828842371,0
0.12,0.000592600917594669,0.000338335329195523,-0.0293381698393518,-0.0169340953171925,-0.000203001369854185,-0.000651488362408118,0.0102297508311205,0.0322930951082054,-2.92488168519642,-0.00100520926414296,0
0.13,0.000619942478065174,0.000354055607995435,-0.0306868598681011,-0.0177209127239324,-0.000212479873086118,-0.000681569037732725,0.0107084122919674,0.0337793431333255,-2.92488882949252,-0.00103749689954555,0
0.14,0.000643202858789452,0.000367705091232273,-0.0318888981849342,-0.0184040829552663,-0.000220813685800425,-0.000707218684592177,0.0111173913350164,0.035100081293033,-2.9248956521983,-0.00105998254851233,0
0.15,0.000595207900951429,0.000340224352186009,-0.0294946408019336,-0.0170286486527889,-0.000204299088549499,-0.000654436351063447,0.010289114638428,0.0324660257951678,-2.92490220695304,-0.000875564613579559,0
0.16,0.000591731697936225,0.000338453137945108,-0.0293327199704487,-0.0169400005597193,-0.000203320508694274,-0.000650659434475271,0.0102375426814197,0.0322887720372603,-2.92490810009188,-0.000825961334730348,0
0.17,0.000591279904876713,0.000338338228002228,-0.0293184397998837,-0.0169342508533575,-0.000203309048126485,-0.000650192366449042,0.0102351777445243,0.0322735325119801,-2.92491368301821,-0.000787290946483263,0
0.18,0.000591043251110735,0.000338330059845303,-0.0293143077608044,-0.0169338409613959,-0.000203355399464271,-0.000649958410659636,0.0102358371055754,0.0322693546255442,-2.92491899244508,-0.00075108055451645,0
0.19,0.000590831277644627,0.000338328805387147,-0.0293110198874415,-0.0169337744540771,-0.000203403026574736,-0.000649750096558757,0.010236641954545,0.0322660776295786,-2.92492404315651,-0.000716672900879763,0
0.2,0.000590630538273701,0.000338328031685739,-0.0293079356678102,-0.0169337312354,-0.000203448546282486,-0.00064955290683775,0.0102374177977018,0.0322630070436182,-2.92492884785249,-0.000683943802552665,0
0.21,0.000590439474493353,0.000338327322604846,-0.029304995423704,-0.016933703556613,-0.000203491895299793,-0.000649365227594032,0.0102381702883575,0.0322600827970598,-2.92493341852259,-0.000652809039062996,0
0.22,0.000590257943649701,0.000338326649706774,-0.0293022086958769,-0.016933661802953,-0.000203533084181143,-0.000649186911133531,0.0102388688249089,0.0322573077255344,-2.92493776656631,-0.000623190787541904,0
0.23,0.000590085098865893,0.000338326009608335,-0.029299548857331,-0.0169336341241295,-0.000203572298945141,-0.000649017127496078,0.0102395469762607,0.0322546617656109,-2.92494190282698,-0.000595015171050762,0
0.24,0.000589920694192387,0.000338325400615173,-0.0292970185986613,-0.0169336064425276,-0.000203609597712084,-0.000648855634064596,0.0102401907514846,0.0322521444138824,-2.92494583762043,-0.000568211921531935,0
0.25,0.00058976426396654,0.00033832482121328,-0.0292946088731162,-0.0169335773027386,-0.00020364508565932,-0.000648701973781336,0.0102408009932939,0.0322497464224516,-2.92494958075962,-0.000542714194227273,0
0.26,0.000595548609984207,0.000341700357501709,-0.0295827464169734,-0.0171025276781301,-0.000205700662527044,-0.000655075963997193,0.0103439807813561,0.0325674285160357,-2.92495309834379,-0.00053612462138357,0
0.27,0.000577925730209786,0.000331653710374099,-0.0287248580956457,-0.0165996791188477,-0.000199679112611196,-0.000635704794090957,0.0100373997903974,0.0316214709479401,-2.92495662238436,-0.000460935633685164,0
0.28,0.000576947491681781,0.000331124086400059,-0.0286307453425611,-0.0165731685957727,-0.000199374183814931,-0.000634634937251569,0.0100318397552986,0.0315238272945799,-2.92495984911163,-0.000436485261041964,0
0.29,0.000588372797895554,0.00033785898579094,-0.0292450394575447,-0.0169102527557393,-0.000203497807884277,-0.000647240207163785,0.0102291030158947,0.0321961866162213,-2.92496282091338,-0.000450068401278109,0
0.3,0.00058393165140277,0.000335472718839474,-0.0290310589681038,-0.0167908225143863,-0.000202123475602411,-0.000642389460690255,0.0101585358201638,0.0319615120967327,-2.92496528632503,-0.000420568721574438,0
0.31,0.000588642623114754,0.000338138379773516,-0.0292655746846537,-0.0169242357024591,-0.000203716058555738,-0.000647562714422157,0.0102385136308723,0.0322191938813788,-2.9249680450273,-0.000415912061461601,0
0.32,0.000588858161862451,0.000338309723431042,-0.0292798502081416,-0.016932817829554,-0.00020383879347156,-0.000647809501347481,0.0102439125917564,0.0322349531203711,-2.92497070398295,-0.000398756364910913,0
0.33,0.000588774446703787,0.000338320396113151,-0.0292792949710965,-0.0169333584791563,-0.00020386884968314,-0.000647729520437646,0.0102446415548852,0.0322345011253472,-2.92497323577041,-0.000381574944014875,0
0.34,0.0005886754092657,0.000338320735783743,-0.0292778162595062,-0.0169333656732071,-0.000203892027367439,-0.000647632379449474,0.0102450440366705,0.0322330338416141,-2.92497564439921,-0.000365172090277404,0
0.35,0.000588579760959984,0.00033832042669751,-0.0292763381753119,-0.0169333548880463,-0.000203913766619936,-0.00064753843277088,0.0102454250365368,0.0322315645065587,-2.92497793572008,-0.000349564234463669,0
0.36,0.000588488652848557,0.00033832009191476,-0.0292749252166272,-0.016933341184828,-0.00020393443229943,-0.000647448937328212,0.0102457855859114,0.0322301592898397,-2.92498011543704,-0.000334716332951104,0
0.37,0.000588401968517618,0.000338319770792845,-0.0292735793300101,-0.0169333260184772,-0.000203954091440504,-0.000647363786791793,0.010246126863405,0.0322288203497652,-2.9249821889849,-0.000320591619180113,0
0.38,0.000588319591555043,0.000338319465123057,-0.0292723022116045,-0.0169333122994672,-0.000203972774213257,-0.000647282866812024,0.0102464515144476,0.0322275499155748,-2.92498416153532,-0.000307154885257577,0
0.39,0.000588241334213482,0.000338319174312645,-0.0292710916263243,-0.016933284548515,-0.000203990523621962,-0.000647205992908969,0.0102467450611373,0.0322263424274259,-2.92498603800742,-0.000294372622469877,0
0.4,0.000588166595576989,0.000338318897649941,-0.0292699243048089,-0.0169332848399948,-0.000204007471190823,-0.000647132577110766,0.0102470537471303,0.0322251841544011,-2.92498782308114,-0.000282212953169454,0
0.41,0.000588095685523207,0.000338318634447911,-0.0292688221985972,-0.0169332710998123,-0.000204023552571115,-0.000647062921006892,0.0102473319078229,0.0322240874471838,-2.92498952120822,-0.000270645552320114,0
0.42,0.000588028209721282,0.000338318384052479,-0.0292677717526268,-0.0169332573530969,-0.000204038854647334,-0.00064699663848439,0.0102475962908121,0.0322230420384327,-2.92499113662316,-0.000259641571941308,0
0.43,0.000587964051755894,0.00033831814584102,-0.0292667730000692,-0.0169332435999883,-0.000204053404469769,-0.000646933614899404,0.010247847019447,0.0322220479194004,-2.92499267335543,-0.000249173569168466,0
0.44,0.000587902978794698,0.000338317919221312,-0.0292658198344163,-0.0169332283857164,-0.000204067254006421,-0.000646873621957331,0.0102480841092311,0.0322210987744594,-2.92499413523702,-0.000239215437811807,0
0.45,0.000587844932633421,0.000338317703629837,-0.029264914664064,-0.0169332146206983,-0.000204080417600356,-0.000646816601954698,0.0102483100028719,0.0322201975439415,-2.92499552591377,-0.000229742343253836,0
0.46,0.000587789518940328,0.000338317498530268,-0.0292640427951087,-0.0169332148640909,-0.000204092981739648,-0.000646762168955869,0.0102485402360166,0.0322193325408546,-2.92499684885373,-0.000220730660510952,0
0.47,0.000587737002506699,0.000338317303412476,-0.0292632222504952,-0.0169332010867218,-0.000204104891176463,-0.000646710580786872,0.010248743667809,0.0322185153096287,-2.92499810735679,-0.000212157915314481,0
0.48,0.000587687047210016,0.00033831711779104,-0.0292624407909808,-0.0169331873041126,-0.000204116219720606,-0.000646661508438405,0.0102489367179952,0.0322177368769494,-2.92499930456091,-0.000204002728065493,0
0.49,0.000587639375135813,0.000338316941204247,-0.0292616888488719,-0.0169331875269404,-0.000204127028594446,-0.000646614679784653,0.0102491352224987,0.0322169908790635,-2.92500044345197,-0.000196244760514213,0
0.5,0.000587594134659525,0.000338316773212432,-0.029260977965569,-0.0169331737336137,-0.000204137287334925,-0.000646570239063543,0.0102493094259196,0.0322162825367238,-2.92500152687056,-0.000188864665037226,0
0.51,4.66309987346816,-0.0204524347946323,6.84606129424998,1.02979104504003,-0.51726904237953,4.63436635041119,0.294361950328073,6.91681833528042,0.106769852856323,33.1783854764125,2246.95584756428
0.52,4.66775065958791,0.0254678915777978,6.61470126375029,-1.26144656922231,-2.16793174130149,4.13383802278733,-4.21798936516038,5.24919860274465,0.488460517191238,71.0053934735218,2246.95584756428
0.53,4.67569766909843,0.0136591931302943,6.21856553736512,-0.662160186880571,-4.26279561064356,1.92117382041487,-5.94713736821876,1.93405547467773,1.1502950311184,109.859346666738,2246.95584756428
0.54,4.69578436286964,0.010467839767796,5.21553689338523,-0.498532778702451,-4.0420197342275,-2.39009975238606,-4.22876761863349,-3.0931997098959,2.10703320820126,151.829746125437,2246.95584756428
0.55,4.64481533660721,0.00946718857243134,7.76532379704842,-0.441596032820102,1.05163284904899,-4.52420904574956,2.20348053412785,-7.45921807329217,-2.91116448187175,192.395147207319,2246.95584756428
0.56,4.61952942253444,0.0462941051977741,9.03099254758327,-2.2732768106211,4.52905912646829,0.910943828560097,8.36482809906028,4.09344167240525,-1.36229040430818,230.310983248474,2246.95584756428
0.57,4.64206555807628,0.0355044447844153,7.90563335243557,-1.73365938569698,-2.10023505416014,4.13993308259378,-5.17054155639146,6.22656515121988,0.477127835482369,271.829505679975,2246.95584756428
0.58,4.62577382226399,0.00914079308557358,8.72174616750438,-0.398562064330504,-2.35216299716506,-3.98311388785314,-4.07648048485001,-7.72075221634122,2.61013879699545,309.935445924564,2246.95584756428
0.59,4.63106411153621,0.0581879001870558,8.45879014663989,-2.85451961328465,4.41365088994664,1.40350506182203,7.12905992941875,5.37363168539441,-1.2503520167205,350.767741398808,2246.95584756428
0.6,4.58003757224039,0.0154568087077531,11.0117060637621,-0.711427758871888,-4.55079591451453,0.516952241998193,-11.0233836263651,0.498811905204102,1.46105999665155,390.03389786784,2246.95584756428
0.61,4.59854587076125,0.0211349453032406,10.0879340663668,-0.976392996809965,4.45335000333565,-1.14662311122648,10.0198762416662,-1.52375756381261,-1.81820117277282,428.905457828294,2246.95584756428
0.62,4.57697962020729,0.0562837145395059,11.1679516614835,-2.73260023497868,-4.55077393496392,0.492307722027791,-11.3775728270213,-1.65562221634737,1.47533082007265,468.662655582717,2246.95584756428
0.63,4.58428426135242,0.0556927319776511,10.804510456003,-2.69927670663738,4.33287958368282,1.49830517004489,9.25450633034498,6.19497001723802,-1.22572096721279,508.335550876038,2246.95584756428
0.64,4.61077762985233,0.0735161438483685,9.48170302240166,-3.58519319223809,-2.26047918566671,-4.01931696019617,-1.36304732352713,-10.0448197805892,2.64521932613474,547.765795461689,2246.95584756428
0.65,4.5806291603008,0.0240555811772989,10.990949032762,-1.10153903518019,-2.26211858574717,3.98315976069264,-6.43283796691477,8.97958487783358,0.521749207947473,587.068374436864,2246.95584756428
0.66,4.58614031251914,0.0393613696464942,10.7172466373021,-1.85600513888068,4.44474198391969,1.1307081762839,9.89037480376687,4.52599346015084,-1.31310554903412,626.25039160201,2246.95584756428
0.67,4.57373354229403,0.0892739192477759,11.339565277619,-4.34330787203871,1.18559000616962,-4.41830110855225,7.3241629204783,-9.68538597429068,-2.8599158939134,665.496289457793,2246.95584756428
0.68,4.56852623579158,0.0705353888582931,11.601939126964,-3.42329764050535,-3.82577580608907,-2.49796851255994,-7.69987530559931,-9.3293021453638,2.16466760056248,705.318343455173,2246.95584756428
0.69,4.56390759729026,0.0771244544265555,11.834920675243,-3.73624253272357,-4.21556609439942,1.75048657287748,-12.3795069978135,0.879012027059071,1.19411559572252,744.322500049665,2246.95584756428
0.7,4.53600899687968,0.064756069535,13.2319679927901,-3.09588771763617,-2.15744789125546,3.99061268038285,-9.16042592199782,10.0377335414934,0.509896507067521,783.168182757658,2246.95584756428
0.71,4.56735754015493,0.0495512790306845,11.6666719978298,-2.34926584682392,-0.467295259225452,4.54365990910071,-3.65359408146759,11.3261439074322,0.113333818250108,822.7485327221,2246.95584756428
0.72,4.51905042629078,0.0637175988655163,14.0842400769735,-3.03076012899418,0.0507574189836988,4.51921457470014,-3.07113902612049,14.0754904208545,0.00286784487902825,861.447281173248,2246.95584756428
0.73,4.54887313582223,0.070640332286787,12.5953445463616,-3.38265137375555,-0.741728550875346,4.48854938918657,-5.57465238410209,11.7901774946078,0.17929701021695,900.621251293778,2246.95584756428
0.74,4.51786207559552,0.0564603892849098,14.1482276803297,-2.68481235670532,-2.65722824527667,3.65423091254047,-10.6146361093368,9.73190958401933,0.64122221728079,939.881572000296,2246.95584756428
0.75,4.4814111092795,0.0932972973929934,15.9730902027163,-4.51324389231119,-4.39059132830043,0.902473104268274,-16.5260137190411,-1.54914544625791,1.38888852223841,978.640332664834,2246.95584756428
0.76,4.5153160929818,0.0864986828570022,14.2802189010526,-4.14382650444539,-3.04027788117344,-3.33950173632594,-6.29240236177849,-13.4722538009944,2.42221644024433,1017.34998158346,2246.95584756428
0.77,4.49815894814278,0.0829894736174461,15.1405577120086,-3.96424072136194,2.46775529689773,-3.7617156950149,11.8110000055821,-10.2689810203207,-2.54255053080004,1056.17991694752,2246.95584756428
0.78,4.48384633283915,0.102215118971453,15.8587230724747,-4.92120678004268,3.68023411408076,2.56343572820105,9.89907877954373,13.3313770098128,-0.939602932792692,1094.98646803041,2246.95584756428
0.79,4.44269394861299,0.104466754271666,17.9189230899654,-5.02714797547551,-3.54655630767968,2.67775674403931,-17.4844445606701,6.37606617565054,0.947593671256848,1133.74735022287,2246.95584756428
0.8,4.43267795243663,0.100202064272353,18.4223439971319,-4.80751345288128,-0.20179860377909,-4.42921568759245,4.38390213252696,-18.5277183171788,3.11866480251532,1172.57562690509,2246.95584756428
0.81,4.44342325384642,0.0965369809320139,17.887731447142,-4.65921440227621,2.96820541367162,3.30803358866882,8.11953950679466,16.6057909588508,-0.70958339428116,1211.52747489756,2246.95584756428
0.82,4.48329063902579,0.102339880060086,15.897050051094,-4.92771398897709,-4.06607881314221,-1.89139406003694,-12.0773950461637,-11.4514232470488,2.02901194377769,1250.10505500867,2246.95584756428
0.83,4.47115275735157,0.109782299963546,16.5066829575496,-5.26797177036517,4.25419505990589,1.38024763185094,13.822969175013,10.4473744080063,-1.23251895014625,1288.4702801947,2246.95584756428
0.84,4.44127707645931,0.0528440425315393,18.0032584887757,-2.45643383496047,-3.92030020226077,-2.08781725418395,-14.6080947020248,-10.8053205679372,2.07205361853008,1327.38280404366,2246.95584756428
0.85,4.40049552548339,0.106550187998227,18.3983282233708,-5.10371451057429,-3.34908456647209,-2.85645696256398,-10.3002192533971,-16.0764382421069,2.30118400756556,1365.64178504789,2246.95584756428
0.86,4.25285478575794,0.14062000489523,18.1683584734229,-6.84893798234387,0.628528024364257,4.20850333694886,-4.71519963367632,18.8351823330535,-0.115198604964519,1403.42895267422,2246.95584756428
0.87,4.06355061008179,0.119695619671252,20.2314509700146,-5.75920453632923,3.05647817722381,-2.68043126272979,19.2651894866232,-8.44585811435904,-2.26129203085066,1439.38019249641,2246.95584756428
0.88,3.94439232739623,0.0959856777747115,18.9723165755459,-4.59614617082645,-3.38051746258206,-2.03458737043604,-13.5473099345568,-14.0550257702857,2.13690990847515,1474.46247801901,2246.95584756428
0.89,3.80880623685088,0.137600282912328,18.8458939056309,-6.70656406416006,-1.71770885740332,3.40226616667919,-14.9692815384741,13.2689987893163,0.503648767393832,1508.35773686907,2246.95584756428
0.9,3.65327502756379,0.104389091390461,19.9396946022054,-5.05694486455684,2.89661368156829,2.22866432851022,12.2526926667977,16.5237899588862,-0.886425933101287,1540.91950207428,2246.95584756428
0.91,3.50792088595713,0.136408510020575,20.701889135195,-6.62486736207413,3.06401591046082,-1.71345344966918,21.453886460955,-3.49110828411688,-2.04182301400233,1572.26640099694,2246.95584756428
0.92,3.39575244578905,0.162042039362819,19.9962387634612,-7.89616237771922,0.418397369545853,-3.37377176714138,11.1849561388578,-18.3601661526382,-2.97052502898571,1602.59129810401,2246.95584756428
0.93,3.26730907749877,0.134184801818722,20.3304236939536,-6.50620176067569,-1.79253968391705,-2.73498000916415,-4.85398589256426,-20.7869095798552,2.60246785740512,1631.84913462847,2246.95584756428
0.94,3.15001016176901,0.169883156015252,20.2981329198616,-8.2982769297551,-2.80035676986692,-1.4523864043037,-13.2776965183747,-17.4521739391176,2.10312592118145,1660.15686500533,2246.95584756428
0.95,3.00924114638045,0.122164115890341,21.629017865775,-5.96479534103198,-2.95402122242725,-0.586698360087882,-19.6279487591228,-10.8690765388629,1.8074290984865,1687.48835905103,2246.95584756428
0.96,2.92062991062318,0.0638829720681517,20.5425783672978,-3.06100815402589,-2.90194127082108,-0.336001442931936,-19.9312252950718,-5.84068105041468,1.70793762148321,1713.8178649071,2246.95584756428
0.97,2.84776003807738,0.0643220507563305,18.8141105227317,-3.07255524018217,-2.78923873338844,-0.577946233528362,-17.6406976326322,-7.22614264317973,1.79769382302144,1739.14450829852,2246.95584756428
