t,iq,id,vq,vd,ia,ib,va,vb,theta_e,omega,r
0,0,0,0,0,0,0,0,0,0,0,0
0.01,0.00114159325635788,0.000636248826699975,-0.0553585894045114,-0.0318506293112189,0.00102850865561269,0.000806360761550721,-0.0507945104168626,-0.0387163236876798,-0.39742536358678,-0.00349168630198162,0
0.02,0.00126523654083538,0.000706387535845692,-0.0617195347870551,-0.035361792296395,0.00114105883277551,0.000893191802026986,-0.0564950776368176,-0.0432211005361251,-0.397450491148063,-0.00346379749448132,0
0.03,0.00131122587387508,0.00073402830193018,-0.0640996042814143,-0.0367454735385652,0.00118436801335848,0.000924869314707356,-0.0586932179920943,-0.0448786726223024,-0.397474226312744,-0.00319874702865399,0
0.04,0.00127762497601568,0.000718305701312279,-0.0626467132358317,-0.0359584136671222,0.00115688262900757,0.000899950688969863,-0.0574059973336585,-0.0438425553867062,-0.39749434216911,-0.00272942469115934,0
0.05,0.00130341143755434,0.000734516845955798,-0.0640196281590644,-0.0367699444220048,0.0011818288558121,0.000917429522148804,-0.0586865456981941,-0.0447932021230451,-0.39751268088288,-0.00249177617307036,0
0.06,0.00130111124083024,0.000735198326391797,-0.0640335357441729,-0.0368040358044503,0.00118158158110062,0.000915025686714792,-0.0587240897082727,-0.0447918747021183,-0.397528908058458,-0.00219680783398938,0
0.07,0.0013327625000911,0.000754847063833093,-0.0656531704330065,-0.0377876671462651,0.00121196468093061,0.00093658506479833,-0.0602586851096882,-0.0459035668016524,-0.397542849493603,-0.00205676235961277,0
0.08,0.00129671280841424,0.000736049994699592,-0.0640262113296602,-0.0368466953448421,0.00118068824780168,0.0009106091168585,-0.0587617780456331,-0.0447670429666923,-0.397555510870191,-0.00171112362237933,0
0.09,0.00129259574990343,0.000735245805230021,-0.0639119848032128,-0.0368064323427575,0.00117836261175078,0.000907111747253136,-0.0586809141358114,-0.0446766782502194,-0.39756633469084,-0.00150566672221781,0
0.1,0.00129033008695657,0.00073520714541826,-0.063875718310905,-0.0368044909672785,0.00117745830227969,0.000905026644012237,-0.058665504164553,-0.0446434381092382,-0.397575775903485,-0.0013309230474063,0
0.11,0.00128841611493678,0.000735201592139236,-0.0638471280667554,-0.0368042038260447,0.00117671956912277,0.000903254405998874,-0.0586545375719545,-0.0446167054348692,-0.39758402046473,-0.00117854511817332,0
0.12,0.00128674766114187,0.000735197939099603,-0.0638222992027588,-0.0368040169467306,0.00117607668152503,0.00090170903970375,-0.058645072809396,-0.044593463356442,-0.397591220501847,-0.00104548288643235,0
0.13,0.00134799558652779,0.000770146011557072,-0.0668042695617959,-0.0385535446316017,0.00123202042623207,0.000944638899136917,-0.0614130736386101,-0.0466649828201474,-0.39759824942255,-0.00112756913987171,0
0.14,0.0014074331206898,0.000805730721609143,-0.069966910610302,-0.0403349168582309,0.00128784984508823,0.00098565346926069,-0.0642803771485084,-0.0488907681669649,-0.39760436615886,-0.0012196967373509,0
0.15,0.00128844095564242,0.000738187303925598,-0.0640454865323656,-0.0369536728632155,0.0011795053218483,0.000902090786775496,-0.0588703068258987,-0.0447401973338687,-0.397609861030157,-0.000721263332687958,0
0.16,0.00128180098341461,0.000735314118177803,-0.0637582809081577,-0.0368098498119594,0.00117428873412315,0.000897076687014946,-0.0586266697202731,-0.0445308547532221,-0.397613829732374,-0.000628633077013285,0
0.17,0.00128072925930597,0.000735190347894688,-0.0637331569085663,-0.0368036483248458,0.00117376269683957,0.000896132476137227,-0.0586113759977557,-0.0445098912962116,-0.397617255308682,-0.000564388900544119,0
0.18,0.00128002297063803,0.000735183663424608,-0.0637221757074769,-0.0368033283782197,0.00117348572008817,0.000895480367778425,-0.0586069618803393,-0.0444997154571362,-0.397620244941196,-0.000509092888330296,0
0.19,0.0012794176162211,0.000735182136312463,-0.0637131277149646,-0.0368032249359637,0.00117325223998756,0.000894919768255243,-0.0586034790533465,-0.0444912603974591,-0.39762285572412,-0.000460841604491521,0
0.2,0.00127888897600066,0.000735180985664692,-0.0637052202884306,-0.0368031938680731,0.00117304851426743,0.000894430141371528,-0.0586004898584764,-0.0444838482961518,-0.397625135743981,-0.000418705150667822,0
0.21,0.00127842774200944,0.000735179988382267,-0.0636983306963417,-0.0368031320563891,0.00117287077133008,0.000894002942174521,-0.0585978535754095,-0.0444774034653035,-0.397627126909509,-0.000381907025916712,0
0.22,0.00127802459750455,0.000735179117623436,-0.0636922911508813,-0.0368031005033943,0.0011727154121186,0.000893629547964787,-0.0585955631130039,-0.0444717454366427,-0.397628865815655,-0.000349770832990232,0
0.23,0.0012776731431647,0.00073517835707804,-0.0636870419675348,-0.0368030411931564,0.00117257997266678,0.000893304027294799,-0.058593543299155,-0.0444668397717867,-0.397630384421006,-0.000321705950921143,0
0.24,0.0012773658084684,0.000735177692797503,-0.0636824319569989,-0.0368030092627687,0.00117246153389255,0.000893019372787357,-0.0585917876708144,-0.0444625240881738,-0.397631710635137,-0.000297196588145725,0
0.25,0.0012770973564943,0.000735177112606569,-0.0636783977262894,-0.0368029800844692,0.00117235807872751,0.000892770732107405,-0.0585902500620006,-0.0444587480453237,-0.397632868832127,-0.00027579229854465,0
0.26,0.00129036052049037,0.000742637653042492,-0.0643195902772333,-0.0371764771568138,0.00118437337538254,0.000902109009067979,-0.0591829421744277,-0.0449052280118987,-0.397633798186156,-0.000304059777951972,0
0.27,0.00124766758738106,0.000718534733711608,-0.0622875298775104,-0.0359698828480747,0.00114561970311999,0.000872079163823185,-0.0572836483719764,-0.0434988790607497,-0.397635005611815,-0.000138751641407433,0
0.28,0.00124396640406075,0.000716117986322741,-0.0618591734649161,-0.0358488899605465,0.00114195895162148,0.00086960171203738,-0.057006252983649,-0.0431507517191782,-0.397635790028965,-0.000112389396941048,0
0.29,0.00127474779300714,0.000734365284070322,-0.0635913440830929,-0.0367623619088518,0.00117070272109695,0.000890914948264114,-0.0585192385163825,-0.0443940200801239,-0.397636202578721,-0.000208865190570558,0
0.3,0.00126698986502685,0.000730366605895542,-0.0632164591350503,-0.0365621752114966,0.0011640113828974,0.00088531135628852,-0.0581894771682832,-0.0441259346490419,-0.397635682157726,-0.000191920834958829,0
0.31,0.0012758494857536,0.000734970969090308,-0.0636445051236638,-0.0367926842944246,0.00117168783007493,0.000891696060638136,-0.0585677842204109,-0.0444312874170517,-0.397636270532663,-0.000211377081165163,0
0.32,0.00127615311629198,0.000735166427992146,-0.0636633874326347,-0.0368024512234432,0.00117198613184577,0.000891899635513796,-0.0585841267668887,-0.0444448805422265,-0.397636847797232,-0.000202182643932458,0
0.33,0.00127605660874324,0.00073517449523133,-0.0636626022809405,-0.036802867898393,0.00117195665035903,0.000891806939216773,-0.0585842294322396,-0.0444439655809255,-0.397637355010677,-0.000192880591853641,0
0.34,0.00127595521278571,0.000735174626903084,-0.0636610948390927,-0.0368028554785923,0.00117191790219592,0.000891712884055083,-0.0585836539306941,-0.044442554602754,-0.39763779811534,-0.000184695177445772,0
0.35,0.00127586545657295,0.000735174447984875,-0.0636597144036872,-0.0368028559665938,0.00117188332494309,0.00089162974656878,-0.0585831370163762,-0.044441259012064,-0.397638185090507,-0.000177543762552264,0
0.36,0.00127578710906168,0.000735174279234312,-0.0636585052311733,-0.03680285640277,0.00117185313122256,0.000891557181194524,-0.0585826841948116,-0.0444401242145113,-0.397638523040235,-0.000171298209168133,0
0.37,0.00127571889143888,0.000735174131326683,-0.0636574538789012,-0.0368028263786844,0.00117182684122439,0.000891493997473931,-0.0585822625008655,-0.0444391492277216,-0.397638818175481,-0.000165843893275013,0
0.38,0.00127565917037903,0.000735174002131788,-0.063656522841443,-0.0368028267316325,0.0011718038253425,0.000891438683979592,-0.0585819137427573,-0.0444382755959079,-0.397639075919979,-0.000161080580323274,0
0.39,0.00127560701631507,0.000735173889300978,-0.0636557042279411,-0.0368028270500256,0.00117178372567818,0.000891390379024768,-0.0585816070366848,-0.0444375075429378,-0.397639301010926,-0.000156920727983831,0
0.4,0.0012755613815091,0.000735173790762696,-0.063654979335602,-0.0368028273386157,0.00117176613828909,0.000891348112569306,-0.0585813353284773,-0.0444368275810096,-0.39763949758521,-0.000153287884290934,0
0.41,0.0012755215674692,0.000735173704706296,-0.0636543426467793,-0.0368028276006043,0.00117175079424676,0.000891311237084299,-0.0585810966450584,-0.0444362304100575,-0.397639669255519,-0.000150115282906308,0
0.42,0.00127548675928812,0.000735173629552012,-0.0636537791708308,-0.0368028278397104,0.00117173737934486,0.000891278998156032,-0.058580885325117,-0.0444357020227401,-0.397639819176986,-0.000147344616066595,0
0.43,0.00127545672589044,0.000735173563917574,-0.0636532996967612,-0.0368027976491226,0.00117172580528614,0.00089125118004353,-0.0585806776347161,-0.0444352639796978,-0.397639950104662,-0.000144924962981032,0
0.44,0.00127543018319718,0.000735173506597952,-0.0636528597009424,-0.0368027978506318,0.00117171557585651,0.000891226596500103,-0.0585805125156902,-0.0444348515372943,-0.397640064445361,-0.000142811853973859,0
0.45,0.00127540701654823,0.000735173456539472,-0.063652470547841,-0.0368027980370625,0.00117170664755777,0.000891205139757159,-0.0585803664275096,-0.0444344868252046,-0.397640164299965,-0.000140966453197464,0
0.46,0.00127538676028232,0.000735173412823005,-0.0636521238462355,-0.0368027982101275,0.00117169884085584,0.00089118637868985,-0.0585802362039011,-0.0444341619987035,-0.397640251504137,-0.000139354844895125,0
0.47,0.00127536906515347,0.00073517337464452,-0.0636518152269653,-0.0368027983714183,0.00117169202119541,0.000891169989734655,-0.0585801202256205,-0.0444338729350351,-0.397640327660182,-0.000137947410068376,0
0.48,0.00127535369832571,0.000735173341302454,-0.0636515444470527,-0.0368027956116314,0.00117168609901395,0.000891155756853056,-0.0585800157784856,-0.0444336204547753,-0.397640394168016,-0.000136718282128915,0
0.49,0.00127534019414844,0.00073517331218426,-0.0636512981896668,-0.0368027957536657,0.00117168089451655,0.000891143249530312,-0.058579923128546,-0.0444333899536098,-0.397640452250086,-0.00013564487150884,0
0.5,0.00127532843620098,0.000735173286755143,-0.0636510793017693,-0.0368027958876669,0.0011716763630784,0.000891132359385832,-0.0585798407428725,-0.0444331851206854,-0.397640502973421,-0.000134707450494451,0
0.51,4.61484845158932,-0.0155261034258335,9.25865118736421,0.78947622141667,-0.682926651322343,4.56406381199229,-0.558143543994041,9.27547143264216,0.145164941928054,44.529345466663,4637.1075775495
0.52,4.71424113734592,0.0240898056382237,4.29035604580689,-1.17713680532298,-2.85584466010775,3.75084005219021,-3.54934313666139,2.68234400412631,0.65585965052591,95.1376739273905,4637.1075775495
0.53,4.5950362676693,-0.010641074096033,10.2521958969292,0.566062421127651,-4.5943520863002,0.080002754722271,-10.2390349013542,0.768187257429038,1.55106903142294,150.076097721042,4637.1075775495
0.54,4.54383842917176,0.0474678951035252,12.8137826938329,-2.32231546470917,-1.3777253613575,-4.3301955729685,-1.53701813188211,-12.9315022833646,2.84399959416303,201.563341178397,4637.1075775495
0.55,4.52158626188382,0.059655948403464,13.9282487094285,-2.93111749753347,4.41951626417226,-0.95717143007577,14.2329437936182,0.104273025033351,-1.77088776397276,254.790089915364,4637.1075775495
0.56,4.50683869074044,0.0616648438059357,14.6675534753376,-2.99716438233105,-1.19589632499567,4.34571392491251,-6.96339795805109,13.252592507295,0.282224347665831,305.833413186967,4637.1075775495
0.57,4.46497388635604,0.0688910920566266,16.762854837104,-3.34418321372296,-1.90038883713343,-4.04094791553972,-3.85108183017576,-16.6537092683299,2.71742805235448,357.593590777669,4637.1075775495
0.58,4.49478748090188,0.0702716697391656,15.2744063386243,-3.39755597502113,3.11830408548331,3.23793641637669,7.93843856599721,13.4845121800789,-0.750946382359883,409.539688126814,4637.1075775495
0.59,4.45130522063294,0.0166924209877004,17.4509176662187,-0.738745999428247,-2.87522149368759,-3.39816099771471,-10.6561697943687,-13.8393033913705,2.44311066385083,461.788941554786,4637.1075775495
0.6,4.437599772836,0.0972179130789987,18.1386446195718,-4.74532988237713,1.26736195713202,4.25388489925527,0.220731802403906,18.7477961851283,-0.267652804079718,513.180025484332,4637.1075775495
0.61,4.43907152750567,0.10729647428445,18.0676720832746,-5.20837706650784,2.18692939804991,-3.86448034897972,13.7454637692882,-12.8308297449094,-2.60245402114801,564.09868780617,4637.1075775495
0.62,4.48214306780979,0.0306322789822824,15.9168716885899,-1.37847566377371,-4.4352713244704,-0.647234961325193,-15.5256101227826,-3.76861112639665,1.72253674048854,615.521166578437,4637.1075775495
0.63,4.41344800981627,0.114603389987739,19.3544544328209,-5.5955421683718,-0.496361001948967,4.38694461192435,-8.21632532349448,18.395570030001,0.138626916906957,666.925243191986,4637.1075775495
0.64,4.40884138232414,0.021651510226295,19.587693513908,-0.936799140718467,3.87945425301549,2.09479970907696,16.7404570922787,10.2133454933445,-1.07077324571568,717.901713534572,4637.1075775495
0.65,4.37253480208363,0.116546720287716,21.4060556691289,-5.6782523109769,4.08956565867677,-1.55180425853714,22.0812099657454,-1.69762630329095,-1.90681865712377,768.770341346481,4637.1075775495
0.66,4.39378900809707,0.053794897668659,20.3465444095509,-2.51250537196504,3.02334474734654,-3.18867719868003,15.9809658699015,-12.8414673039737,-2.37056034201868,819.382817103398,4637.1075775495
0.67,4.34764527633905,0.106001635316798,22.6569676878365,-5.07699423942422,2.64584798177804,-3.45148435501078,18.1712640018159,-14.4540381863036,-2.46318629293427,869.677480668907,4637.1075775495
0.68,4.21527412297231,0.0931791349655021,29.2788845208598,-4.48834591272335,3.3905161737417,-2.50631569411933,26.5109370576674,-13.2124389929528,-2.18525680923862,920.499260901098,4637.1075775495
0.69,4.30593017962324,0.128334423241997,24.7495163198545,-6.16803496738686,4.30781005868392,0.0166413425162438,24.5279318907603,6.99741170632947,-1.53713799144515,970.593703790008,4637.1075775495
0.7,4.30169625342721,0.133010203411724,24.96475465612,-6.4326299190942,2.25257570110361,3.66717671809785,6.82022922186649,24.8616607666803,-0.519923500150705,1021.15537632617,4637.1075775495
0.71,4.30763219886276,0.126778300855125,24.6715867036843,-6.12917963426429,-3.19774354534117,2.8889797708665,-22.7587793930992,11.3266055816708,0.865504733819202,1071.44163376516,4637.1075775495
0.72,4.23131269525541,0.0317569231008914,28.4912013352658,-1.36788237886748,-2.13928850671671,-3.65081638982629,-13.034082623746,-25.3718810080457,2.61905428370543,1121.61788662368,4637.1075775495
0.73,4.1926314889117,0.147211072186203,30.4290672744638,-7.12172462461354,4.19508646088965,-0.0328555512585731,30.2236025841993,7.94864413941473,-1.54353064212778,1171.53410529368,4637.1075775495
0.74,4.2198272263724,0.148473375648155,29.0731133310906,-7.12262353178798,-3.32871334194125,2.59781709342526,-27.7162356960281,11.3043338406222,0.943274929062695,1221.28698039029,4637.1075775495
0.75,4.15878539339763,0.102937463316295,32.1291410726738,-4.91605317813669,3.55991471754904,-2.15246353592092,30.3357602319029,-11.6700872349157,-2.08987317371654,1271.33499484144,4637.1075775495
0.76,4.12889936268273,0.155362830026492,33.6274155264665,-7.46027691834689,-3.66476436859927,1.90825828408025,-33.5833304713689,7.65628638041225,1.12833326527386,1320.98407305651,4637.1075775495
0.77,4.11584902683326,0.116656310300178,34.2840031075947,-5.57759732586118,4.11568886861908,-0.122176278966787,34.2914528071779,5.53161146358907,-1.57213750214009,1370.8863047968,4637.1075775495
0.78,4.1690156732872,0.207048102520914,31.6298876959878,-10.1028003754531,-3.04348827672983,-2.85670084367964,-14.689072196884,-29.7783063501232,2.37416996305551,1420.37649117374,4637.1075775495
0.79,3.98450437502517,0.162895496320415,40.8596922411107,-7.89384329775445,-1.40281971351905,3.73294882213492,-23.1934929341206,34.5527002933589,0.400326079497693,1469.82881088942,4637.1075775495
0.8,4.1127643191978,0.167416572871538,34.4509371010487,-8.10676525650094,3.90807900075155,1.29219858304494,29.3864035479402,19.7237419518213,-1.2107803791962,1519.38583822684,4637.1075775495
0.81,4.00460602400559,0.138989118564739,39.8631941522772,-6.65860645492549,2.41748326584037,-3.19561606610729,30.3059403253425,-26.738759674684,-2.45925117684611,1568.75474015424,4637.1075775495
0.82,4.08935976538586,0.143572819178416,35.6298613876426,-6.78636581403202,-0.970991419073651,-3.97500340996695,-0.590241213172739,-36.2655952491443,2.93710450401212,1617.90090752115,4637.1075775495
0.83,4.02479107935747,0.0572288819079059,38.8626762033232,-2.57122300028581,-2.72628606494842,-2.96134811690013,-23.9964921516778,-30.6771438340666,2.41171773591546,1667.38573814053,4637.1075775495
0.84,4.03528497724655,0.182270458877244,38.3424988830958,-8.68883625122813,-3.26193129463516,-2.38255148881421,-24.4743458206925,-30.7676696005728,2.24678083385916,1716.25330581253,4637.1075775495
0.85,4.07473463414009,0.246139815294646,36.3744227371937,-11.9216626009961,-1.44849164418961,-3.81653234023334,0.547814993383623,-38.2743330101138,2.83918871757896,1765.43197688733,4637.1075775495
0.86,4.10000605132242,0.181255220010022,35.1152739843546,-8.6922308255528,0.847634123647028,-4.01552231572562,17.1802281546076,-31.835155163382,-2.88937756055611,1814.51803426368,4637.1075775495
0.87,3.95310761436912,0.163382164489581,42.464599644157,-7.79629231848795,3.56938471297134,-1.70682345696998,42.1037188593187,-9.55516902358634,-1.97553294719893,1863.46536679112,4637.1075775495
0.88,3.94687693882244,0.208692270101668,42.780531965307,-10.0090430756772,2.71138434114326,2.87572338523922,20.028566276993,39.1051325456584,-0.703166569150248,1912.23923243949,4637.1075775495
0.89,3.93820135597344,0.249336981145494,43.2185886716564,-11.9950945940539,-2.9988607454491,2.56484562493773,-41.7585445326112,16.3692595925428,0.926476784632974,1960.92186054549,4637.1075775495
0.9,3.95689130515289,0.297326984369562,42.2883256200703,-14.5124458196617,-1.18622421372847,-3.7865900558673,4.55241497310308,-44.4768376273581,2.91300726370707,2009.72753911279,4637.1075775495
0.91,3.79673805786549,0.275048106203209,48,-13.2749204777423,3.39143703602426,1.72888003385231,34.2091902941884,36.1932979031531,-1.02704000505364,2058.19266092816,4637.1075775495
0.92,4.0256846571605,0.299864347734629,38.8569511794559,-14.534607855887,-4.03536005127394,-0.10920092729519,-37.1859845780418,-18.3934779595559,1.67220121822202,2106.82667183097,4637.1075775495
0.93,3.89245118629107,0.239949386472551,45.5226735317429,-11.6020406910766,3.66260456236467,1.3394326281948,37.062738935613,28.8664950464312,-1.1586326407843,2155.37408125188,4637.1075775495
0.94,3.91978917833648,0.193885534940321,44.1597481423578,-9.29880662883,-3.16795827697914,-2.31654465931098,-28.4620124839764,-35.0209224047399,2.25160691515806,2203.84716845999,4637.1075775495
0.95,3.93017529344895,0.281210983280108,43.6443201274686,-13.6317422211309,1.30657876757644,3.71728521618564,-1.65333907025645,45.6937363901343,-0.266569213825454,2252.13399445477,4637.1075775495
0.96,3.8543470027037,0.294601747773041,47.4395643971582,-14.226667189843,2.29176114735843,-3.11297475905288,41.7355144449979,-26.6656551304116,-2.430699159211,2300.30706399031,4637.1075775495
0.97,3.74763633904651,0.304897250400823,48,-14.8453274440011,-3.47801669039974,-1.42868483730484,-36.039156178568,-35.0080414884408,2.04173589280025,2348.52908346729,4637.1075775495
0.98,3.76167651662056,0.293893891479409,48,-14.244338523188,-1.82883325055812,3.30029586200942,-38.3486862062831,32.1912945719058,0.58398789485856,2396.67659123672,4637.1075775495
0.99,3.72410574011996,0.245777067672768,48,-11.932187797633,2.06813295171002,3.10679835596703,13.5627444421844,47.5649983583935,-0.521418388184681,2444.75724568861,4637.1075775495
