t,iq,id,vq,vd,ia,ib,va,vb,theta_e,omega,r
0,0,0,0,0,0,0,0,0,0,0,0
0.01,0.000624654109701283,0.000338194076019427,-0.0293167629715606,-0.0169205909754476,0.000458369240102923,0.000542646873711445,-0.0225387606518199,-0.0252543710745098,-0.205179757115789,-0.00418124616985142,0
0.02,0.000750524023199698,0.000402087311720745,-0.0356391103761072,-0.0201173222174864,0.000546587976920666,0.000652841557449011,-0.0269575435924847,-0.0307919418852045,-0.205211263518999,-0.00432335374342845,0
0.03,0.000791951637440965,0.000426578653781393,-0.0378752463808487,-0.0213426646536811,0.000579027714876349,0.000688392075283007,-0.0286138123387813,-0.0327306181788625,-0.205240902997253,-0.00387456887326271,0
0.04,0.000769002438676948,0.000418577055789336,-0.0370979621371837,-0.0209423420714807,0.000566533120869132,0.000667541553225448,-0.0280642558155496,-0.0320505543117466,-0.205265143370819,-0.00307755115797294,0
0.05,0.000780670005768801,0.000429093571561776,-0.0378635558989772,-0.0214684992828579,0.000579220775243664,0.000676808868580214,-0.0287360800463953,-0.0326922472513011,-0.20528545891517,-0.0026433799165238,0
0.06,0.000777257395542756,0.000430700144125401,-0.0378989719350393,-0.0215488762972486,0.00058010934865,0.00067313060893442,-0.0288225419759009,-0.0327100476528918,-0.205302369949709,-0.00218266195683158,0
0.07,0.000785514751217328,0.000438708785329985,-0.0384296105537523,-0.0219495650302173,0.000589642277797857,0.000679573989304392,-0.0293234377187312,-0.0331474640460549,-0.205315765696791,-0.00190064355727578,0
0.08,0.00076991859003166,0.000432166777642044,-0.0378453072704659,-0.0216222609875509,0.000580065664725291,0.000665632468844972,-0.0288842590952213,-0.0326418294390782,-0.205327300941392,-0.00148599255664455,0
0.09,0.000764005049540441,0.000431162746301849,-0.0376771257113995,-0.0215720174836912,0.00057788301734641,0.000660042610582418,-0.028801075740081,-0.0324871632557137,-0.205336377808067,-0.00120782097313453,0
0.1,0.00076048936605347,0.000431007245913302,-0.0375986545798666,-0.0215642369400774,0.000577018736766902,0.000656628280939914,-0.0287776950293906,-0.0324117171686307,-0.205343670533251,-0.000993675650755435,0
0.11,0.000757885627003971,0.000430982024494763,-0.0375460652492476,-0.0215629897596702,0.000576466984956732,0.000654080992165115,-0.0287659414496919,-0.0323603176064343,-0.205349559015688,-0.000822544192245504,0
0.12,0.000755825548930955,0.000430977021778491,-0.0375056027635502,-0.0215627377066954,0.000576045122040366,0.000652062474837601,-0.0287575978644192,-0.0323206197516898,-0.205354319207255,-0.000684540168464272,0
0.13,0.000786516869711064,0.000448673647988576,-0.0389647855736877,-0.0224481334960171,0.000599631408503696,0.000678497606978346,-0.0299220914802565,-0.0335684621885726,-0.205358882594735,-0.000799399315737406,0
0.14,0.000804437344162612,0.000459924249976298,-0.0400322231557145,-0.0230110310006522,0.000614302716705659,0.000693744858465779,-0.0306909702767635,-0.0344985620276081,-0.205362902583121,-0.000831607970084215,0
0.15,0.000760542202842613,0.000435406516362212,-0.0378583390249536,-0.0217843516989568,0.000581351226391479,0.00065576979830463,-0.0290468756766978,-0.0326204050571821,-0.205366345918803,-0.000410938491155438,0
0.16,0.000751755980841627,0.000431651294152727,-0.0374756313339594,-0.0215964597103066,0.000575884332152204,0.000647932967564154,-0.0287849455327422,-0.0322840041905399,-0.205368127822646,-0.00029863481993415,0
0.17,0.00074970140901659,0.000431075895569685,-0.0373955991296487,-0.0215676726147342,0.000574902849626031,0.00064603819075542,-0.0287404829065349,-0.0322114883012399,-0.205369379218613,-0.000250907788364736,0
0.18,0.00074899476075392,0.000430987540321979,-0.0373742544048939,-0.0215632653879179,0.00057467287513185,0.000645363849419306,-0.0287318469134766,-0.0321914628349203,-0.205370355346161,-0.00022045997849927,0
0.19,0.000748604159064559,0.00043097382026097,-0.0373652076027835,-0.0215625726365907,0.00057458029284841,0.000644983804284515,-0.0287293489939367,-0.032182724935778,-0.205371137940966,-0.000197378195547703,0
0.2,0.000748322523055449,0.000430971566625667,-0.0373594441620186,-0.0215624512793844,0.000574521059585673,0.000644708183478704,-0.0287280751681911,-0.0321770892158003,-0.20537176952721,-0.000179003780538512,0
0.21,0.000748100984672122,0.000430971098215843,-0.0373550613824769,-0.0215624362766353,0.000574475751464181,0.000644491102921082,-0.0287271831199976,-0.0321727869334116,-0.205372280035078,-0.000164199867879008,0
0.22,0.000747923102053716,0.000430970926781075,-0.0373515718438979,-0.0215624327322063,0.000574439573707989,0.000644316756319728,-0.0287264813019925,-0.0321693595918083,-0.205372692826273,-0.000152238673016986,0
0.23,0.000747779651204299,0.000430970819891061,-0.0373487655837711,-0.0215624155820576,0.00057441042987103,0.000644176150139211,-0.0287259029633473,-0.0321666062136682,-0.205373026633018,-0.000142567876951462,0
0.24,0.000747663585126407,0.000430970738305136,-0.0373464897587902,-0.0215624146931079,0.000574386854229081,0.00064406238477974,-0.0287254466611966,-0.0321643706423074,-0.205373296573929,-0.00013474768077707,0
0.25,0.000747569637962022,0.000430970673066731,-0.0373446417200021,-0.0215624151667081,0.000574367772045366,0.000643970299844568,-0.0287250772703726,-0.0321625550730649,-0.205373514869101,-0.000128423723644192,0
0.26,0.000753762646034835,0.000434490566665143,-0.0376288200498905,-0.0217385229231388,0.00057907666378364,0.000649315329050255,-0.0289554379640813,-0.0324048466982196,-0.205373532428595,-0.00017482951625604,0
0.27,0.000738914538328678,0.000425776310678798,-0.0369547433589878,-0.0213025384200546,0.000567517905471689,0.00063655603732724,-0.0283911685240831,-0.0318338302706989,-0.205374134947089,-4.69921425123089e-05,0
0.28,0.000738406630861777,0.000425586798093443,-0.0367398204029752,-0.0212930405504632,0.000567228855793514,0.000636097398491183,-0.0283380432372693,-0.0316253582526617,-0.205374228602434,-4.07393722752893e-05,0
0.29,0.000745660939649955,0.000430146009455439,-0.037263223696937,-0.0215211630118231,0.000573171542195839,0.000642269577036727,-0.0286681056949171,-0.0320912451228446,-0.205374059226554,-9.9983202319814e-05,0
0.3,0.000735858043907975,0.000425299234969455,-0.0367995501217581,-0.0212786685729119,0.000566426696759037,0.000633661816151424,-0.0283361093397373,-0.0316868037657014,-0.205372813381993,-5.78524373892712e-05,0
0.31,0.000745588087551567,0.000430102266846613,-0.0372460327444508,-0.0215189754166685,0.000573113078968286,0.000642207875193764,-0.028662419161656,-0.0320748965077897,-0.205372840141488,-0.000130783094538174,0
0.32,0.000747322011422251,0.000430837772456168,-0.0373283891998794,-0.0215557599712471,0.000574186892989583,0.000643755222775055,-0.0287152339196652,-0.0321480134554936,-0.205373092062379,-0.000137422132671555,0
0.33,0.000747563931902654,0.00043095035237822,-0.0373422720688062,-0.0215613958492846,0.000574346601703653,0.000643968958574971,-0.0287235904788994,-0.0321604481347939,-0.205373339329567,-0.000132894265553266,0
0.34,0.000747540242830124,0.000430967543177806,-0.0373435314470239,-0.0215622588651211,0.000574358734325895,0.000643942141986989,-0.0287246988825573,-0.0321614990696604,-0.205373547522938,-0.000127361297050161,0
0.35,0.00074747964887713,0.000430970134802471,-0.0373426642660865,-0.0215623916072683,0.000574349023795921,0.000643882195313561,-0.0287246574530975,-0.0321606181613018,-0.205373717441444,-0.000122533041913042,0
0.36,0.00074742272181908,0.000430970498418166,-0.0373415992934678,-0.0215624122963663,0.000574337859119809,0.000643826311344853,-0.0287244649528135,-0.0321595673945871,-0.205373855145529,-0.000118561622188885,0
0.37,0.000747375282580476,0.000430970527178586,-0.0373406714343503,-0.0215624154852358,0.000574328284567415,0.000643779799197432,-0.0287242824363364,-0.0321586551840032,-0.20537396655944,-0.000115337366506473,0
0.38,0.000747336574486104,0.000430970509805655,-0.0373399018760538,-0.0215624157274316,0.000574320431697531,0.000643741856353564,-0.0287241286325962,-0.0321578991604548,-0.205374056668019,-0.000112727586549846,0
0.39,0.000747305258764643,0.000430970489533307,-0.0373392758763665,-0.0215624159387101,0.000574314072438409,0.000643711161022611,-0.0287240035205389,-0.0321572841800643,-0.205374129538911,-0.00011061666020158,0
0.4,0.000747280144089275,0.000430970472185905,-0.0373387769371579,-0.0215623983078146,0.000574308971665634,0.00064368654383216,-0.028723886404761,-0.032156797629025,-0.205374188468588,-0.000108909513082262,0
0.41,0.000747259654992706,0.000430970458011202,-0.0373383612531438,-0.0215623984742463,0.00057430481004969,0.000643666460841321,-0.0287238033282175,-0.0321563892779387,-0.205374236123748,-0.000107528963068145,0
0.42,0.000747243065809405,0.000430970446525945,-0.037338020849713,-0.0215623986242512,0.000574301440519567,0.000643650200494152,-0.0287237352946088,-0.0321560548906416,-0.205374274661353,-0.00010641253835753,0
0.43,0.000747229678047442,0.000430970437234362,-0.0373377437183953,-0.0215623987607596,0.000574298721267753,0.000643637078076679,-0.0287236799139919,-0.0321557826603103,-0.20537430582608,-0.000105509708684513,0
0.44,0.00074721879321489,0.000430970429719732,-0.0373375134371487,-0.0215623988867291,0.000574296510348634,0.000643626409050863,-0.0287236338856194,-0.0321555564688993,-0.20537433102832,-0.000104779609275523,0
0.45,0.000747210062065784,0.000430970423642878,-0.037337327522439,-0.0215623990036248,0.000574294736941663,0.000643617850924274,-0.0287235967411343,-0.0321553738520033,-0.205374351408709,-0.000104189193274838,0
0.46,0.000747202960731178,0.000430970418728514,-0.0373371718989434,-0.0215623991136564,0.000574293294536936,0.000643610890363409,-0.0287235656419427,-0.0321552210031414,-0.205374367889951,-0.000103711736315844,0
0.47,0.000747197198170317,0.00043097041475433,-0.0373370418085314,-0.0215623977628558,0.000574292124044152,0.000643605242060649,-0.0287235382182831,-0.0321550935392585,-0.205374381218141,-0.000103325626951931,0
0.48,0.00074719254155746,0.000430970411540521,-0.0373369335392424,-0.0215623978625853,0.000574291178194433,0.000643600677773535,-0.0287235165827305,-0.0321549872153579,-0.205374391996225,-0.000103013388458908,0
0.49,0.000747188816267175,0.000430970408941686,-0.0373368447668788,-0.0215623979583931,0.000574290421547548,0.000643597026295838,-0.028723498853109,-0.032154900038681,-0.205374400712175,-0.000102760887779932,0
0.5,0.000747185789468818,0.000430970406839885,-0.0373367690203373,-0.0215623980512595,0.00057428980676004,0.000643594059487339,-0.028723483723392,-0.0321548256625815,-0.205374407760611,-0.000102556695811806,0
0.51,4.72652415870661,-0.00971861525780898,3.67451133431513,0.502786653759445,-0.914478390766174,4.6372248540632,-0.210036031243758,3.70279797326135,0.192649288152462,59.4272408442793,1213.07876895086
0.52,4.64921470003184,-0.0001928748342368,7.54090717575729,0.0468714703658589,-3.57720968846738,2.96964109092799,-5.77200247294674,4.852985207109,0.877894809903039,128.311244280546,1213.07876895086
0.53,4.67350441731593,0.0152363846001982,6.32762736779024,-0.712992419336755,-4.06096806377027,-2.3130962087914,-5.13312041544681,-3.76806330840697,2.09181724390258,202.20320256998,1213.07876895086
0.54,4.70789595056902,0.0274010489945716,4.60922944722701,-1.2918710503561,2.94165680172725,-3.67582512637938,3.9047873969212,-2.76885577319913,-2.46086623098537,270.830174559327,1213.07876895086
0.55,4.61273379162488,0.085242376376844,9.36877492771488,-4.16869966106067,1.05318782685745,4.49170064635742,-2.10568192925123,10.0358409773736,-0.21183590886006,340.885872942705,1213.07876895086
0.56,4.60386900425098,0.0762387868526972,9.81351301787751,-3.69815293917053,-2.63215474171954,-3.7779867094217,-2.4068717747446,-10.2072690360098,2.54963750174556,411.106089064831,1213.07876895086
0.57,4.57788925953181,0.0275972745760644,11.1141892096365,-1.25817409472731,2.05453652574736,4.09105259639505,3.80020833423614,10.5198203623753,-0.459379683561529,481.59515286008,1213.07876895086
0.58,4.61563303621993,0.0815613704903094,9.22878366325701,-3.9432520659854,0.771702467485076,-4.55139493824459,5.57877894828983,-8.34247626338942,-2.95596817518426,551.490506194351,1213.07876895086
0.59,4.57009157102485,0.0679901653782199,11.5078000062424,-3.24732876656225,-4.43212252420646,1.11653462130034,-11.9460812320233,-0.515507807619877,1.33888873128482,620.71574302041,1213.07876895086
0.6,4.53544877038482,0.0762922246989022,13.2419694176717,-3.6257024469142,0.708124869337177,4.48047711987919,-1.74334988643518,13.6182305556037,-0.139930462453179,689.587174543117,1213.07876895086
0.61,4.00326229239905,0.107215733419034,11.8054171091077,-5.17935617614782,3.65533379656907,1.63589089822537,8.40101926160789,9.77836790499859,-1.12321824869422,754.222882459977,1213.07876895086
0.62,3.47058830054162,0.130589767785277,13.4671112245806,-6.35765934793881,3.44350065667829,-0.452039895100833,13.9989043083296,5.0807081480724,-1.66371350599445,810.857107833635,1213.07876895086
0.63,3.00826787818182,0.0777425350767795,14.6576331401151,-3.7701067186755,2.89883977415819,-0.807742219039731,15.1344672506015,0.0884023804787195,-1.81670929455292,860.600043197321,1213.07876895086
0.64,2.62935000204874,0.0738377188788952,14.399079086616,-3.55693093568804,2.62018347681563,-0.231456237386922,14.5865435382683,2.68663057193927,-1.63082877713807,903.466007627352,1213.07876895086
0.65,2.27627915016358,0.0925444895571477,15.4437800892017,-4.54055947615669,2.11486451045537,0.846970692782917,12.2338014590696,10.4623671155339,-1.14923859161317,941.430765943566,1213.07876895086
0.66,2.02200966660099,0.046105036668906,13.4759082574059,-2.18192669254996,0.845232045979147,1.83745246324469,3.34860575956885,13.2343396858576,-0.408342858072922,974.246565342398,1213.07876895086
0.67,1.76644534200364,0.0810648485753512,13.4033119760071,-3.97137686927691,-0.86882423017079,1.54014451043694,-10.4795913156571,9.25196044202562,0.559477538493898,1003.36314544746,1213.07876895086
0.68,1.51839892193176,0.00351112528526415,14.7002739686297,-0.120944270748923,-1.50076628933068,-0.230755626004888,-14.5056646344305,-2.38712709817281,1.72567244352861,1028.6519486442,1213.07876895086
0.69,1.30354491150624,0.0498733534179951,15.628545388201,-2.44450097788149,-0.148583598373286,-1.2960091056738,1.25227668869967,-15.7689194010516,3.06568513808099,1050.79212155388,1213.07876895086
0.7,1.12041255497495,0.0569996514865636,16.1548989539504,-2.76500229307377,1.09838433224191,-0.228309247076362,16.3878698191689,0.252429560520401,-1.72490724119643,1070.2093245841,1213.07876895086
0.71,0.983148897194877,0.0190939715492935,15.5333939322648,-0.875131680524753,0.116419256415347,0.976418399325169,0.668363898338359,15.5436634102961,-0.0992518873728778,1087.13691914373,1213.07876895086
0.72,0.892207425145092,0.0296662508304303,13.5396232708942,-1.40908842463978,-0.892038921204935,-0.0343618826303772,-13.4037958513443,-2.37595986533417,1.64253605118934,1101.92100504123,1213.07876895086
0.73,0.763159650191398,0.0610554332043585,14.2806506451372,-2.98687571224102,0.346306311945566,-0.682797448670313,10.0023584879544,-10.6212632980865,-2.59237816286341,1114.86885404512,1213.07876895086
0.74,0.616814364181633,0.044194674380228,16.5602848368885,-2.15277487107838,0.413140164809424,0.460139471601393,8.45419886159668,14.401527527766,-0.660103081705615,1126.28586832079,1213.07876895086
0.75,0.523499075299666,0.0286243642941337,16.8246555253565,-1.41907426782841,-0.504592979569245,0.142325545986235,-16.7281506060427,2.29167681536376,1.35050284298571,1136.27824202449,1213.07876895086
0.76,0.449422043679076,-0.0150922614489308,16.7141555101872,0.743544323226466,0.141901147215287,-0.42669897365626,4.02606934412318,-16.2390460993137,-2.85411106700621,1144.95421414488,1213.07876895086
0.77,0.423230987337054,0.0110817449526015,14.6740775549757,-0.562564252196367,0.286105166911328,0.312075483144917,9.20531717935566,11.4414669625337,-0.715832204333959,1152.52792883835,1213.07876895086
0.78,0.368137036442502,0.00606953693932194,14.4987197965349,-0.30070050782234,-0.365839836149286,0.041508206003026,-14.4602465163211,1.09752777689778,1.47430508853777,1159.15283659463,1213.07876895086
0.79,0.337945243787107,-0.0104264938690104,13.4479774320536,0.543023845732102,0.190708933231042,-0.279187754671665,6.78166289582597,-11.625490109128,-2.57315238726066,1164.98679563929,1213.07876895086
0.8,0.235088785110039,0.0499268852753161,16.319308019829,-2.46629374623537,0.116541159991738,0.210184654020194,2.4176325933591,16.3265878778238,-0.297003464265867,1170.13391658739,1213.07876895086
0.81,0.19327775079447,0.0196588312488381,16.4454465141371,-0.955716492222379,-0.183023714611674,-0.0651542668440371,-14.4454153771377,-7.91808560479128,2.014160032416,1174.62290645406,1213.07876895086
0.82,0.155433417008403,-0.00774204625348537,16.6386317456411,0.356153870858938,0.148366455593113,-0.0469774547824376,15.4687033866472,-6.13922857391004,-1.92720872350217,1178.51531940218,1213.07876895086
0.83,0.177254520453674,0.00959611249863664,14.059187159016,-0.492658706575548,-0.0670451125603008,0.164366064861714,-6.45140206951157,12.5013146313061,0.441383810950717,1181.89945572646,1213.07876895086
0.84,0.150258231359281,0.0523731357378314,14.099878300578,-2.60766345331641,-0.095491313703325,-0.127286646768016,-1.79299180618473,-14.2264421820716,2.83334538721081,1184.91412251816,1213.07876895086
0.85,0.0964932619350788,0.0187064459156106,15.6113035467998,-0.909655817414411,0.0925869768700438,0.0329929148717019,12.9765837232938,8.72631348330024,-1.03699266287739,1187.59414695101,1213.07876895086
0.86,0.0793937655462502,0.00938563817338797,15.4509192171139,-0.507275126032131,-0.0796290382681057,0.00711874118305057,-15.4301812876584,-0.947490441782056,1.59930473442893,1189.91761632616,1213.07876895086
0.87,0.102940584963739,-0.0312756390341319,13.4114894379703,1.54186542005998,0.100258951583167,-0.0390265583560011,9.59118338335804,-9.50024206139834,-2.236967582361,1191.92189792429,1213.07876895086
0.88,0.109627104378262,-0.0272864040828847,12.2932169721561,1.3730219833559,-0.0509609745969543,0.10082474364096,-1.3925571390607,12.2910193843203,0.224046077852113,1193.72448388628,1213.07876895086
0.89,-0.000788101794257684,-0.0124134459663737,17.1101227653985,0.640886878373655,0.011548701167218,-0.0046197669365985,-7.9274306791131,-15.1763921887165,2.69766223371732,1195.35397754329,1213.07876895086
0.9,0.0215332283307499,-0.016585092627077,15.4124314416685,0.787812274329881,0.01169718227908,0.0245340813262472,14.1005817715791,6.27194426208706,-1.10120387326815,1196.68560151542,1213.07876895086
0.91,0.032385806195125,0.0070074084498933,14.3492796587468,-0.374590525044798,-0.0306284714523002,0.0126428221765342,-14.1880420320654,2.17752338281877,1.39240940003273,1197.89420097514,1213.07876895086
0.92,0.0706427186478066,0.0223691505753755,12.0044734766305,-1.10844009615108,0.0319551369459317,-0.0668553798746498,9.01406964349834,-8.00515904651758,-2.38905766251668,1198.9525731931,1213.07876895086
0.93,0.0436908596668916,-0.00711342216584578,12.9520867545801,0.378420156386472,-0.0122987043631109,0.0425233331752152,-1.17667764237668,12.9040762102081,0.120143639503315,1199.8981799292,1213.07876895086
0.94,-0.0605872841553821,-0.0421948771707028,17.8179716543446,2.06512721196432,0.0662715706655634,0.0325469750098984,-10.4417469698001,-14.5847449239023,2.63563766052787,1200.67371956303,1213.07876895086
0.95,0.041575157605095,0.0519116595460725,12.4061640789363,-2.61034394717096,0.0598538231744902,-0.028997137412384,10.0791088847689,7.69014738252749,-1.12642232497519,1201.42319996941,1213.07876895086
0.96,-0.0310300265027397,0.0428113327976544,15.7528811239123,-2.12945954408643,0.037860499382968,0.036908743505361,-15.8855249704613,0.581341609437991,1.39985239777842,1202.11593728048,1213.07876895086
