,Unnamed: 0.1,Unnamed: 0,t,iq,id,vq,vd,ia,ib,va,vb,theta_e,omega,omega_obs,r,omega_ekf,omega_meta
0,0,32,0.0,-0.0046410513202559,-0.0046410513202559,-0.027848879358281,-0.0557772798034009,0.0063413927398136,0.0016927648489784,0.0622253982203578,-0.0038294699498561,2.61705109019401,-0.144963141214248,237.899774010092,304.735411748728,-20.3589111385623,-11.942293
1,1,33,0.01,-0.0046410513202559,-0.0046410513202559,-0.027848879358281,-0.0557772798034009,0.0063413927398136,0.0016927648489784,0.0622253982203578,-0.0038294699498561,2.61705109019401,-0.144963141214248,237.899774010092,304.735411748728,-19.8958111330989,-8.643232
2,2,34,0.02,-0.0046410513202559,-0.0046410513202559,-0.027848879358281,-0.0557772798034009,0.0063413927398136,0.0016927648489784,0.0622253982203578,-0.0038294699498561,2.61705109019401,-0.144963141214248,237.899774010092,304.735411748728,-19.3111206710018,3.5858994
3,3,35,0.0299999999999999,-0.0046410513202559,-0.0046410513202559,-0.027848879358281,-0.0557772798034009,0.0063413927398136,0.0016927648489784,0.0622253982203578,-0.0038294699498561,2.61705109019401,-0.144963141214248,237.899774010092,304.735411748728,-18.609885469732,36.78412
4,4,36,0.0399999999999999,-0.0046410513202559,-0.0046410513202559,-0.027848879358281,-0.0557772798034009,0.0063413927398136,0.0016927648489784,0.0622253982203578,-0.0038294699498561,2.61705109019401,-0.144963141214248,237.899774010092,304.735411748728,-17.8062563938449,51.20845
5,5,37,0.0499999999999999,-0.0046410513202559,-0.0046410513202559,-0.027848879358281,-0.0557772798034009,0.0063413927398136,0.0016927648489784,0.0622253982203578,-0.0038294699498561,2.61705109019401,-0.144963141214248,237.899774010092,304.735411748728,-16.9094652901651,47.998894
6,6,38,0.06,-0.0046410513202559,-0.0046410513202559,-0.027848879358281,-0.0557772798034009,0.0063413927398136,0.0016927648489784,0.0622253982203578,-0.0038294699498561,2.61705109019401,-0.144963141214248,237.899774010092,304.735411748728,-15.9330373486409,73.99183
7,7,39,0.07,-0.0046410513202559,-0.0046410513202559,-0.027848879358281,-0.0557772798034009,0.0063413927398136,0.0016927648489784,0.0622253982203578,-0.0038294699498561,2.61705109019401,-0.144963141214248,237.899774010092,304.735411748728,-14.8869191434767,66.98635
8,8,40,0.08,-0.0046410513202559,-0.0046410513202559,-0.027848879358281,-0.0557772798034009,0.0063413927398136,0.0016927648489784,0.0622253982203578,-0.0038294699498561,2.61705109019401,-0.144963141214248,237.899774010092,304.735411748728,-13.7824344690812,75.7511
9,9,41,0.0899999999999999,-0.0046410513202559,-0.0046410513202559,-0.027848879358281,-0.0557772798034009,0.0063413927398136,0.0016927648489784,0.0622253982203578,-0.0038294699498561,2.61705109019401,-0.144963141214248,237.899774010092,304.735411748728,-12.6281257840141,77.581375
10,10,42,0.0999999999999999,-0.0046410513202559,-0.0046410513202559,-0.027848879358281,-0.0557772798034009,0.0063413927398136,0.0016927648489784,0.0622253982203578,-0.0038294699498561,2.61705109019401,-0.144963141214248,237.899774010092,304.735411748728,-11.4323572042523,79.09396
11,11,43,0.1099999999999999,-0.0046410513202559,-0.0046410513202559,-0.027848879358281,-0.0557772798034009,0.0063413927398136,0.0016927648489784,0.0622253982203578,-0.0038294699498561,2.61705109019401,-0.144963141214248,237.899774010092,304.735411748728,-10.2013830364638,80.58306
12,12,44,0.12,-0.0046410513202559,-0.0046410513202559,-0.027848879358281,-0.0557772798034009,0.0063413927398136,0.0016927648489784,0.0622253982203578,-0.0038294699498561,2.61705109019401,-0.144963141214248,237.899774010092,304.735411748728,-8.94078429155831,81.54959
13,13,45,0.13,-0.0046410513202559,-0.0046410513202559,-0.027848879358281,-0.0557772798034009,0.0063413927398136,0.0016927648489784,0.0622253982203578,-0.0038294699498561,2.61705109019401,-0.144963141214248,237.899774010092,304.735411748728,-7.6549990139497,82.63351
14,14,46,0.14,-0.0046410513202559,-0.0046410513202559,-0.027848879358281,-0.0557772798034009,0.0063413927398136,0.0016927648489784,0.0622253982203578,-0.0038294699498561,2.61705109019401,-0.144963141214248,237.899774010092,304.735411748728,-6.34866834061924,83.81473
15,15,47,0.1499999999999999,-0.0046410513202559,-0.0046410513202559,-0.027848879358281,-0.0557772798034009,0.0063413927398136,0.0016927648489784,0.0622253982203578,-0.0038294699498561,2.61705109019401,-0.144963141214248,237.899774010092,304.735411748728,-5.02803512467987,84.70603
16,16,48,0.1599999999999999,-0.0046410513202559,-0.0046410513202559,-0.027848879358281,-0.0557772798034009,0.0063413927398136,0.0016927648489784,0.0622253982203578,-0.0038294699498561,2.61705109019401,-0.144963141214248,237.899774010092,304.735411748728,-3.7049441488816,86.057686
17,17,49,0.1699999999999999,-0.0046410513202559,-0.0046410513202559,-0.027848879358281,-0.0557772798034009,0.0063413927398136,0.0016927648489784,0.0622253982203578,-0.0038294699498561,2.61705109019401,-0.144963141214248,237.899774010092,304.735411748728,-2.40569363335997,86.73274
18,18,50,0.18,-0.0046410513202559,-0.0046410513202559,-0.027848879358281,-0.0557772798034009,0.0063413927398136,0.0016927648489784,0.0622253982203578,-0.0038294699498561,2.61705109019401,-0.144963141214248,237.899774010092,304.735411748728,-1.19251754556681,87.49781
19,19,51,0.19,-0.0046410513202559,-0.0046410513202559,-0.027848879358281,-0.0557772798034009,0.0063413927398136,0.0016927648489784,0.0622253982203578,-0.0038294699498561,2.61705109019401,-0.144963141214248,237.899774010092,304.735411748728,-0.209791911245765,88.05902
20,20,52,0.2,-0.0046410513202559,-0.0046410513202559,-0.027848879358281,-0.0557772798034009,0.0063413927398136,0.0016927648489784,0.0622253982203578,-0.0038294699498561,2.61705109019401,-0.144963141214248,237.899774010092,304.735411748728,0.269511048723305,88.48816
21,21,53,0.21,-0.0046410513202559,-0.0046410513202559,-0.027848879358281,-0.0557772798034009,0.0063413927398136,0.0016927648489784,0.0622253982203578,-0.0038294699498561,2.61705109019401,-0.144963141214248,237.899774010092,304.735411748728,0.0352050915394572,88.84548
22,22,54,0.22,-0.0046410513202559,-0.0046410513202559,-0.027848879358281,-0.0557772798034009,0.0063413927398136,0.0016927648489784,0.0622253982203578,-0.0038294699498561,2.61705109019401,-0.144963141214248,237.899774010092,304.735411748728,-0.574191396251739,89.13774
23,23,55,0.23,-0.0046410513202559,-0.0046410513202559,-0.027848879358281,-0.0557772798034009,0.0063413927398136,0.0016927648489784,0.0622253982203578,-0.0038294699498561,2.61705109019401,-0.144963141214248,237.899774010092,304.735411748728,-0.971302502377323,89.40056
24,24,56,0.24,-0.0046410513202559,-0.0046410513202559,-0.027848879358281,-0.0557772798034009,0.0063413927398136,0.0016927648489784,0.0622253982203578,-0.0038294699498561,2.61705109019401,-0.144963141214248,237.899774010092,304.735411748728,-0.717081552498479,89.64613
25,25,57,0.2499999999999999,-0.0046410513202559,-0.0046410513202559,-0.027848879358281,-0.0557772798034009,0.0063413927398136,0.0016927648489784,0.0622253982203578,-0.0038294699498561,2.61705109019401,-0.144963141214248,237.899774010092,304.735411748728,0.0979054897119753,89.86603
26,26,58,0.2599999999999999,-0.0046410513202559,-0.0046410513202559,-0.027848879358281,-0.0557772798034009,0.0063413927398136,0.0016927648489784,0.0622253982203578,-0.0038294699498561,2.61705109019401,-0.144963141214248,237.899774010092,304.735411748728,0.597024650637207,90.07972
27,27,59,0.2699999999999999,-0.0046410513202559,-0.0046410513202559,-0.027848879358281,-0.0557772798034009,0.0063413927398136,0.0016927648489784,0.0622253982203578,-0.0038294699498561,2.61705109019401,-0.144963141214248,237.899774010092,304.735411748728,-0.0305832986503414,90.25743
28,28,60,0.2799999999999999,-0.0046410513202559,-0.0046410513202559,-0.027848879358281,-0.0557772798034009,0.0063413927398136,0.0016927648489784,0.0622253982203578,-0.0038294699498561,2.61705109019401,-0.144963141214248,237.899774010092,304.735411748728,-0.954660381020869,90.41267
29,29,61,0.29,-0.0046410513202559,-0.0046410513202559,-0.027848879358281,-0.0557772798034009,0.0063413927398136,0.0016927648489784,0.0622253982203578,-0.0038294699498561,2.61705109019401,-0.144963141214248,237.899774010092,304.735411748728,-1.23450832177095,90.54244
30,30,62,0.3,-0.0046410513202559,-0.0046410513202559,-0.027848879358281,-0.0557772798034009,0.0063413927398136,0.0016927648489784,0.0622253982203578,-0.0038294699498561,2.61705109019401,-0.144963141214248,237.899774010092,304.735411748728,-0.124140454932102,90.64933
31,31,63,0.31,-0.0046410513202559,-0.0046410513202559,-0.027848879358281,-0.0557772798034009,0.0063413927398136,0.0016927648489784,0.0622253982203578,-0.0038294699498561,2.61705109019401,-0.144963141214248,237.899774010092,304.735411748728,1.3159654030505,90.739235
32,32,64,0.32,-0.0046410513202559,-0.0046410513202559,-0.027848879358281,-0.0557772798034009,0.0063413927398136,0.0016927648489784,0.0622253982203578,-0.0038294699498561,2.61705109019401,-0.144963141214248,237.899774010092,304.735411748728,1.82165894615201,90.81541
33,33,65,0.33,-0.0046410513202559,-0.0046410513202559,-0.027848879358281,-0.0557772798034009,0.0063413927398136,0.0016927648489784,0.0622253982203578,-0.0038294699498561,2.61705109019401,-0.144963141214248,237.899774010092,304.735411748728,0.679852989609839,90.88129
34,34,66,0.34,-0.0046410513202559,-0.0046410513202559,-0.027848879358281,-0.0557772798034009,0.0063413927398136,0.0016927648489784,0.0622253982203578,-0.0038294699498561,2.61705109019401,-0.144963141214248,237.899774010092,304.735411748728,0.367537269961224,90.93975
35,35,67,0.35,-0.0046410513202559,-0.0046410513202559,-0.027848879358281,-0.0557772798034009,0.0063413927398136,0.0016927648489784,0.0622253982203578,-0.0038294699498561,2.61705109019401,-0.144963141214248,237.899774010092,304.735411748728,0.0371453220271685,90.99158
36,36,68,0.36,1.22628300642646,-0.0244754390641077,1.73317629723054,0.180488508857027,-0.59295765888362,-1.07367139932986,-1.02422534703189,-1.40976544772831,2.61705109019401,-0.144963141214248,230.027775584601,304.735411748728,22.5803130854449,132.34814
37,37,69,0.3699999999999999,1.26554141527639,-0.179691736464584,2.31901161114758,0.996850219944547,-0.478270879329116,-1.18538650233549,-2.02422603389482,-1.50799011181879,2.61705109019401,-0.144963141214248,129.957201720875,304.735411748728,-12.5820657906837,172.225
38,38,70,0.3799999999999999,1.31433596326299,0.0440362490552012,2.4356155963109,-0.760347226160967,-0.696356551054522,-1.11557418819223,-0.56167458571633,-2.48895015962232,2.61705109019401,-0.144963141214248,43.8734324655493,304.735411748728,-13.2195015499031,207.3587
39,39,71,0.3899999999999999,0.659703461245516,-0.0436649649461437,2.37766552723707,-0.407357683015325,0.660957195810354,-0.0158389156691869,2.40466506177171,0.191884293306114,-1.66084771715093,148.785590358578,9.87640313459975,304.735411748728,-248.772955307214,212.70193
40,40,72,0.3999999999999999,0.532743838393708,0.0924790542065955,2.90519884850391,-0.758233516336321,0.249684529178402,0.479610267511411,0.158507782866611,2.99832848390815,-0.308113191876785,174.726362996861,90.6981307736748,304.735411748728,-287.619502515035,195.11133
41,41,73,0.41,0.483421676137255,-0.0339529543955646,2.73134864130254,-0.0557772798034009,-0.478040501407156,0.0795399213347345,-2.66926512965771,0.581721731484144,1.33579986189009,203.718991239648,200.854700843768,304.735411748728,-240.630145027442,205.59573
42,42,74,0.42,0.317848506314051,0.0147829697847586,2.72888517674771,-0.0557772798034009,0.0129162665284976,-0.317929833800943,0.292896550693546,-2.71369434966569,-3.05451283665187,239.730887372794,294.876664007913,304.735411748728,-294.826069463159,212.40237
43,43,75,0.43,0.298014118558401,0.0438603776226487,2.61298503860859,-0.289224788646984,0.297736800418249,0.0457049807137657,2.4124352201984,1.04474786370038,-1.27235088583223,250.720542238181,339.795675514376,304.735411748728,-332.620092665857,249.23627
44,44,76,0.44,0.327970883509116,0.0051295830381796,2.9030873075293,-0.17391017414183,-0.165341970743284,0.283290038234002,-1.65121324777252,2.3940876078766,0.543949086454305,239.730887372794,315.786313453838,304.735411748728,-340.996118209558,244.52144
45,45,77,0.45,0.0832946579056646,-0.0728009965957464,2.37696168022354,0.530659772187966,0.0455130299223683,-0.100829307486669,-1.19725883795659,-2.12087668147031,2.84732601714808,305.95615399053,278.834118162806,304.735411748728,-344.569252258009,253.35756
46,46,78,0.46,0.13197195827907,0.0146657221715852,2.61192926807015,-0.172501034248684,0.132062873215972,-0.0138231218170433,2.61077509294641,0.189167973687479,-1.56441385453224,291.917618209812,250.680504886488,304.735411748728,-329.575835154193,282.65082
47,47,79,0.47,0.181059625294174,0.0147243459841607,2.96314891761263,-0.289929358666923,-0.0557330448253322,0.172896564427479,-1.4025376538372,2.62625182923017,0.392976968586152,271.775371220086,257.736835439367,304.735411748728,-321.615132345989,258.24374
48,48,80,0.48,0.298307237597685,-0.0239478248113873,3.13911066586101,-0.173910174146107,-0.1464538916655,-0.260982688951564,-1.60597353303071,-2.70279661321356,2.55011196832661,247.970897504955,273.880461271593,304.735411748728,-331.139147367991,259.1185
49,49,81,0.49,0.220259410336753,0.0051882068425091,3.0801048263007,-0.291338498513725,0.220135773841797,0.0090203329876467,3.05491980848657,0.489273773498523,-1.50629238363973,263.840546648375,305.864598322284,304.735411748728,-327.317498870459,280.09277
50,50,82,0.4999999999999999,0.161401108966538,0.0051882068447929,3.25712234503327,-0.291338498541173,-0.0999518780371737,0.12683397629474,-2.32008069167749,2.30454977714792,0.699547267422826,273.911670145548,323.962102057103,304.735411748728,-311.614529706053,253.76624
51,51,83,0.51,0.190478516825921,0.005364078256209,2.84760070286907,-0.174614744049542,-0.036115063203243,-0.187100349859554,-0.288461834334175,-2.83832870576198,2.97906626415351,281.846494715304,320.956024286667,304.735411748728,-325.319841138561,259.17438
52,52,84,0.52,0.0542758738643084,-0.0433132221064693,3.13805489535779,0.176965659120326,0.0071317347039085,0.0690727446471596,2.32517523878838,2.11477315088693,-0.776417390500916,294.969473814315,331.896926628813,304.735411748728,-333.354376375602,282.8991
53,53,85,0.53,0.112372065762235,-0.0336598353721438,2.78859486329823,-0.0564818497321337,-0.113893909373871,-0.0280827898985911,-2.7879912533358,0.0809708730687311,1.52150993745889,302.904298386026,320.910246452599,304.735411748728,-326.932190514871,275.16928
54,54,86,0.54,0.0641051320306015,0.0148415935896473,2.72677363573912,-0.173205604196326,0.0323819570048999,-0.0572813208076937,1.97039528762739,-1.89283835875723,-2.39955665662795,307.787267354231,318.728169696135,304.735411748728,-317.583470787041,291.46848
55,55,87,0.55,0.0342656146989004,-0.0339529543955646,2.72958902372529,-0.0557772798034009,-0.0305328199569665,0.0373454464206314,0.204612819036187,2.72248065882384,-0.0954471974312908,312.975421880888,318.805992013216,304.735411748728,-337.089248895963,274.2346
56,56,88,0.56,0.0343242384991947,0.0047778401953041,2.61192926807548,0.0630601845061675,-0.0279729510932663,-0.0204571530916497,-1.91948007193259,-1.77249748709355,2.34054261486983,315.722091924942,313.016621930819,304.735411748728,-346.325519359437,272.21402
57,57,89,0.5700000000000001,0.0246708517550509,0.0343242385034066,2.43526367282105,-0.172501034263317,0.0197425708156609,-0.0373769336991018,2.43596372390554,-0.162316046033763,-1.70804769393429,315.722091924942,310.839122957736,304.735411748728,-330.545162241109,308.5027
58,58,90,0.5800000000000001,0.043919001435303,-0.0630889860488999,2.32006738165401,0.295803123414928,-0.0764854160432658,-0.0076863502679081,-1.28463459779882,1.95446312151834,0.708291224781621,318.773947529447,312.975421880888,304.735411748728,-341.355313053973,272.55566
59,59,91,0.5900000000000001,0.0640465082148826,-0.0831578690190497,2.43385597885628,0.533478051966681,0.0596421670165955,-0.0863712817310996,-1.25086524259267,-2.15489904696675,2.83143144768708,310.839122957736,294.969473814315,304.735411748728,-346.364500341993,262.72543
60,60,92,0.6000000000000001,-0.004406556090249,-0.0043479322827473,2.66882356664181,-0.0571864197285927,-0.0054689914066497,0.00290041112704,2.54014652850065,0.820697953092488,-1.27971650664976,310.839122957736,294.969473814315,304.735411748728,-357.3115584447,304.3205
61,61,93,0.6100000000000001,0.0633430225510231,-0.0240650724263374,2.43737521377087,0.178374799045172,-0.0657912483401485,0.0162165920781524,-1.90368817529625,1.53250997806743,0.966053882816763,310.839122956937,294.969473814315,304.735411748728,-344.583819205087,277.08276
62,62,94,0.6199999999999999,0.0447983585487184,0.0724687950089957,2.60841003302166,-0.168273614443188,-0.0743337209797251,-0.0416307230783198,0.0556032960760907,-2.6132407434355,3.09844429226687,305.95615399053,284.898350319453,304.735411748728,-363.431007147794,271.22327
63,63,95,0.6299999999999999,0.0345001099190602,0.0146657221743207,2.72888517674771,-0.0550727098639775,0.0373194486772787,0.0035496114922,2.3727781002441,1.34898902821599,-1.07401874544956,299.852442781522,289.781319286659,304.735411748728,-351.967212848751,293.65192
64,64,96,0.6399999999999999,0.151161484144008,-0.0046410513202559,2.43807906085825,-0.0557772798034009,-0.126245517990112,0.0832670573119082,-2.02522220724135,1.35860797260807,0.957033800565781,297.716143858369,284.898350319453,304.735411748728,-365.841622168762,268.55554
65,65,97,0.6499999999999999,-0.0233029629508719,0.150457998493956,3.19354150002301,-0.402425693449796,-0.152079205740521,-0.0072493154455541,1.03280014223185,-3.04860256795202,-2.94030138740521,297.716143857209,284.852572485774,304.735411748728,-345.232115565745,279.26205
66,66,98,0.6599999999999999,0.103070421854673,-0.0140599428304855,2.72782940622421,0.0595373346825364,0.0813863801940134,0.0647877378260139,2.37466697228638,1.34370931916649,-1.0340419860716,289.781319286659,289.735541453681,304.735411748728,-344.480189335212,292.76605
67,67,99,0.6699999999999999,0.112020322921688,0.0047778402026094,2.90766231297131,-0.171796464308953,-0.091287711171268,0.0650994185349764,-2.53084821286284,1.44181187221902,0.993942504643584,289.781319286659,286.729463682155,304.735411748728,-352.873916865596,273.2463
68,68,100,0.6799999999999999,0.103363540896446,0.0439190014308609,2.90238346044749,-0.171796464254056,-0.0247094575327182,-0.109555205178823,0.688500409897448,-2.8247674173603,-2.96163971286479,286.729463682155,289.781319286659,304.735411748728,-359.117161765754,275.72037
69,69,101,0.69,0.131913334473418,-0.0140599428420539,2.72994094723648,-0.0571864196950501,0.0933575111999837,0.0942506493726302,2.07975265668021,1.76931533340656,-0.886821357081577,289.781319286659,297.674943808158,304.735411748728,-341.196140069988,284.85242
70,70,102,0.7,0.268584967865602,0.0148415935882251,2.26106154208869,-0.172501034223053,-0.255785760393525,0.0832574479762071,-2.22962962601782,0.413409766096728,1.31131747546183,289.781319286659,294.969473814315,304.735411748728,-359.246183039037,268.4789
71,71,103,0.71,0.151864969833488,0.0048950878131496,2.66917549016885,-0.0550727098557586,0.0360748301407811,-0.147599246534454,0.769973861081815,-2.55630026678005,-2.86965941547976,289.781319286659,291.917618209812,304.735411748728,-377.594125661459,270.73282
72,72,104,0.72,0.0931239160682517,0.0440948728636191,2.90449500152527,-0.173205604196326,0.0923800525857233,0.0456327452714004,1.66730768057693,2.38457050503848,-0.669756451310444,291.917618209812,307.787267353232,304.735411748728,-384.336398156725,277.64188
73,73,105,0.73,0.132147829697843,-0.0241236962306935,2.78753909283507,-0.0557772798034009,-0.131520126671731,-0.0273396761855868,-2.78534938048774,-0.123750263202039,1.59518928325581,294.969473814315,302.904298386026,304.735411748728,-367.134535243293,277.10193
