t,iq,id,vq,vd,ia,ib,va,vb,theta_e,omega,omega_obs,r,omega_ekf
0,0,0,0,0,0,0,0,0,0,-0.144963141214248,0,0,0
0.01,-0.0241823200371289,-0.00464105132025594,0.148112868903805,-0.0557772798034009,0.00802466531104168,-0.0232793622417183,-0.122157011891598,0.100628978544446,0.52156938491557,-0.144963141214248,77.9825403340865,-0.144963141214248,8.47936485908556e-10
0.02,-0.0238892010089973,-0.00464105132025594,0.146705174930298,-0.0557772798034009,0.00787862125625029,-0.0230252168134437,-0.121455640380145,0.0994084539334817,0.52156938491557,-0.144963141214248,77.9825403340865,-0.144963141214248,-2.53623205062671
0.03,-0.0237719533971227,-0.00464105132025594,0.146001327940344,-0.0557772798034009,0.00782020363402386,-0.0229235586415946,-0.121104954622824,0.0987981916252247,0.52156938491557,-0.144963141214248,82.8370369639837,-0.144963141214248,-1.17510380896789
0.04,-0.0143530618728908,0.0147829697850138,0.0891070293220194,-0.172501034254174,0.0199686918283046,-0.00507916601991549,-0.193961823165653,-0.00868795992225736,0.52156938491557,-0.144963141214248,82.8655093012931,-0.144963141214248,-15.9957793672976
0.05,0.0724687950412161,-0.0529666088594293,-0.315839607370728,0.176261089209574,-0.0820310381068292,0.0364430610117962,0.310189507344573,-0.186024457227463,0.52156938491557,-0.144963141214248,85.9173649057966,-0.144963141214248,-9.24239931669602
0.06,0.0343828623080602,-0.0240650724262762,-0.144804788040825,0.0609464746518749,-0.0379963076298099,0.0178210419975319,0.124990678818947,-0.0951852384585905,0.52156938491557,-0.144963141214248,85.9173649057966,-0.144963141214248,-5.7212469589657
0.07,-0.0240650724260983,-0.00464105132025594,0.147409021918384,-0.0557772798034009,0.00796624768923575,-0.023177704070601,-0.121806326136535,0.10001871624012,0.52156938491557,-0.144963141214248,85.9173649057966,-0.144963141214248,-4.42581659889712
0.08,-0.0630303622484549,0.0147829697854071,0.381320839280276,-0.172501034256537,0.0442217414121525,-0.0472842505209127,-0.339554860727787,0.244672609511408,0.52156938491557,-0.144963141214248,82.8655093012931,-0.144963141214248,-15.5145135717715
0.09,-0.0434304697255355,0.0149002173966153,0.20535909101606,-0.173205604196326,0.0345579203657555,-0.0302319751098263,-0.252494310144457,0.091755985813634,0.52156938491557,-0.144963141214248,77.9825403340865,-0.144963141214248,-30.3578496667597
0.1,-0.0436649649482216,-0.0238305772024576,0.206414861496877,0.0595373347638701,0.0010936727180562,-0.0497325793993987,-0.0512232931311694,0.208633562780196,0.52156938491557,-0.144963141214248,74.9306847295829,-0.144963141214248,-27.4061180567897
0.11,0.0631085273242523,-0.0239478248136595,-0.259297232254311,0.0602419047036212,-0.0522069669560636,0.0427857118158633,0.181424673125306,-0.194805620346134,0.52156938491557,-0.144963141214248,72.79438580643,-0.144963141214248,-39.006913412736
0.12,0.15075111752825,-0.0920491462975412,-0.727120867010061,0.411117738018768,-0.15492059476901,0.0848442931878073,0.718736598864097,-0.425605746211679,0.52156938491557,-0.144963141214248,74.9306847295829,-0.144963141214248,-33.3843404703241
0.13,-0.062913114637913,0.0147829697856292,0.380616992297789,-0.172501034257871,0.0441633237907826,-0.0471825923501083,-0.339204174975343,0.24406234720896,0.52156938491557,-0.144963141214248,74.9306847295829,-0.144963141214248,-45.5759582486584
0.14,0.0237328708657386,-0.0529666088621976,-0.081927790035202,0.176261089224361,-0.0577487797176107,-0.00581285257147779,0.193644940172345,0.0167860507642253,0.52156938491557,-0.144963141214248,80.7292103781401,-0.144963141214248,-12.8283129551095
0.15,0.160404504271079,-0.0727423728009535,-0.785070936089332,0.295098553494206,-0.142990599985696,0.102833584528082,0.647016648066991,-0.533656245246609,0.52156938491557,-0.144963141214248,82.8513326981613,-0.144963141214248,-29.6546311592654
0.16,0.0722929236263463,-0.0529666088606289,-0.315135760394416,0.176261089215982,-0.0819434116759956,0.0362905737559757,0.309838821599605,-0.185414194927841,0.52156938491557,-0.144963141214248,85.9173649057966,-0.144963141214248,-13.3874924459362
0.17,-0.0238892010079026,-0.00464105132025594,0.146705174925041,-0.0557772798034009,0.00787862125570486,-0.0230252168124945,-0.121455640377525,0.0994084539289234,0.52156938491557,-0.144963141214248,82.8655093012931,-0.144963141214248,-31.8377019072568
0.18,-0.0243581914549308,-0.00440655609652016,0.207470631981614,-0.0571864196909079,0.00831560808806293,-0.0233150142550371,-0.152953289161545,0.151392341505704,0.52156938491557,-0.144963141214248,80.7292103781401,-0.144963141214248,-21.8720330406652
0.19,-0.0148220523169874,0.015017465007557,0.09121857027866,-0.173910174134514,0.020405678658168,-0.00536896346051051,-0.196235658698618,-0.00755926493114514,0.52156938491557,-0.144963141214248,77.9825403340865,-0.144963141214248,-32.3077585968641
0.2,0.0440948728608026,-0.0532011040846369,-0.203106780634409,0.177670229103944,-0.068097289819802,0.0117249480865631,0.255243116571603,-0.0875786851484804,0.52156938491557,-0.144963141214248,74.9306847295829,-0.144963141214248,-22.0261012818072
0.21,0.024553604143754,-0.00475829893155287,-0.0861508719521333,-0.0550727098630784,-0.0163592512546186,0.0189181337229244,-0.00482621268128919,-0.102135614654882,0.52156938491557,-0.144963141214248,72.79438580643,-0.144963141214248,-29.9438172008542
0.22,-0.0531424802780313,0.034089743279082,0.263661083608407,-0.288520218765201,0.056034900946572,-0.0290916428350571,-0.381524969626434,0.0848515244260693,0.52156938491557,-0.144963141214248,72.79438580643,-0.144963141214248,-20.8282574411963
0.23,-0.024358191454598,-0.00440655609696383,0.14881671589292,-0.0571864196882418,0.00831560808751247,-0.0233150142549697,-0.123729475919992,0.100537148927538,0.52156938491557,-0.144963141214248,72.79438580643,-0.144963141214248,-27.9374441834476
0.24,-0.00464105132025594,-0.00464105132025594,-0.027848879358281,-0.0557772798034009,-0.00171160509545909,-0.00633633353854556,-0.0344855721758641,-0.051936599190573,0.52156938491557,-0.144963141214248,72.79438580643,269.944257857383,-16.2911306837214
0.25,-0.00464105132025594,-0.00464105132025594,-0.027848879358281,-0.0557772798034009,-0.00171160509545909,-0.00633633353854556,-0.0344855721758641,-0.051936599190573,0.52156938491557,-0.144963141214248,72.79438580643,269.944257857383,-25.0856096146556
0.26,-0.00464105132025594,-0.00464105132025594,-0.027848879358281,-0.0557772798034009,-0.00171160509545909,-0.00633633353854556,-0.0344855721758641,-0.051936599190573,0.52156938491557,-0.144963141214248,72.79438580643,269.944257857383,-14.3815125483208
0.27,-0.00464105132025594,-0.00464105132025594,-0.027848879358281,-0.0557772798034009,-0.00171160509545909,-0.00633633353854556,-0.0344855721758641,-0.051936599190573,0.52156938491557,-0.144963141214248,72.79438580643,269.944257857383,-24.2117926056052
0.28,-0.00464105132025594,-0.00464105132025594,-0.027848879358281,-0.0557772798034009,-0.00171160509545909,-0.00633633353854556,-0.0344855721758641,-0.051936599190573,0.52156938491557,-0.144963141214248,72.79438580643,269.944257857383,-14.5285955324304
0.29,-0.00464105132025594,-0.00464105132025594,-0.027848879358281,-0.0557772798034009,-0.00171160509545909,-0.00633633353854556,-0.0344855721758641,-0.051936599190573,0.52156938491557,-0.144963141214248,72.79438580643,269.944257857383,-25.0911516556585
0.3,-0.00464105132025594,-0.00464105132025594,-0.027848879358281,-0.0557772798034009,-0.00171160509545909,-0.00633633353854556,-0.0344855721758641,-0.051936599190573,0.52156938491557,-0.144963141214248,72.79438580643,269.944257857383,-16.3425449456929
0.31,-0.00464105132025594,-0.00464105132025594,-0.027848879358281,-0.0557772798034009,-0.00171160509545909,-0.00633633353854556,-0.0344855721758641,-0.051936599190573,0.52156938491557,-0.144963141214248,72.79438580643,269.944257857383,-26.8992028926039
0.32,-0.00464105132025594,-0.00464105132025594,-0.027848879358281,-0.0557772798034009,-0.00171160509545909,-0.00633633353854556,-0.0344855721758641,-0.051936599190573,0.52156938491557,-0.144963141214248,72.79438580643,269.944257857383,-18.9375762825634
0.33,-0.00464105132025594,-0.00464105132025594,-0.027848879358281,-0.0557772798034009,-0.00171160509545909,-0.00633633353854556,-0.0344855721758641,-0.051936599190573,0.52156938491557,-0.144963141214248,72.79438580643,269.944257857383,-28.9477705250547
0.34,-0.00464105132025594,-0.00464105132025594,-0.027848879358281,-0.0557772798034009,-0.00171160509545909,-0.00633633353854556,-0.0344855721758641,-0.051936599190573,0.52156938491557,-0.144963141214248,72.79438580643,269.944257857383,-21.6439593450268
0.35,-0.00464105132025594,-0.00464105132025594,-0.027848879358281,-0.0557772798034009,-0.00171160509545909,-0.00633633353854556,-0.0344855721758641,-0.051936599190573,0.52156938491557,-0.144963141214248,72.79438580643,269.944257857383,-30.7499308009848
0.36,-0.00464105132025594,-0.00464105132025594,-0.027848879358281,-0.0557772798034009,-0.00171160509545909,-0.00633633353854556,-0.0344855721758641,-0.051936599190573,0.52156938491557,-0.144963141214248,72.79438580643,269.944257857383,-23.9773065744413
0.37,-0.00464105132025594,-0.00464105132025594,-0.027848879358281,-0.0557772798034009,-0.00171160509545909,-0.00633633353854556,-0.0344855721758641,-0.051936599190573,0.52156938491557,-0.144963141214248,72.79438580643,269.944257857383,-31.9299191535434
0.38,-0.00464105132025594,-0.00464105132025594,-0.027848879358281,-0.0557772798034009,-0.00171160509545909,-0.00633633353854556,-0.0344855721758641,-0.051936599190573,0.52156938491557,-0.144963141214248,72.79438580643,269.944257857383,-25.5567724098087
0.39,-0.00464105132025594,-0.00464105132025594,-0.027848879358281,-0.0557772798034009,-0.00171160509545909,-0.00633633353854556,-0.0344855721758641,-0.051936599190573,0.52156938491557,-0.144963141214248,72.79438580643,269.944257857383,-32.216500522994
0.4,-0.00464105132025594,-0.00464105132025594,-0.027848879358281,-0.0557772798034009,-0.00171160509545909,-0.00633633353854556,-0.0344855721758641,-0.051936599190573,0.52156938491557,-0.144963141214248,72.79438580643,269.944257857383,-26.150328327298
0.41,-0.00464105132025594,-0.00464105132025594,-0.027848879358281,-0.0557772798034009,-0.00171160509545909,-0.00633633353854556,-0.0344855721758641,-0.051936599190573,0.52156938491557,-0.144963141214248,72.79438580643,269.944257857383,-31.5058833251766
0.42,-0.00464105132025594,-0.00464105132025594,-0.027848879358281,-0.0557772798034009,-0.00171160509545909,-0.00633633353854556,-0.0344855721758641,-0.051936599190573,0.52156938491557,-0.144963141214248,72.79438580643,269.944257857383,-25.7431708242338
0.43,-0.00464105132025594,-0.00464105132025594,-0.027848879358281,-0.0557772798034009,-0.00171160509545909,-0.00633633353854556,-0.0344855721758641,-0.051936599190573,0.52156938491557,-0.144963141214248,72.79438580643,269.944257857383,-29.8960689720941
0.44,-0.00464105132025594,-0.00464105132025594,-0.027848879358281,-0.0557772798034009,-0.00171160509545909,-0.00633633353854556,-0.0344855721758641,-0.051936599190573,0.52156938491557,-0.144963141214248,72.79438580643,269.944257857383,-24.507532877286
0.45,-0.00464105132025594,-0.00464105132025594,-0.027848879358281,-0.0557772798034009,-0.00171160509545909,-0.00633633353854556,-0.0344855721758641,-0.051936599190573,0.52156938491557,-0.144963141214248,72.79438580643,269.944257857383,-27.6182933108244
0.46,-0.00464105132025594,-0.00464105132025594,-0.027848879358281,-0.0557772798034009,-0.00171160509545909,-0.00633633353854556,-0.0344855721758641,-0.051936599190573,0.52156938491557,-0.144963141214248,72.79438580643,269.944257857383,-22.6898669957261
0.47,-0.00464105132025594,-0.00464105132025594,-0.027848879358281,-0.0557772798034009,-0.00171160509545909,-0.00633633353854556,-0.0344855721758641,-0.051936599190573,0.52156938491557,-0.144963141214248,72.79438580643,269.944257857383,-24.9260215498436
0.48,-0.00464105132025594,-0.00464105132025594,-0.027848879358281,-0.0557772798034009,-0.00171160509545909,-0.00633633353854556,-0.0344855721758641,-0.051936599190573,0.52156938491557,-0.144963141214248,72.79438580643,269.944257857383,-20.5197197784048
0.49,-0.00464105132025594,-0.00464105132025594,-0.027848879358281,-0.0557772798034009,-0.00171160509545909,-0.00633633353854556,-0.0344855721758641,-0.051936599190573,0.52156938491557,-0.144963141214248,72.79438580643,269.944257857383,-22.0301212623596
0.5,-0.00464105132025594,-0.00464105132025594,-0.027848879358281,-0.0557772798034009,-0.00171160509545909,-0.00633633353854556,-0.0344855721758641,-0.051936599190573,0.52156938491557,-0.144963141214248,72.79438580643,269.944257857383,-18.1747557327999
0.51,-0.00464105132025594,-0.00464105132025594,-0.027848879358281,-0.0557772798034009,-0.00171160509545909,-0.00633633353854556,-0.0344855721758641,-0.051936599190573,0.52156938491557,-0.144963141214248,72.79438580643,269.944257857383,-19.0835773046287
0.52,-0.00464105132025594,-0.00464105132025594,-0.027848879358281,-0.0557772798034009,-0.00171160509545909,-0.00633633353854556,-0.0344855721758641,-0.051936599190573,0.52156938491557,-0.144963141214248,72.79438580643,269.944257857383,-15.7767466343128
0.53,-0.00464105132025594,-0.00464105132025594,-0.027848879358281,-0.0557772798034009,-0.00171160509545909,-0.00633633353854556,-0.0344855721758641,-0.051936599190573,0.52156938491557,-0.144963141214248,72.79438580643,269.944257857383,-16.1866607553905
0.54,-0.00464105132025594,-0.00464105132025594,-0.027848879358281,-0.0557772798034009,-0.00171160509545909,-0.00633633353854556,-0.0344855721758641,-0.051936599190573,0.52156938491557,-0.144963141214248,72.79438580643,269.944257857383,-13.3977407469257
0.55,-0.00464105132025594,-0.00464105132025594,-0.027848879358281,-0.0557772798034009,-0.00171160509545909,-0.00633633353854556,-0.0344855721758641,-0.051936599190573,0.52156938491557,-0.144963141214248,72.79438580643,269.944257857383,-13.395830791335
0.56,-0.00464105132025594,-0.00464105132025594,-0.027848879358281,-0.0557772798034009,-0.00171160509545909,-0.00633633353854556,-0.0344855721758641,-0.051936599190573,0.52156938491557,-0.144963141214248,72.79438580643,269.944257857383,-11.0688379885645
0.57,-0.00464105132025594,-0.00464105132025594,-0.027848879358281,-0.0557772798034009,-0.00171160509545909,-0.00633633353854556,-0.0344855721758641,-0.051936599190573,0.52156938491557,-0.144963141214248,72.79438580643,269.944257857383,-10.7309867852999
0.58,-0.00464105132025594,-0.00464105132025594,-0.027848879358281,-0.0557772798034009,-0.00171160509545909,-0.00633633353854556,-0.0344855721758641,-0.051936599190573,0.52156938491557,-0.144963141214248,72.79438580643,269.944257857383,-8.78903696802663
0.59,-0.00464105132025594,-0.00464105132025594,-0.027848879358281,-0.0557772798034009,-0.00171160509545909,-0.00633633353854556,-0.0344855721758641,-0.051936599190573,0.52156938491557,-0.144963141214248,72.79438580643,269.944257857383,-8.18097041728948
0.6,-0.00464105132025594,-0.00464105132025594,-0.027848879358281,-0.0557772798034009,-0.00171160509545909,-0.00633633353854556,-0.0344855721758641,-0.051936599190573,0.52156938491557,-0.144963141214248,72.79438580643,269.944257857383,-6.53351439288943
0.61,-0.00464105132025594,-0.00464105132025594,-0.027848879358281,-0.0557772798034009,-0.00171160509545909,-0.00633633353854556,-0.0344855721758641,-0.051936599190573,0.52156938491557,-0.144963141214248,72.79438580643,269.944257857383,-5.70989200791935
0.62,-0.00464105132025594,-0.00464105132025594,-0.027848879358281,-0.0557772798034009,-0.00171160509545909,-0.00633633353854556,-0.0344855721758641,-0.051936599190573,0.52156938491557,-0.144963141214248,72.79438580643,269.944257857383,-4.2637020976641
0.63,-0.00464105132025594,-0.00464105132025594,-0.027848879358281,-0.0557772798034009,-0.00171160509545909,-0.00633633353854556,-0.0344855721758641,-0.051936599190573,0.52156938491557,-0.144963141214248,72.79438580643,269.944257857383,-3.27140016622761
0.64,-0.00464105132025594,-0.00464105132025594,-0.027848879358281,-0.0557772798034009,-0.00171160509545909,-0.00633633353854556,-0.0344855721758641,-0.051936599190573,0.52156938491557,-0.144963141214248,72.79438580643,269.944257857383,-1.9519671988119
0.65,-0.00464105132025594,-0.00464105132025594,-0.027848879358281,-0.0557772798034009,-0.00171160509545909,-0.00633633353854556,-0.0344855721758641,-0.051936599190573,0.52156938491557,-0.144963141214248,72.79438580643,269.944257857383,-0.858255053730753
0.66,-0.00464105132025594,-0.00464105132025594,-0.027848879358281,-0.0557772798034009,-0.00171160509545909,-0.00633633353854556,-0.0344855721758641,-0.051936599190573,0.52156938491557,-0.144963141214248,72.79438580643,269.944257857383,0.32206390867428
0.67,-0.00464105132025594,-0.00464105132025594,-0.027848879358281,-0.0557772798034009,-0.00171160509545909,-0.00633633353854556,-0.0344855721758641,-0.051936599190573,0.52156938491557,-0.144963141214248,72.79438580643,269.944257857383,1.29839798267959
0.68,-0.00464105132025594,-0.00464105132025594,-0.027848879358281,-0.0557772798034009,-0.00171160509545909,-0.00633633353854556,-0.0344855721758641,-0.051936599190573,0.52156938491557,-0.144963141214248,72.79438580643,269.944257857383,2.01208065509171
0.69,-0.00464105132025594,-0.00464105132025594,-0.027848879358281,-0.0557772798034009,-0.00171160509545909,-0.00633633353854556,-0.0344855721758641,-0.051936599190573,0.52156938491557,-0.144963141214248,72.79438580643,269.944257857383,2.23278584397061
0.7,-0.00464105132025594,-0.00464105132025594,-0.027848879358281,-0.0557772798034009,-0.00171160509545909,-0.00633633353854556,-0.0344855721758641,-0.051936599190573,0.52156938491557,-0.144963141214248,72.79438580643,269.944257857383,1.96446864016307
0.71,-0.00464105132025594,-0.00464105132025594,-0.027848879358281,-0.0557772798034009,-0.00171160509545909,-0.00633633353854556,-0.0344855721758641,-0.051936599190573,0.52156938491557,-0.144963141214248,72.79438580643,269.944257857383,1.5508200308626
0.72,-0.00464105132025594,-0.00464105132025594,-0.027848879358281,-0.0557772798034009,-0.00171160509545909,-0.00633633353854556,-0.0344855721758641,-0.051936599190573,0.52156938491557,-0.144963141214248,72.79438580643,269.944257857383,1.44996624946006
0.73,-0.00464105132025594,-0.00464105132025594,-0.027848879358281,-0.0557772798034009,-0.00171160509545909,-0.00633633353854556,-0.0344855721758641,-0.051936599190573,0.52156938491557,-0.144963141214248,72.79438580643,269.944257857383,1.78023058308677
0.74,-0.00464105132025594,-0.00464105132025594,-0.027848879358281,-0.0557772798034009,-0.00171160509545909,-0.00633633353854556,-0.0344855721758641,-0.051936599190573,0.52156938491557,-0.144963141214248,72.79438580643,269.944257857383,2.07777600283199
0.75,-0.00464105132025594,-0.00464105132025594,-0.027848879358281,-0.0557772798034009,-0.00171160509545909,-0.00633633353854556,-0.0344855721758641,-0.051936599190573,0.52156938491557,-0.144963141214248,72.79438580643,269.944257857383,1.73399897553693
0.76,0.914560687844689,0.0342069908913363,2.13953062793135,-0.289224788711276,-0.42601328767881,0.810002499192368,-1.31677185376998,1.71095124751717,0.52156938491557,-0.144963141214248,98.5991599129099,269.944257857383,9.61192085104434
0.77,1.12863528664703,-0.0240650724258759,1.73212052675594,0.0609464746494695,-0.583198241582405,0.966579820289503,-0.810171344818223,1.53218092404811,0.52156938491557,-0.144963141214248,161.869090404556,269.944257857383,1.91932071249298
0.78,1.14794206014087,-0.0238305772028363,1.85083605290685,0.0595373347661455,-0.592614360401722,0.983436367893691,-0.870542121078338,1.63440974189439,0.52156938491557,-0.144963141214248,161.933277899942,269.944257857383,8.9999623158624
0.79,1.16748332885722,-0.0044065560970517,1.90913804550235,-0.174614744080639,-0.585509260275961,1.01005724938108,-1.10260941536004,1.56829552788825,0.52156938491557,-0.144963141214248,98.8080585586001,269.944257857383,-1.68769776997828
